Time Stamp,ID,Extended,Bus,LEN,D1,D2,D3,D4,D5,D6,D7,D8
303004300,00000450,false,0,3,00,C2,05
303004600,00000462,false,0,8,FE,3F,FF,0F,F0,1F,00,00
303004800,00000471,false,0,6,15,54,11,00,00,54
302991800,00000103,false,1,8,00,00,00,00,00,00,00,00
302993400,00000416,false,1,8,1E,02,00,00,00,00,FF,FF
303011800,00000104,false,1,8,48,4E,C0,02,00,00,00,40
303014400,000005D0,false,0,8,8D,34,02,00,00,00,00,00
303014600,000005D3,false,0,8,0F,00,00,00,00,00,00,00
303024100,00000450,false,0,3,00,C2,05
303024400,00000462,false,0,8,FE,3F,FF,0F,F0,1F,00,00
303024600,00000471,false,0,6,15,54,11,00,00,58
303031900,00000593,false,0,6,01,00,FF,FF,FF,FF
303021800,00000107,false,1,8,00,00,00,00,2A,C1,C0,00
303031800,00000105,false,1,8,00,00,00,00,08,00,00,00
303043500,00000168,false,1,8,88,00,C4,04,C1,B0,40,00
303043800,0000018B,false,1,8,16,FF,F8,00,00,00,00,00
303044000,0000018C,false,1,8,03,00,00,00,00,00,00,00
303044300,0000018D,false,1,8,FF,FF,FF,FF,C0,00,00,18
303044600,0000018E,false,1,8,FF,FF,FF,FF,01,00,00,00
303044800,0000018F,false,1,8,00,00,00,00,00,00,00,00
303045100,000001F7,false,1,8,00,00,00,40,00,00,00,00
303044600,00000450,false,0,3,00,C2,05
303044900,00000462,false,0,8,FE,3F,FF,0F,F0,1F,00,00
303045100,00000471,false,0,6,15,54,11,00,00,9C
303045300,00000479,false,0,8,FF,00,00,00,00,00,00,00
303045600,00000520,false,0,8,00,00,00,00,00,00,00,00
303045400,000001FA,false,1,8,FF,C0,00,00,00,00,00,00
303045600,00000588,false,1,8,00,00,00,00,00,00,00,00
303045900,00000589,false,1,8,00,00,00,7F,FF,00,00,00
303051800,00000107,false,1,8,00,00,00,00,2A,81,C0,00
303052300,00000110,false,1,8,00,00,00,00,00,00,00,00
303064200,00000450,false,0,3,00,C2,05
303064500,00000462,false,0,8,FE,3F,FF,0F,F0,1F,00,00
303064700,00000471,false,0,6,15,54,11,00,00,60
303064900,00000541,false,0,8,00,01,22,00,C8,08,00,00
303065200,0000055C,false,0,8,66,01,14,FF,01,00,00,00
303065500,0000055F,false,0,8,00,10,00,02,30,00,04,00
303074400,00000561,false,0,8,05,60,00,07,80,00,0F,00
303074700,00000567,false,0,8,40,09,08,2C,00,00,00,00
303074900,00000578,false,0,6,00,00,00,00,0F,00
303075200,00000588,false,0,8,FC,FF,03,00,00,00,00,00
303075400,000005EC,false,0,8,00,00,00,04,00,00,00,00
303063400,00000169,false,1,8,00,00,00,00,00,00,40,00
303072300,00000111,false,1,8,00,00,00,00,00,00,00,00
303084300,00000450,false,0,3,00,C2,05
303084500,00000462,false,0,8,FE,3F,FF,0F,F0,1F,00,00
303084800,00000471,false,0,6,15,54,11,00,00,64
303083500,0000016A,false,1,8,00,00,00,00,00,00,00,00
303089200,0000041E,false,1,8,00,12,00,00,00,00,FF,FF
303091800,00000107,false,1,8,00,00,00,00,2A,C1,C0,00
303092300,00000112,false,1,8,00,20,06,00,00,00,00,00
303103400,00000188,false,1,8,40,50,01,04,00,00,00,00
303104100,00000450,false,0,3,00,C2,05
303104400,00000462,false,0,8,FE,3F,FF,0F,F0,1F,00,00
303104600,00000471,false,0,6,15,54,11,00,00,68
303124200,00000450,false,0,3,00,C2,05
303124500,00000462,false,0,8,FE,3F,FF,0F,F0,1F,00,00
303124700,00000471,false,0,6,15,54,11,00,00,AC
303112200,00000113,false,1,8,82,00,00,00,00,00,00,00
303119200,0000019B,false,1,8,00,80,00,00,00,00,00,00
303121700,00000107,false,1,8,00,00,00,00,2A,41,C0,00
303123400,00000189,false,1,8,00,00,00,00,00,00,00,00
303131700,00000100,false,1,8,04,06,00,00,00,00,80,00
303131900,00000106,false,1,8,00,00,00,00,00,00,00,00
303132200,00000109,false,1,8,00,00,00,00,00,00,00,00
303132500,00000510,false,1,8,00,00,FF,00,00,00,00,00
303144200,00000412,false,0,8,00,00,00,00,00,00,00,00
303144400,00000450,false,0,3,00,C2,05
303144700,0000045D,false,0,8,00,00,00,00,00,00,00,00
303144900,00000462,false,0,8,FE,3F,FF,0F,F0,1F,00,00
303145100,00000471,false,0,6,15,54,11,00,00,B0
303145400,00000479,false,0,8,FF,00,00,00,00,00,00,00
303145700,0000049A,false,0,8,00,00,00,00,00,00,FC,03
303145900,000004A9,false,0,8,00,00,00,10,00,00,00,00
303146200,000004FE,false,0,8,FF,FF,7F,FF,FF,00,FF,FF
303146500,00000520,false,0,8,00,00,00,00,00,00,00,00
303146700,00000559,false,0,8,00,40,00,00,00,00,00,00
303147000,000005B4,false,0,8,00,00,00,00,0C,30,00,00
303139200,0000059D,false,1,8,64,60,60,00,00,00,00,00
303143300,0000018A,false,1,8,00,00,00,00,00,00,00,00
303151600,00000101,false,1,8,00,00,00,00,00,00,00,10
303161700,00000107,false,1,8,00,00,00,00,2A,81,C0,00
303164200,00000450,false,0,3,00,C2,05
303164400,00000462,false,0,8,FE,3F,FF,0F,F0,1F,00,00
303164700,00000471,false,0,6,15,54,11,00,00,B4
303165000,0000050E,false,0,8,00,00,00,00,00,00,00,00
303165200,00000541,false,0,8,00,01,22,00,C8,08,00,00
303165500,0000055C,false,0,8,66,01,14,FF,01,00,00,00
303165800,0000055F,false,0,8,00,10,00,02,30,00,04,00
303174100,0000045E,false,0,8,00,00,00,00,00,00,00,00
303174400,00000561,false,0,8,05,60,00,07,80,00,0F,00
303174700,00000567,false,0,8,40,09,08,2C,00,00,00,00
303174900,00000578,false,0,6,00,00,00,00,0F,00
303175200,00000588,false,0,8,FC,FF,03,00,00,00,00,00
303175500,000005EC,false,0,8,00,00,00,04,00,00,00,00
303184000,00000450,false,0,3,00,C2,05
303184300,00000462,false,0,8,FE,3F,FF,0F,F0,1F,00,00
303184500,00000471,false,0,6,15,54,11,00,00,B8
303184800,00000553,false,0,8,04,00,80,00,00,00,80,00
303171600,00000102,false,1,8,00,00,A0,00,00,00,00,00
303181400,00000400,false,1,8,01,02,00,00,00,00,FF,FF
303191600,00000103,false,1,8,00,00,00,00,00,00,00,00
303191900,00000107,false,1,8,00,00,00,00,2A,41,C0,00
303194300,000005B3,false,0,8,43,D0,FF,00,00,00,00,00
303194600,000005DF,false,0,8,45,1A,02,00,00,00,00,00
303204100,00000450,false,0,3,00,C2,05
303204300,00000462,false,0,8,FE,3F,FF,0F,F0,1F,00,00
303204600,00000471,false,0,6,15,54,11,00,00,FC
303211600,00000104,false,1,8,48,4E,C0,02,00,00,00,40
303223900,00000450,false,0,3,00,C2,05
303224100,00000462,false,0,8,FE,3F,FF,0F,F0,1F,00,00
303224300,00000471,false,0,6,15,54,11,00,00,40
303231600,00000593,false,0,6,01,00,FF,FF,FF,FF
303244300,00000450,false,0,3,00,C2,05
303244600,00000462,false,0,8,FE,3F,FF,0F,F0,1F,00,00
303244800,00000471,false,0,6,15,54,11,00,00,44
303245100,00000479,false,0,8,FF,00,00,00,00,00,00,00
303245300,00000520,false,0,8,00,00,00,00,00,00,00,00
303231600,00000105,false,1,8,00,00,00,00,08,00,00,00
303231900,00000107,false,1,8,00,00,00,00,2A,81,C0,00
303243200,00000168,false,1,8,88,00,C4,04,C1,B0,40,00
303243500,0000018B,false,1,8,16,FF,F8,00,00,00,00,00
303243800,0000018C,false,1,8,03,00,00,00,00,00,00,00
303244000,0000018D,false,1,8,FF,FF,FF,FF,C0,00,00,18
303244300,0000018E,false,1,8,FF,FF,FF,FF,01,00,00,00
303244600,0000018F,false,1,8,00,00,00,00,00,00,00,00
303244800,000001F7,false,1,8,00,00,00,40,00,00,00,00
303245100,000001FA,false,1,8,FF,C0,00,00,00,00,00,00
303245400,00000588,false,1,8,00,00,00,00,00,00,00,00
303245700,00000589,false,1,8,00,00,00,7F,FF,00,00,00
303252100,00000110,false,1,8,00,00,00,00,00,00,00,00
303263900,00000450,false,0,3,00,C2,05
303264200,00000462,false,0,8,FE,3F,FF,0F,F0,1F,00,00
303264400,00000471,false,0,6,15,54,11,00,00,48
303264700,00000541,false,0,8,00,01,22,00,C8,08,00,00
303265000,0000055C,false,0,8,66,01,14,FF,01,00,00,00
303265300,0000055F,false,0,8,00,10,00,02,30,00,04,00
303274100,00000561,false,0,8,05,60,00,07,80,00,0F,00
303274400,00000567,false,0,8,40,09,08,2C,00,00,00,00
303274700,00000578,false,0,6,00,00,00,00,0F,00
303274900,00000588,false,0,8,FC,FF,03,00,00,00,00,00
303275200,000005EC,false,0,8,00,00,00,04,00,00,00,00
303263200,00000169,false,1,8,00,00,00,00,00,00,40,00
303271500,00000107,false,1,8,00,00,00,00,2A,81,C0,00
303271900,00000401,false,1,8,16,02,00,00,00,00,FF,FF
303272200,00000111,false,1,8,00,00,00,00,00,00,00,00
303284100,00000450,false,0,3,00,C2,05
303284400,00000462,false,0,8,FE,3F,FF,0F,F0,1F,00,00
303284600,00000471,false,0,6,15,54,11,00,00,8C
303283200,0000016A,false,1,8,00,00,00,00,00,00,00,00
303303800,00000450,false,0,3,00,C2,05
303304100,00000462,false,0,8,FE,3F,FF,0F,F0,1F,00,00
303304300,00000471,false,0,6,15,54,11,00,00,50
303292000,00000112,false,1,8,00,20,06,00,00,00,00,00
303303100,00000188,false,1,8,40,50,01,04,00,00,00,00
303311500,00000107,false,1,8,00,00,00,00,2A,81,C0,00
303312000,00000113,false,1,8,82,00,00,00,00,00,00,00
303324000,00000450,false,0,3,00,C2,05
303324200,00000462,false,0,8,FE,3F,FF,0F,F0,1F,00,00
303324400,00000471,false,0,6,15,54,11,00,00,54
303319200,0000019B,false,1,8,00,80,00,00,00,00,00,00
303323200,00000189,false,1,8,00,00,00,00,00,00,00,00
303331400,00000100,false,1,8,04,06,00,00,00,00,80,00
303331700,00000106,false,1,8,00,00,00,00,00,00,00,00
303332000,00000109,false,1,8,00,00,00,00,00,00,00,00
303332300,00000510,false,1,8,00,00,FF,00,00,00,00,00
303339200,0000059D,false,1,8,64,60,60,00,00,00,00,00
303341400,00000107,false,1,8,00,00,00,00,2A,81,C0,00
303343100,0000018A,false,1,8,00,00,00,00,00,00,00,00
303344000,00000412,false,0,8,00,00,00,00,00,00,00,00
303344200,00000450,false,0,3,00,C2,05
303344400,0000045D,false,0,8,00,00,00,00,00,00,00,00
303344700,00000462,false,0,8,FE,3F,FF,0F,F0,1F,00,00
303344900,00000471,false,0,6,15,54,11,00,00,58
303345200,00000479,false,0,8,FF,00,00,00,00,00,00,00
303345400,0000049A,false,0,8,00,00,00,00,00,00,FC,03
303345700,000004A9,false,0,8,00,00,00,10,00,00,00,00
303346000,000004FE,false,0,8,FF,FF,7F,FF,FF,00,FF,FF
303346200,00000520,false,0,8,00,00,00,00,00,00,00,00
303346500,00000559,false,0,8,00,40,00,00,00,00,00,00
303346800,000005B4,false,0,8,00,00,00,00,0C,30,00,00
303351400,00000101,false,1,8,00,00,00,00,00,00,00,10
303364000,00000450,false,0,3,00,C2,05
303364300,00000462,false,0,8,FE,3F,FF,0F,F0,1F,00,00
303364500,00000471,false,0,6,15,54,11,00,00,9C
303364700,0000050E,false,0,8,00,00,00,00,00,00,00,00
303365000,00000541,false,0,8,00,01,22,00,C8,08,00,00
303365300,0000055C,false,0,8,66,01,14,FF,01,00,00,00
303365500,0000055F,false,0,8,00,10,00,02,30,00,04,00
303373900,0000045E,false,0,8,00,00,00,00,00,00,00,00
303374100,00000561,false,0,8,05,60,00,07,80,00,0F,00
303374400,00000567,false,0,8,40,09,08,2C,00,00,00,00
303374700,00000578,false,0,6,00,00,00,00,0F,00
303374900,00000588,false,0,8,FC,FF,03,00,00,00,00,00
303375200,000005EC,false,0,8,00,00,00,04,00,00,00,00
303362900,00000416,false,1,8,1E,02,00,00,00,00,FF,FF
303371400,00000102,false,1,8,00,00,A0,00,00,00,00,00
303371700,00000107,false,1,8,00,00,00,00,2A,C1,C0,00
303383800,00000450,false,0,3,00,C2,05
303384000,00000462,false,0,8,FE,3F,FF,0F,F0,1F,00,00
303384200,00000471,false,0,6,15,54,11,00,00,60
303384500,00000553,false,0,8,04,00,80,00,00,00,80,00
303394100,000005B3,false,0,8,43,D0,FF,00,00,00,00,00
303394300,000005DF,false,0,8,45,1A,02,00,00,00,00,00
303403800,00000450,false,0,3,00,C2,05
303404100,00000462,false,0,8,FE,3F,FF,0F,F0,1F,00,00
303404300,00000471,false,0,6,15,54,11,00,00,64
303391400,00000103,false,1,8,00,00,00,00,00,00,00,00
303401400,00000107,false,1,8,00,00,00,00,2A,81,C0,00
303411300,00000104,false,1,8,48,4E,C0,02,00,00,00,40
303423600,00000450,false,0,3,00,C2,05
303423900,00000462,false,0,8,FE,3F,FF,0F,F0,1F,00,00
303424100,00000471,false,0,6,15,54,11,00,00,68
303431300,00000593,false,0,6,01,00,FF,FF,FF,FF
303431300,00000105,false,1,8,00,00,00,00,08,00,00,00
303444000,00000450,false,0,3,00,C2,05
303444300,00000462,false,0,8,FE,3F,FF,0F,F0,1F,00,00
303444600,00000471,false,0,6,15,54,11,00,00,AC
303444800,00000479,false,0,8,FF,00,00,00,00,00,00,00
303445100,00000520,false,0,8,00,00,00,00,00,00,00,00
303463700,00000450,false,0,3,00,C2,05
303441300,00000107,false,1,8,00,00,00,00,2A,C1,C0,00
303443000,00000168,false,1,8,88,00,C4,04,C1,B0,40,00
303443300,0000018B,false,1,8,16,FF,F8,00,00,00,00,00
303443500,0000018C,false,1,8,03,00,00,00,00,00,00,00
303443800,0000018D,false,1,8,FF,FF,FF,FF,C0,00,00,18
303444000,0000018E,false,1,8,FF,FF,FF,FF,01,00,00,00
303444300,0000018F,false,1,8,00,00,00,00,00,00,00,00
303444600,000001F7,false,1,8,00,00,00,40,00,00,00,00
303444900,000001FA,false,1,8,FF,C0,00,00,00,00,00,00
303445100,00000588,false,1,8,00,00,00,00,00,00,00,00
303445400,00000589,false,1,8,00,00,00,7F,FF,00,00,00
303451800,00000110,false,1,8,00,00,00,00,00,00,00,00
303459200,0000041E,false,1,8,00,12,00,00,00,00,FF,FF
303462900,00000169,false,1,8,00,00,00,00,00,00,40,00
303463900,00000462,false,0,8,FE,3F,FF,0F,F0,1F,00,00
303464200,00000471,false,0,6,15,54,11,00,00,B0
303464400,00000541,false,0,8,00,01,22,00,C8,08,00,00
303464700,0000055C,false,0,8,66,01,14,FF,01,00,00,00
303465000,0000055F,false,0,8,00,10,00,02,30,00,04,00
303471300,00000107,false,1,8,00,00,00,00,2A,81,C0,00
303471800,00000111,false,1,8,00,00,00,00,00,00,00,00
303473900,00000561,false,0,8,05,60,00,07,80,00,0F,00
303474200,00000567,false,0,8,40,09,08,2C,00,00,00,00
303474400,00000578,false,0,6,00,00,00,00,0F,00
303474700,00000588,false,0,8,FC,FF,03,00,00,00,00,00
303474900,000005EC,false,0,8,00,00,00,04,00,00,00,00
303483900,00000450,false,0,3,00,C2,05
303484100,00000462,false,0,8,FE,3F,FF,0F,F0,1F,00,00
303484300,00000471,false,0,6,15,54,11,00,00,B4
303483000,0000016A,false,1,8,00,00,00,00,00,00,00,00
303491800,00000112,false,1,8,00,20,06,00,00,00,00,00
303502900,00000188,false,1,8,40,50,01,04,00,00,00,00
303503600,00000450,false,0,3,00,C2,05
303503800,00000462,false,0,8,FE,3F,FF,0F,F0,1F,00,00
303504000,00000471,false,0,6,15,54,11,00,00,B8
303523700,00000450,false,0,3,00,C2,05
303524000,00000462,false,0,8,FE,3F,FF,0F,F0,1F,00,00
303524200,00000471,false,0,6,15,54,11,00,00,FC
303511200,00000107,false,1,8,00,00,00,00,2A,81,C0,00
303511800,00000113,false,1,8,82,00,00,00,00,00,00,00
303519200,0000019B,false,1,8,00,80,00,00,00,00,00,00
303522900,00000189,false,1,8,00,00,00,00,00,00,00,00
303531200,00000100,false,1,8,04,06,00,00,00,00,80,00
303531500,00000106,false,1,8,00,00,00,00,00,00,00,00
303531700,00000109,false,1,8,00,00,00,00,00,00,00,00
303532000,00000510,false,1,8,00,00,FF,00,00,00,00,00
303543700,00000412,false,0,8,00,00,00,00,00,00,00,00
303543900,00000450,false,0,3,00,C2,05
303544200,0000045D,false,0,8,00,00,00,00,00,00,00,00
303544400,00000462,false,0,8,FE,3F,FF,0F,F0,1F,00,00
303544700,00000471,false,0,6,15,54,11,00,00,40
303544900,00000479,false,0,8,FF,00,00,00,00,00,00,00
303545200,0000049A,false,0,8,00,00,00,00,00,00,FC,03
303545500,000004A9,false,0,8,00,00,00,10,00,00,00,00
303545700,000004FE,false,0,8,FF,FF,7F,FF,FF,00,FF,FF
303546000,00000520,false,0,8,00,00,00,00,00,00,00,00
303546300,00000559,false,0,8,00,40,00,00,00,00,00,00
303546500,000005B4,false,0,8,00,00,00,00,0C,30,00,00
303539200,0000059D,false,1,8,64,60,60,00,00,00,00,00
303542800,0000018A,false,1,8,00,00,00,00,00,00,00,00
303550900,00000400,false,1,8,01,02,00,00,00,00,FF,FF
303551200,00000101,false,1,8,00,00,00,00,00,00,00,10
303551500,00000107,false,1,8,00,00,00,00,2A,81,C0,00
303563700,00000450,false,0,3,00,C2,05
303563900,00000462,false,0,8,FE,3F,FF,0F,F0,1F,00,00
303564200,00000471,false,0,6,15,54,11,00,00,44
303564400,0000050E,false,0,8,00,00,00,00,00,00,00,00
303564700,00000541,false,0,8,00,01,22,00,C8,08,00,00
303565000,0000055C,false,0,8,66,01,14,FF,01,00,00,00
303565300,0000055F,false,0,8,00,10,00,02,30,00,04,00
303573600,0000045E,false,0,8,00,00,00,00,00,00,00,00
303573900,00000561,false,0,8,05,60,00,07,80,00,0F,00
303574200,00000567,false,0,8,40,09,08,2C,00,00,00,00
303574400,00000578,false,0,6,00,00,00,00,0F,00
303574700,00000588,false,0,8,FC,FF,03,00,00,00,00,00
303574900,000005EC,false,0,8,00,00,00,04,00,00,00,00
303583500,00000450,false,0,3,00,C2,05
303583800,00000462,false,0,8,FE,3F,FF,0F,F0,1F,00,00
303571100,00000102,false,1,8,00,00,A0,00,00,00,00,00
303584000,00000471,false,0,6,15,54,11,00,00,48
303584300,00000553,false,0,8,04,00,80,00,00,00,80,00
303591100,00000103,false,1,8,00,00,00,00,00,00,00,00
303593800,000005B3,false,0,8,43,D0,FF,00,00,00,00,00
303594100,000005DF,false,0,8,45,1A,02,00,00,00,00,00
303603600,00000450,false,0,3,00,C2,05
303603800,00000462,false,0,8,FE,3F,FF,0F,F0,1F,00,00
303604100,00000471,false,0,6,15,54,11,00,00,8C
303611100,00000104,false,1,8,48,4E,C0,02,00,00,00,40
303623400,00000450,false,0,3,00,C2,05
303623600,00000462,false,0,8,FE,3F,FF,0F,F0,1F,00,00
303623900,00000471,false,0,6,15,54,11,00,00,50
303631100,00000593,false,0,6,01,00,FF,FF,FF,FF
303643800,00000450,false,0,3,00,C2,05
303644100,00000462,false,0,8,FE,3F,FF,0F,F0,1F,00,00
303644300,00000471,false,0,6,15,54,11,00,00,54
303644600,00000479,false,0,8,FF,00,00,00,00,00,00,00
303644800,00000520,false,0,8,00,00,00,00,00,00,00,00
303631000,00000105,false,1,8,00,00,00,00,08,00,00,00
303641400,00000401,false,1,8,16,02,00,00,00,00,FF,FF
303642800,00000168,false,1,8,88,00,C4,04,C1,B0,40,00
303643000,0000018B,false,1,8,16,FF,F8,00,00,00,00,00
303643300,0000018C,false,1,8,03,00,00,00,00,00,00,00
303643500,0000018D,false,1,8,FF,FF,FF,FF,C0,00,00,18
303643800,0000018E,false,1,8,FF,FF,FF,FF,01,00,00,00
303644100,0000018F,false,1,8,00,00,00,00,00,00,00,00
303644300,000001F7,false,1,8,00,00,00,40,00,00,00,00
303644600,000001FA,false,1,8,FF,C0,00,00,00,00,00,00
303644900,00000588,false,1,8,00,00,00,00,00,00,00,00
303645200,00000589,false,1,8,00,00,00,7F,FF,00,00,00
303663500,00000450,false,0,3,00,C2,05
303663700,00000462,false,0,8,FE,3F,FF,0F,F0,1F,00,00
303663900,00000471,false,0,6,15,54,11,00,00,58
303664200,00000541,false,0,8,00,01,22,00,C8,08,00,00
303664500,0000055C,false,0,8,66,01,14,FF,01,00,00,00
303664800,0000055F,false,0,8,00,10,00,02,30,00,04,00
303651100,00000107,false,1,8,00,00,00,00,2A,C1,C0,00
303651600,00000110,false,1,8,00,00,00,00,00,00,00,00
303662700,00000169,false,1,8,00,00,00,00,00,00,40,00
303671600,00000111,false,1,8,00,00,00,00,00,00,00,00
303673600,00000561,false,0,8,05,60,00,07,80,00,0F,00
303673900,00000567,false,0,8,40,09,08,2C,00,00,00,00
303674100,00000578,false,0,6,00,00,00,00,0F,00
303674400,00000588,false,0,8,FC,FF,03,00,00,00,00,00
303674600,000005EC,false,0,8,00,00,00,04,00,00,00,00
303683600,00000450,false,0,3,00,C2,05
303683900,00000462,false,0,8,FE,3F,FF,0F,F0,1F,00,00
303684100,00000471,false,0,6,15,54,11,00,00,9C
303681000,00000107,false,1,8,00,00,00,00,2A,81,C0,00
303682700,0000016A,false,1,8,00,00,00,00,00,00,00,00
303691500,00000112,false,1,8,00,20,06,00,00,00,00,00
303702600,00000188,false,1,8,40,50,01,04,00,00,00,00
303703300,00000450,false,0,3,00,C2,05
303703600,00000462,false,0,8,FE,3F,FF,0F,F0,1F,00,00
303703800,00000471,false,0,6,15,54,11,00,00,60
303723500,00000450,false,0,3,00,C2,05
303723700,00000462,false,0,8,FE,3F,FF,0F,F0,1F,00,00
303723900,00000471,false,0,6,15,54,11,00,00,64
303711500,00000113,false,1,8,82,00,00,00,00,00,00,00
303719200,0000019B,false,1,8,00,80,00,00,00,00,00,00
303721000,00000107,false,1,8,00,00,00,00,2A,C1,C0,00
303722700,00000189,false,1,8,00,00,00,00,00,00,00,00
303730900,00000100,false,1,8,04,06,00,00,00,00,80,00
303731200,00000106,false,1,8,00,00,00,00,00,00,00,00
303731500,00000109,false,1,8,00,00,00,00,00,00,00,00
303731700,00000510,false,1,8,00,00,FF,00,00,00,00,00
303732400,00000416,false,1,8,1E,02,00,00,00,00,FF,FF
303743500,00000412,false,0,8,00,00,00,00,00,00,00,00
303743700,00000450,false,0,3,00,C2,05
303743900,0000045D,false,0,8,00,00,00,00,00,00,00,00
303744200,00000462,false,0,8,FE,3F,FF,0F,F0,1F,00,00
303744400,00000471,false,0,6,15,54,11,00,00,68
303744700,00000479,false,0,8,FF,00,00,00,00,00,00,00
303745000,0000049A,false,0,8,00,00,00,00,00,00,FC,03
303745200,000004A9,false,0,8,00,00,00,10,00,00,00,00
303745500,000004FE,false,0,8,FF,FF,7F,FF,FF,00,FF,FF
303745800,00000520,false,0,8,00,00,00,00,00,00,00,00
303746000,00000559,false,0,8,00,40,00,00,00,00,00,00
303746300,000005B4,false,0,8,00,00,00,00,0C,30,00,00
303739200,0000059D,false,1,8,64,60,60,00,00,00,00,00
303742600,0000018A,false,1,8,00,00,00,00,00,00,00,00
303750900,00000101,false,1,8,00,00,00,00,00,00,00,10
303751200,00000107,false,1,8,00,00,00,00,2A,81,C0,00
303763400,00000450,false,0,3,00,C2,05
303763700,00000462,false,0,8,FE,3F,FF,0F,F0,1F,00,00
303763900,00000471,false,0,6,15,54,11,00,00,AC
303764200,0000050E,false,0,8,00,00,00,00,00,00,00,00
303764500,00000541,false,0,8,00,01,22,00,C8,08,00,00
303764700,0000055C,false,0,8,66,01,14,FF,01,00,00,00
303765000,0000055F,false,0,8,00,10,00,02,30,00,04,00
303770900,00000102,false,1,8,00,00,A0,00,00,00,00,00
303773400,0000045E,false,0,8,00,00,00,00,00,00,00,00
303773700,00000561,false,0,8,05,60,00,07,80,00,0F,00
303773900,00000567,false,0,8,40,09,08,2C,00,00,00,00
303774200,00000578,false,0,6,00,00,00,00,0F,00
303774400,00000588,false,0,8,FC,FF,03,00,00,00,00,00
303774700,000005EC,false,0,8,00,00,00,04,00,00,00,00
303783300,00000450,false,0,3,00,C2,05
303783500,00000462,false,0,8,FE,3F,FF,0F,F0,1F,00,00
303783800,00000471,false,0,6,15,54,11,00,00,B0
303784000,00000553,false,0,8,04,00,80,00,00,00,80,00
303793600,000005B3,false,0,8,43,D0,FF,00,00,00,00,00
303793800,000005DF,false,0,8,45,1A,02,00,00,00,00,00
303790900,00000103,false,1,8,00,00,00,00,00,00,00,00
303791100,00000107,false,1,8,00,00,00,00,2A,C1,C0,00
303803300,00000450,false,0,3,00,C2,05
303803600,00000462,false,0,8,FE,3F,FF,0F,F0,1F,00,00
303803800,00000471,false,0,6,15,54,11,00,00,B4
303810800,00000104,false,1,8,48,4E,C0,02,00,00,00,40
303820800,00000107,false,1,8,00,00,00,00,2A,81,C0,00
303823100,00000450,false,0,3,00,C2,05
303823400,00000462,false,0,8,FE,3F,FF,0F,F0,1F,00,00
303823600,00000471,false,0,6,15,54,11,00,00,B8
303830800,00000593,false,0,6,01,00,FF,FF,FF,FF
303843500,00000450,false,0,3,00,C2,05
303843800,00000462,false,0,8,FE,3F,FF,0F,F0,1F,00,00
303844100,00000471,false,0,6,15,54,11,00,00,FC
303844300,00000479,false,0,8,FF,00,00,00,00,00,00,00
303844600,00000520,false,0,8,00,00,00,00,00,00,00,00
303829200,0000041E,false,1,8,00,12,00,00,00,00,FF,FF
303830800,00000105,false,1,8,00,00,00,00,08,00,00,00
303842500,00000168,false,1,8,88,00,C4,04,C1,B0,40,00
303842800,0000018B,false,1,8,16,FF,F8,00,00,00,00,00
303843000,0000018C,false,1,8,03,00,00,00,00,00,00,00
303843300,0000018D,false,1,8,FF,FF,FF,FF,C0,00,00,18
303843500,0000018E,false,1,8,FF,FF,FF,FF,01,00,00,00
303843800,0000018F,false,1,8,00,00,00,00,00,00,00,00
303844100,000001F7,false,1,8,00,00,00,40,00,00,00,00
303844400,000001FA,false,1,8,FF,C0,00,00,00,00,00,00
303844600,00000588,false,1,8,00,00,00,00,00,00,00,00
303844900,00000589,false,1,8,00,00,00,7F,FF,00,00,00
303851300,00000110,false,1,8,00,00,00,00,00,00,00,00
303863100,00000450,false,0,3,00,C2,05
303863400,00000462,false,0,8,FE,3F,FF,0F,F0,1F,00,00
303863600,00000471,false,0,6,15,54,11,00,00,40
303863900,00000541,false,0,8,00,01,22,00,C8,08,00,00
303864200,0000055C,false,0,8,66,01,14,FF,01,00,00,00
303864400,0000055F,false,0,8,00,10,00,02,30,00,04,00
303873400,00000561,false,0,8,05,60,00,07,80,00,0F,00
303873600,00000567,false,0,8,40,09,08,2C,00,00,00,00
303873900,00000578,false,0,6,00,00,00,00,0F,00
303874100,00000588,false,0,8,FC,FF,03,00,00,00,00,00
303874400,000005EC,false,0,8,00,00,00,04,00,00,00,00
303860800,00000107,false,1,8,00,00,00,00,2A,81,C0,00
303862400,00000169,false,1,8,00,00,00,00,00,00,40,00
303871300,00000111,false,1,8,00,00,00,00,00,00,00,00
303882500,0000016A,false,1,8,00,00,00,00,00,00,00,00
303883400,00000450,false,0,3,00,C2,05
303883600,00000462,false,0,8,FE,3F,FF,0F,F0,1F,00,00
303883800,00000471,false,0,6,15,54,11,00,00,44
303903100,00000450,false,0,3,00,C2,05
303903400,00000462,false,0,8,FE,3F,FF,0F,F0,1F,00,00
303903600,00000471,false,0,6,15,54,11,00,00,48
303890700,00000107,false,1,8,00,00,00,00,2A,C1,C0,00
303891300,00000112,false,1,8,00,20,06,00,00,00,00,00
303902400,00000188,false,1,8,40,50,01,04,00,00,00,00
303911300,00000113,false,1,8,82,00,00,00,00,00,00,00
303923200,00000450,false,0,3,00,C2,05
303923500,00000462,false,0,8,FE,3F,FF,0F,F0,1F,00,00
303923700,00000471,false,0,6,15,54,11,00,00,8C
303919200,0000019B,false,1,8,00,80,00,00,00,00,00,00
303920500,00000400,false,1,8,01,02,00,00,00,00,FF,FF
303922400,00000189,false,1,8,00,00,00,00,00,00,00,00
303930700,00000100,false,1,8,04,06,00,00,00,00,80,00
303931000,00000106,false,1,8,00,00,00,00,00,00,00,00
303931200,00000107,false,1,8,00,00,00,00,2A,81,C0,00
303931500,00000510,false,1,8,00,00,FF,00,00,00,00,00
303931700,00000109,false,1,8,00,00,00,00,00,00,00,00
303939200,0000059D,false,1,8,64,60,60,00,00,00,00,00
303943300,0000007F,false,0,8,00,00,00,00,00,00,00,00
303943500,00000412,false,0,8,00,00,00,00,00,00,00,00
303943700,00000450,false,0,3,00,C2,05
303944000,0000045D,false,0,8,00,00,00,00,00,00,00,00
303944300,00000462,false,0,8,FE,3F,FF,0F,F0,1F,00,00
303944500,00000471,false,0,6,15,54,11,00,00,50
303944800,00000479,false,0,8,FF,00,00,00,00,00,00,00
303945000,0000049A,false,0,8,00,00,00,00,00,00,FC,03
303945300,000004A9,false,0,8,00,00,00,10,00,00,00,00
303945600,000004FE,false,0,8,FF,FF,7F,FF,FF,00,FF,FF
303945800,00000520,false,0,8,00,00,00,00,00,00,00,00
303946100,00000559,false,0,8,00,40,00,00,00,00,00,00
303946400,000005B4,false,0,8,00,00,00,00,0C,30,00,00
303946600,000005BE,false,0,8,00,00,00,00,00,00,00,00
303963200,00000450,false,0,3,00,C2,05
303942400,0000018A,false,1,8,00,00,00,00,00,00,00,00
303950600,00000101,false,1,8,00,00,00,00,00,00,00,10
303963400,00000462,false,0,8,FE,3F,FF,0F,F0,1F,00,00
303963600,00000471,false,0,6,15,54,11,00,00,54
303963900,0000050E,false,0,8,00,00,00,00,00,00,00,00
303964200,00000541,false,0,8,00,01,22,00,C8,08,00,00
303964400,0000055C,false,0,8,66,01,14,FF,01,00,00,00
303964700,0000055F,false,0,8,00,10,00,02,30,00,04,00
303970600,00000102,false,1,8,00,00,A0,00,00,00,00,00
303970900,00000107,false,1,8,00,00,00,00,2A,81,C0,00
303973200,0000045E,false,0,8,00,00,00,00,00,00,00,00
303973400,00000561,false,0,8,05,60,00,07,80,00,0F,00
303973700,00000567,false,0,8,40,09,08,2C,00,00,00,00
303973900,00000578,false,0,6,00,00,00,00,0F,00
303974200,00000588,false,0,8,FC,FF,03,00,00,00,00,00
303974400,000005EC,false,0,8,00,00,00,04,00,00,00,00
303983000,00000450,false,0,3,00,C2,05
303983300,00000462,false,0,8,FE,3F,FF,0F,F0,1F,00,00
303983500,00000471,false,0,6,15,54,11,00,00,58
303983800,00000553,false,0,8,04,00,80,00,00,00,80,00
303993300,000005B3,false,0,8,43,D0,FF,00,00,00,00,00
303993600,000005DF,false,0,8,45,1A,02,00,00,00,00,00
303990600,00000103,false,1,8,00,00,00,00,00,00,00,00
304003100,00000450,false,0,3,00,C2,05
304003400,00000462,false,0,8,FE,3F,FF,0F,F0,1F,00,00
304003600,00000471,false,0,6,15,54,11,00,00,9C
304013200,000005D0,false,0,8,8D,34,02,00,00,00,00,00
304013400,000005D3,false,0,8,0F,00,00,00,00,00,00,00
304022900,00000450,false,0,3,00,C2,05
304023100,00000462,false,0,8,FE,3F,FF,0F,F0,1F,00,00
304023400,00000471,false,0,6,15,54,11,00,00,60
304010600,00000104,false,1,8,48,4E,C0,02,00,00,00,40
304010900,00000107,false,1,8,00,00,00,00,2A,81,C0,00
304011100,00000401,false,1,8,16,02,00,00,00,00,FF,FF
304030600,00000593,false,0,6,01,00,FF,FF,FF,FF
304030600,00000105,false,1,8,00,00,00,00,08,00,00,00
304043300,00000450,false,0,3,00,C2,05
304043600,00000462,false,0,8,FE,3F,FF,0F,F0,1F,00,00
304043800,00000471,false,0,6,15,54,11,00,00,64
304044100,00000479,false,0,8,FF,00,00,00,00,00,00,00
304044400,00000520,false,0,8,00,00,00,00,00,00,00,00
304042300,00000168,false,1,8,88,00,C4,04,C1,B0,40,00
304042500,0000018B,false,1,8,16,FF,F8,00,00,00,00,00
304042800,0000018C,false,1,8,03,00,00,00,00,00,00,00
304043100,0000018D,false,1,8,FF,FF,FF,FF,C0,00,00,18
304043300,0000018E,false,1,8,FF,FF,FF,FF,01,00,00,00
304043600,0000018F,false,1,8,00,00,00,00,00,00,00,00
304043900,000001F7,false,1,8,00,00,00,40,00,00,00,00
304044100,000001FA,false,1,8,FF,C0,00,00,00,00,00,00
304044400,00000588,false,1,8,00,00,00,00,00,00,00,00
304044700,00000589,false,1,8,00,00,00,7F,FF,00,00,00
304051100,00000110,false,1,8,00,00,00,00,00,00,00,00
304063000,00000450,false,0,3,00,C2,05
304063200,00000462,false,0,8,FE,3F,FF,0F,F0,1F,00,00
304063400,00000471,false,0,6,15,54,11,00,00,68
304063700,00000541,false,0,8,00,01,22,00,C8,08,00,00
304064000,0000055C,false,0,8,66,01,14,FF,01,00,00,00
304064300,0000055F,false,0,8,00,10,00,02,30,00,04,00
304062200,00000169,false,1,8,00,00,00,00,00,00,40,00
304073200,00000561,false,0,8,05,60,00,07,80,00,0F,00
304073500,00000567,false,0,8,40,09,08,2C,00,00,00,00
304073700,00000578,false,0,6,00,00,00,00,0F,00
304073900,00000588,false,0,8,FC,FF,03,00,00,00,00,00
304074200,000005EC,false,0,8,00,00,00,04,00,00,00,00
304083100,00000450,false,0,3,00,C2,05
304083400,00000462,false,0,8,FE,3F,FF,0F,F0,1F,00,00
304083600,00000471,false,0,6,15,54,11,00,00,AC
304071100,00000111,false,1,8,00,00,00,00,00,00,00,00
304082200,0000016A,false,1,8,00,00,00,00,00,00,00,00
304091100,00000112,false,1,8,00,20,06,00,00,00,00,00
304102900,00000450,false,0,3,00,C2,05
304103200,00000462,false,0,8,FE,3F,FF,0F,F0,1F,00,00
304103400,00000471,false,0,6,15,54,11,00,00,B0
304101900,00000416,false,1,8,1E,02,00,00,00,00,FF,FF
304102200,00000188,false,1,8,40,50,01,04,00,00,00,00
304111000,00000113,false,1,8,82,00,00,00,00,00,00,00
304119200,0000019B,false,1,8,00,80,00,00,00,00,00,00
304122200,00000189,false,1,8,00,00,00,00,00,00,00,00
304123000,00000450,false,0,3,00,C2,05
304123200,00000462,false,0,8,FE,3F,FF,0F,F0,1F,00,00
304123500,00000471,false,0,6,15,54,11,00,00,B4
304143000,00000412,false,0,8,00,00,00,00,00,00,00,00
304143200,00000450,false,0,3,00,C2,05
304143500,0000045D,false,0,8,00,00,00,00,00,00,00,00
304143700,00000462,false,0,8,FE,3F,FF,0F,F0,1F,00,00
304143900,00000471,false,0,6,15,54,11,00,00,B8
304144200,00000479,false,0,8,FF,00,00,00,00,00,00,00
304144500,0000049A,false,0,8,00,00,00,00,00,00,FC,03
304144700,000004A9,false,0,8,00,00,00,10,00,00,00,00
304145000,000004FE,false,0,8,FF,FF,7F,FF,FF,00,FF,FF
304145200,00000520,false,0,8,00,00,00,00,00,00,00,00
304145500,00000559,false,0,8,00,40,00,00,00,00,00,00
304145800,000005B4,false,0,8,00,00,00,00,0C,30,00,00
304130400,00000100,false,1,8,04,06,00,00,00,00,80,00
304130700,00000106,false,1,8,00,00,00,00,00,00,00,00
304131000,00000107,false,1,8,00,00,00,00,2A,81,C0,00
304131200,00000510,false,1,8,00,00,FF,00,00,00,00,00
304131500,00000109,false,1,8,00,00,00,00,00,00,00,00
304139200,0000059D,false,1,8,64,60,60,00,00,00,00,00
304142100,0000018A,false,1,8,00,00,00,00,00,00,00,00
304150400,00000101,false,1,8,00,00,00,00,00,00,00,10
304162900,00000450,false,0,3,00,C2,05
304163200,00000462,false,0,8,FE,3F,FF,0F,F0,1F,00,00
304163400,00000471,false,0,6,15,54,11,00,00,FC
304163700,0000050E,false,0,8,00,00,00,00,00,00,00,00
304163900,00000541,false,0,8,00,01,22,00,C8,08,00,00
304164200,0000055C,false,0,8,66,01,14,FF,01,00,00,00
304164500,0000055F,false,0,8,00,10,00,02,30,00,04,00
304172900,0000045E,false,0,8,00,00,00,00,00,00,00,00
304173200,00000561,false,0,8,05,60,00,07,80,00,0F,00
304173500,00000567,false,0,8,40,09,08,2C,00,00,00,00
304173700,00000578,false,0,6,00,00,00,00,0F,00
304173900,00000588,false,0,8,FC,FF,03,00,00,00,00,00
304174200,000005EC,false,0,8,00,00,00,04,00,00,00,00
304160400,00000107,false,1,8,00,00,00,00,2A,C1,C0,00
304170400,00000102,false,1,8,00,00,A0,00,00,00,00,00
304182800,00000450,false,0,3,00,C2,05
304183100,00000462,false,0,8,FE,3F,FF,0F,F0,1F,00,00
304183300,00000471,false,0,6,15,54,11,00,00,40
304183500,00000553,false,0,8,04,00,80,00,00,00,80,00
304193100,000005B3,false,0,8,43,D0,FF,00,00,00,00,00
304193300,000005DF,false,0,8,45,1A,02,00,00,00,00,00
304202800,00000450,false,0,3,00,C2,05
304203100,00000462,false,0,8,FE,3F,FF,0F,F0,1F,00,00
304203300,00000471,false,0,6,15,54,11,00,00,44
304190300,00000103,false,1,8,00,00,00,00,00,00,00,00
304190600,00000107,false,1,8,00,00,00,00,2A,C1,C0,00
304199200,0000041E,false,1,8,00,12,00,00,00,00,FF,FF
304210300,00000104,false,1,8,48,4E,C0,02,00,00,00,40
304222600,00000450,false,0,3,00,C2,05
304222900,00000462,false,0,8,FE,3F,FF,0F,F0,1F,00,00
304223100,00000471,false,0,6,15,54,11,00,00,48
304230300,00000593,false,0,6,01,00,FF,FF,FF,FF
304220300,00000107,false,1,8,00,00,00,00,2A,81,C0,00
304230300,00000105,false,1,8,00,00,00,00,08,00,00,00
304243000,00000450,false,0,3,00,C2,05
304243400,00000462,false,0,8,FE,3F,FF,0F,F0,1F,00,00
304243600,00000471,false,0,6,15,54,11,00,00,8C
304243800,00000479,false,0,8,FF,00,00,00,00,00,00,00
304244100,00000520,false,0,8,00,00,00,00,00,00,00,00
304262700,00000450,false,0,3,00,C2,05
304242000,00000168,false,1,8,88,00,C4,04,C1,B0,40,00
304242300,0000018B,false,1,8,16,FF,F8,00,00,00,00,00
304242500,0000018C,false,1,8,03,00,00,00,00,00,00,00
304242800,0000018D,false,1,8,FF,FF,FF,FF,C0,00,00,18
304243100,0000018E,false,1,8,FF,FF,FF,FF,01,00,00,00
304243300,0000018F,false,1,8,00,00,00,00,00,00,00,00
304243600,000001F7,false,1,8,00,00,00,40,00,00,00,00
304243900,000001FA,false,1,8,FF,C0,00,00,00,00,00,00
304244100,00000588,false,1,8,00,00,00,00,00,00,00,00
304244400,00000589,false,1,8,00,00,00,7F,FF,00,00,00
304250300,00000107,false,1,8,00,00,00,00,2A,C1,C0,00
304250900,00000110,false,1,8,00,00,00,00,00,00,00,00
304262000,00000169,false,1,8,00,00,00,00,00,00,40,00
304263000,00000462,false,0,8,FE,3F,FF,0F,F0,1F,00,00
304263200,00000471,false,0,6,15,54,11,00,00,50
304263500,00000541,false,0,8,00,01,22,00,C8,08,00,00
304263800,0000055C,false,0,8,66,01,14,FF,01,00,00,00
304264100,0000055F,false,0,8,00,10,00,02,30,00,04,00
304270800,00000111,false,1,8,00,00,00,00,00,00,00,00
304272900,00000561,false,0,8,05,60,00,07,80,00,0F,00
304273200,00000567,false,0,8,40,09,08,2C,00,00,00,00
304273400,00000578,false,0,6,00,00,00,00,0F,00
304273700,00000588,false,0,8,FC,FF,03,00,00,00,00,00
304274000,000005EC,false,0,8,00,00,00,04,00,00,00,00
304282900,00000450,false,0,3,00,C2,05
304283100,00000462,false,0,8,FE,3F,FF,0F,F0,1F,00,00
304283300,00000471,false,0,6,15,54,11,00,00,54
304280300,00000107,false,1,8,00,00,00,00,2A,C1,C0,00
304282000,0000016A,false,1,8,00,00,00,00,00,00,00,00
304290000,00000400,false,1,8,01,02,00,00,00,00,FF,FF
304290800,00000112,false,1,8,00,20,06,00,00,00,00,00
304301900,00000188,false,1,8,40,50,01,04,00,00,00,00
304302600,00000450,false,0,3,00,C2,05
304302800,00000462,false,0,8,FE,3F,FF,0F,F0,1F,00,00
304303000,00000471,false,0,6,15,54,11,00,00,58
304322700,00000450,false,0,3,00,C2,05
304323000,00000462,false,0,8,FE,3F,FF,0F,F0,1F,00,00
304323200,00000471,false,0,6,15,54,11,00,00,9C
304310800,00000113,false,1,8,82,00,00,00,00,00,00,00
304319200,0000019B,false,1,8,00,80,00,00,00,00,00,00
304320200,00000107,false,1,8,00,00,00,00,2A,C1,C0,00
304321900,00000189,false,1,8,00,00,00,00,00,00,00,00
304330100,00000100,false,1,8,04,06,00,00,00,00,80,00
304330400,00000106,false,1,8,00,00,00,00,00,00,00,00
304330700,00000109,false,1,8,00,00,00,00,00,00,00,00
304331000,00000510,false,1,8,00,00,FF,00,00,00,00,00
304342800,00000412,false,0,8,00,00,00,00,00,00,00,00
304343000,00000450,false,0,3,00,C2,05
304343200,0000045D,false,0,8,00,00,00,00,00,00,00,00
304343500,00000462,false,0,8,FE,3F,FF,0F,F0,1F,00,00
304343700,00000471,false,0,6,15,54,11,00,00,60
304343900,00000479,false,0,8,FF,00,00,00,00,00,00,00
304344200,0000049A,false,0,8,00,00,00,00,00,00,FC,03
304344500,000004A9,false,0,8,00,00,00,10,00,00,00,00
304344700,000004FE,false,0,8,FF,FF,7F,FF,FF,00,FF,FF
304345000,00000520,false,0,8,00,00,00,00,00,00,00,00
304345300,00000559,false,0,8,00,40,00,00,00,00,00,00
304345500,000005B4,false,0,8,00,00,00,00,0C,30,00,00
304339200,0000059D,false,1,8,64,60,60,00,00,00,00,00
304341900,0000018A,false,1,8,00,00,00,00,00,00,00,00
304350100,00000101,false,1,8,00,00,00,00,00,00,00,10
304350400,00000107,false,1,8,00,00,00,00,2A,81,C0,00
304362700,00000450,false,0,3,00,C2,05
304363000,00000462,false,0,8,FE,3F,FF,0F,F0,1F,00,00
304363200,00000471,false,0,6,15,54,11,00,00,64
304363500,0000050E,false,0,8,00,00,00,00,00,00,00,00
304363700,00000541,false,0,8,00,01,22,00,C8,08,00,00
304364000,0000055C,false,0,8,66,01,14,FF,01,00,00,00
304364300,0000055F,false,0,8,00,10,00,02,30,00,04,00
304372700,0000045E,false,0,8,00,00,00,00,00,00,00,00
304372900,00000561,false,0,8,05,60,00,07,80,00,0F,00
304373200,00000567,false,0,8,40,09,08,2C,00,00,00,00
304373400,00000578,false,0,6,00,00,00,00,0F,00
304373700,00000588,false,0,8,FC,FF,03,00,00,00,00,00
304374000,000005EC,false,0,8,00,00,00,04,00,00,00,00
304382600,00000450,false,0,3,00,C2,05
304382800,00000462,false,0,8,FE,3F,FF,0F,F0,1F,00,00
304383000,00000471,false,0,6,15,54,11,00,00,68
304383300,00000553,false,0,8,04,00,80,00,00,00,80,00
304370100,00000102,false,1,8,00,00,A0,00,00,00,00,00
304380600,00000401,false,1,8,16,02,00,00,00,00,FF,FF
304390100,00000103,false,1,8,00,00,00,00,00,00,00,00
304390400,00000107,false,1,8,00,00,00,00,2A,81,C0,00
304392800,000005B3,false,0,8,43,D0,FF,00,00,00,00,00
304393100,000005DF,false,0,8,45,1A,02,00,00,00,00,00
304402600,00000450,false,0,3,00,C2,05
304402900,00000462,false,0,8,FE,3F,FF,0F,F0,1F,00,00
304403100,00000471,false,0,6,15,54,11,00,00,AC
304410100,00000104,false,1,8,48,4E,C0,02,00,00,00,40
304422400,00000450,false,0,3,00,C2,05
304422600,00000462,false,0,8,FE,3F,FF,0F,F0,1F,00,00
304422900,00000471,false,0,6,15,54,11,00,00,B0
304430100,00000593,false,0,6,01,00,FF,FF,FF,FF
304442800,00000450,false,0,3,00,C2,05
304443100,00000462,false,0,8,FE,3F,FF,0F,F0,1F,00,00
304443300,00000471,false,0,6,15,54,11,00,00,B4
304443600,00000479,false,0,8,FF,00,00,00,00,00,00,00
304443900,00000520,false,0,8,00,00,00,00,00,00,00,00
304430100,00000105,false,1,8,00,00,00,00,08,00,00,00
304430300,00000107,false,1,8,00,00,00,00,2A,81,C0,00
304441800,00000168,false,1,8,88,00,C4,04,C1,B0,40,00
304442000,0000018B,false,1,8,16,FF,F8,00,00,00,00,00
304442300,0000018C,false,1,8,03,00,00,00,00,00,00,00
304442600,0000018D,false,1,8,FF,FF,FF,FF,C0,00,00,18
304442800,0000018E,false,1,8,FF,FF,FF,FF,01,00,00,00
304443100,0000018F,false,1,8,00,00,00,00,00,00,00,00
304443400,000001F7,false,1,8,00,00,00,40,00,00,00,00
304443600,000001FA,false,1,8,FF,C0,00,00,00,00,00,00
304443900,00000588,false,1,8,00,00,00,00,00,00,00,00
304444200,00000589,false,1,8,00,00,00,7F,FF,00,00,00
304450600,00000110,false,1,8,00,00,00,00,00,00,00,00
304462400,00000450,false,0,3,00,C2,05
304462600,00000462,false,0,8,FE,3F,FF,0F,F0,1F,00,00
304462900,00000471,false,0,6,15,54,11,00,00,B8
304463200,00000541,false,0,8,00,01,22,00,C8,08,00,00
304463400,0000055C,false,0,8,66,01,14,FF,01,00,00,00
304463700,0000055F,false,0,8,00,10,00,02,30,00,04,00
304472700,00000561,false,0,8,05,60,00,07,80,00,0F,00
304473000,00000567,false,0,8,40,09,08,2C,00,00,00,00
304473200,00000578,false,0,6,00,00,00,00,0F,00
304473500,00000588,false,0,8,FC,FF,03,00,00,00,00,00
304473700,000005EC,false,0,8,00,00,00,04,00,00,00,00
304460000,00000107,false,1,8,00,00,00,00,2A,41,C0,00
304461700,00000169,false,1,8,00,00,00,00,00,00,40,00
304470600,00000111,false,1,8,00,00,00,00,00,00,00,00
304471600,00000416,false,1,8,1E,02,00,00,00,00,FF,FF
304482600,00000450,false,0,3,00,C2,05
304482900,00000462,false,0,8,FE,3F,FF,0F,F0,1F,00,00
304483100,00000471,false,0,6,15,54,11,00,00,FC
304481700,0000016A,false,1,8,00,00,00,00,00,00,00,00
304502400,00000450,false,0,3,00,C2,05
304502700,00000462,false,0,8,FE,3F,FF,0F,F0,1F,00,00
304502900,00000471,false,0,6,15,54,11,00,00,40
304490000,00000107,false,1,8,00,00,00,00,2A,81,C0,00
304490600,00000112,false,1,8,00,20,06,00,00,00,00,00
304501700,00000188,false,1,8,40,50,01,04,00,00,00,00
304510600,00000113,false,1,8,82,00,00,00,00,00,00,00
304522500,00000450,false,0,3,00,C2,05
304522800,00000462,false,0,8,FE,3F,FF,0F,F0,1F,00,00
304523000,00000471,false,0,6,15,54,11,00,00,44
304542500,00000412,false,0,8,00,00,00,00,00,00,00,00
304542700,00000450,false,0,3,00,C2,05
304543000,0000045D,false,0,8,00,00,00,00,00,00,00,00
304519200,0000019B,false,1,8,00,80,00,00,00,00,00,00
304520000,00000107,false,1,8,00,00,00,00,2A,41,C0,00
304521700,00000189,false,1,8,00,00,00,00,00,00,00,00
304529900,00000100,false,1,8,04,06,00,00,00,00,80,00
304530200,00000106,false,1,8,00,00,00,00,00,00,00,00
304530500,00000109,false,1,8,00,00,00,00,00,00,00,00
304530700,00000510,false,1,8,00,00,FF,00,00,00,00,00
304539200,0000059D,false,1,8,64,60,60,00,00,00,00,00
304541600,0000018A,false,1,8,00,00,00,00,00,00,00,00
304543200,00000462,false,0,8,FE,3F,FF,0F,F0,1F,00,00
304543400,00000471,false,0,6,15,54,11,00,00,48
304543700,00000479,false,0,8,FF,00,00,00,00,00,00,00
304544000,0000049A,false,0,8,00,00,00,00,00,00,FC,03
304544200,000004A9,false,0,8,00,00,00,10,00,00,00,00
304544500,000004FE,false,0,8,FF,FF,7F,FF,FF,00,FF,FF
304544800,00000520,false,0,8,00,00,00,00,00,00,00,00
304545000,00000559,false,0,8,00,40,00,00,00,00,00,00
304545300,000005B4,false,0,8,00,00,00,00,0C,30,00,00
304549900,00000101,false,1,8,00,00,00,00,00,00,00,10
304562500,00000450,false,0,3,00,C2,05
304562700,00000462,false,0,8,FE,3F,FF,0F,F0,1F,00,00
304562900,00000471,false,0,6,15,54,11,00,00,8C
304563300,0000050E,false,0,8,00,00,00,00,00,00,00,00
304563500,00000541,false,0,8,00,01,22,00,C8,08,00,00
304563800,0000055C,false,0,8,66,01,14,FF,01,00,00,00
304564100,0000055F,false,0,8,00,10,00,02,30,00,04,00
304572400,0000045E,false,0,8,00,00,00,00,00,00,00,00
304572700,00000561,false,0,8,05,60,00,07,80,00,0F,00
304573000,00000567,false,0,8,40,09,08,2C,00,00,00,00
304573200,00000578,false,0,6,00,00,00,00,0F,00
304573400,00000588,false,0,8,FC,FF,03,00,00,00,00,00
304573700,000005EC,false,0,8,00,00,00,04,00,00,00,00
304559900,00000107,false,1,8,00,00,00,00,2A,81,C0,00
304569200,0000041E,false,1,8,00,12,00,00,00,00,FF,FF
304569900,00000102,false,1,8,00,00,A0,00,00,00,00,00
304582300,00000450,false,0,3,00,C2,05
304582600,00000462,false,0,8,FE,3F,FF,0F,F0,1F,00,00
304582800,00000471,false,0,6,15,54,11,00,00,50
304583000,00000553,false,0,8,04,00,80,00,00,00,80,00
304592600,000005B3,false,0,8,43,D0,FF,00,00,00,00,00
304592800,000005DF,false,0,8,45,1A,02,00,00,00,00,00
304602400,00000450,false,0,3,00,C2,05
304602600,00000462,false,0,8,FE,3F,FF,0F,F0,1F,00,00
304602800,00000471,false,0,6,15,54,11,00,00,54
304589900,00000103,false,1,8,00,00,00,00,00,00,00,00
304590100,00000107,false,1,8,00,00,00,00,2A,41,C0,00
304609800,00000104,false,1,8,48,4E,C0,02,00,00,00,40
304622200,00000450,false,0,3,00,C2,05
304622400,00000462,false,0,8,FE,3F,FF,0F,F0,1F,00,00
304622600,00000471,false,0,6,15,54,11,00,00,58
304629900,00000593,false,0,6,01,00,FF,FF,FF,FF
304629800,00000105,false,1,8,00,00,00,00,08,00,00,00
304630100,00000107,false,1,8,00,00,00,00,2A,41,C0,00
304642500,00000450,false,0,3,00,C2,05
304642900,00000462,false,0,8,FE,3F,FF,0F,F0,1F,00,00
304643100,00000471,false,0,6,15,54,11,00,00,9C
304643400,00000479,false,0,8,FF,00,00,00,00,00,00,00
304643600,00000520,false,0,8,00,00,00,00,00,00,00,00
304662100,00000450,false,0,3,00,C2,05
304641500,00000168,false,1,8,88,00,C4,04,C1,B0,40,00
304641800,0000018B,false,1,8,16,FF,F8,00,00,00,00,00
304642100,0000018C,false,1,8,03,00,00,00,00,00,00,00
304642300,0000018D,false,1,8,FF,FF,FF,FF,C0,00,00,18
304642600,0000018E,false,1,8,FF,FF,FF,FF,01,00,00,00
304642800,0000018F,false,1,8,00,00,00,00,00,00,00,00
304643100,000001F7,false,1,8,00,00,00,40,00,00,00,00
304643400,000001FA,false,1,8,FF,C0,00,00,00,00,00,00
304643700,00000588,false,1,8,00,00,00,00,00,00,00,00
304643900,00000589,false,1,8,00,00,00,7F,FF,00,00,00
304650400,00000110,false,1,8,00,00,00,00,00,00,00,00
304659600,00000400,false,1,8,01,02,00,00,00,00,FF,FF
304659800,00000107,false,1,8,00,00,00,00,2A,81,C0,00
304661500,00000169,false,1,8,00,00,00,00,00,00,40,00
304662400,00000462,false,0,8,FE,3F,FF,0F,F0,1F,00,00
304662600,00000471,false,0,6,15,54,11,00,00,60
304662900,00000541,false,0,8,00,01,22,00,C8,08,00,00
304663200,0000055C,false,0,8,66,01,14,FF,01,00,00,00
304663400,0000055F,false,0,8,00,10,00,02,30,00,04,00
304672500,00000561,false,0,8,05,60,00,07,80,00,0F,00
304672700,00000567,false,0,8,40,09,08,2C,00,00,00,00
304672900,00000578,false,0,6,00,00,00,00,0F,00
304673200,00000588,false,0,8,FC,FF,03,00,00,00,00,00
304673500,000005EC,false,0,8,00,00,00,04,00,00,00,00
304682400,00000450,false,0,3,00,C2,05
304682600,00000462,false,0,8,FE,3F,FF,0F,F0,1F,00,00
304682800,00000471,false,0,6,15,54,11,00,00,64
304670400,00000111,false,1,8,00,00,00,00,00,00,00,00
304681500,0000016A,false,1,8,00,00,00,00,00,00,00,00
304690400,00000112,false,1,8,00,20,06,00,00,00,00,00
304702100,00000450,false,0,3,00,C2,05
304702300,00000462,false,0,8,FE,3F,FF,0F,F0,1F,00,00
304702600,00000471,false,0,6,15,54,11,00,00,68
304699700,00000107,false,1,8,00,00,00,00,2A,C1,C0,00
304701400,00000188,false,1,8,40,50,01,04,00,00,00,00
304710300,00000113,false,1,8,82,00,00,00,00,00,00,00
304719200,0000019B,false,1,8,00,80,00,00,00,00,00,00
304721500,00000189,false,1,8,00,00,00,00,00,00,00,00
304722300,00000450,false,0,3,00,C2,05
304722500,00000462,false,0,8,FE,3F,FF,0F,F0,1F,00,00
304722700,00000471,false,0,6,15,54,11,00,00,AC
304742300,00000412,false,0,8,00,00,00,00,00,00,00,00
304742500,00000450,false,0,3,00,C2,05
304742700,0000045D,false,0,8,00,00,00,00,00,00,00,00
304743000,00000462,false,0,8,FE,3F,FF,0F,F0,1F,00,00
304743200,00000471,false,0,6,15,54,11,00,00,B0
304743500,00000479,false,0,8,FF,00,00,00,00,00,00,00
304743700,0000049A,false,0,8,00,00,00,00,00,00,FC,03
304744000,000004A9,false,0,8,00,00,00,10,00,00,00,00
304744200,000004FE,false,0,8,FF,FF,7F,FF,FF,00,FF,FF
304744500,00000520,false,0,8,00,00,00,00,00,00,00,00
304744800,00000559,false,0,8,00,40,00,00,00,00,00,00
304745100,000005B4,false,0,8,00,00,00,00,0C,30,00,00
304729700,00000100,false,1,8,04,06,00,00,00,00,80,00
304730000,00000106,false,1,8,00,00,00,00,00,00,00,00
304730200,00000107,false,1,8,00,00,00,00,2A,41,C0,00
304730500,00000510,false,1,8,00,00,FF,00,00,00,00,00
304730700,00000109,false,1,8,00,00,00,00,00,00,00,00
304739200,0000059D,false,1,8,64,60,60,00,00,00,00,00
304741400,0000018A,false,1,8,00,00,00,00,00,00,00,00
304749600,00000101,false,1,8,00,00,00,00,00,00,00,10
304750100,00000401,false,1,8,16,02,00,00,00,00,FF,FF
304762200,00000450,false,0,3,00,C2,05
304762400,00000462,false,0,8,FE,3F,FF,0F,F0,1F,00,00
304762700,00000471,false,0,6,15,54,11,00,00,B4
304762900,0000050E,false,0,8,00,00,00,00,00,00,00,00
304763200,00000541,false,0,8,00,01,22,00,C8,08,00,00
304763400,0000055C,false,0,8,66,01,14,FF,01,00,00,00
304763700,0000055F,false,0,8,00,10,00,02,30,00,04,00
304772200,0000045E,false,0,8,00,00,00,00,00,00,00,00
304772400,00000561,false,0,8,05,60,00,07,80,00,0F,00
304772700,00000567,false,0,8,40,09,08,2C,00,00,00,00
304773000,00000578,false,0,6,00,00,00,00,0F,00
304773200,00000588,false,0,8,FC,FF,03,00,00,00,00,00
304773500,000005EC,false,0,8,00,00,00,04,00,00,00,00
304769600,00000102,false,1,8,00,00,A0,00,00,00,00,00
304769900,00000107,false,1,8,00,00,00,00,2A,41,C0,00
304782100,00000450,false,0,3,00,C2,05
304782300,00000462,false,0,8,FE,3F,FF,0F,F0,1F,00,00
304782500,00000471,false,0,6,15,54,11,00,00,B8
304782800,00000553,false,0,8,04,00,80,00,00,00,80,00
304792300,000005B3,false,0,8,43,D0,FF,00,00,00,00,00
304792600,000005DF,false,0,8,45,1A,02,00,00,00,00,00
304802100,00000450,false,0,3,00,C2,05
304802400,00000462,false,0,8,FE,3F,FF,0F,F0,1F,00,00
304802600,00000471,false,0,6,15,54,11,00,00,FC
304789600,00000103,false,1,8,00,00,00,00,00,00,00,00
304799600,00000107,false,1,8,00,00,00,00,2A,81,C0,00
304821900,00000450,false,0,3,00,C2,05
304822200,00000462,false,0,8,FE,3F,FF,0F,F0,1F,00,00
304822400,00000471,false,0,6,15,54,11,00,00,40
304829600,00000593,false,0,6,01,00,FF,FF,FF,FF
304809500,00000104,false,1,8,48,4E,C0,02,00,00,00,40
304829500,00000105,false,1,8,00,00,00,00,08,00,00,00
304842300,00000450,false,0,3,00,C2,05
304842600,00000462,false,0,8,FE,3F,FF,0F,F0,1F,00,00
304842800,00000471,false,0,6,15,54,11,00,00,44
304843100,00000479,false,0,8,FF,00,00,00,00,00,00,00
304843400,00000520,false,0,8,00,00,00,00,00,00,00,00
304839600,00000107,false,1,8,00,00,00,00,2A,41,C0,00
304841100,00000416,false,1,8,1E,02,00,00,00,00,FF,FF
304841300,00000168,false,1,8,88,00,C4,04,C1,B0,40,00
304841600,0000018B,false,1,8,16,FF,F8,00,00,00,00,00
304841900,0000018C,false,1,8,03,00,00,00,00,00,00,00
304842100,0000018D,false,1,8,FF,FF,FF,FF,C0,00,00,18
304842400,0000018E,false,1,8,FF,FF,FF,FF,01,00,00,00
304842600,0000018F,false,1,8,00,00,00,00,00,00,00,00
304842900,000001F7,false,1,8,00,00,00,40,00,00,00,00
304843200,000001FA,false,1,8,FF,C0,00,00,00,00,00,00
304843400,00000588,false,1,8,00,00,00,00,00,00,00,00
304843700,00000589,false,1,8,00,00,00,7F,FF,00,00,00
304850200,00000110,false,1,8,00,00,00,00,00,00,00,00
304861900,00000450,false,0,3,00,C2,05
304862200,00000462,false,0,8,FE,3F,FF,0F,F0,1F,00,00
304862400,00000471,false,0,6,15,54,11,00,00,48
304861200,00000169,false,1,8,00,00,00,00,00,00,40,00
304862700,00000541,false,0,8,00,01,22,00,C8,08,00,00
304862900,0000055C,false,0,8,66,01,14,FF,01,00,00,00
304863200,0000055F,false,0,8,00,10,00,02,30,00,04,00
304870100,00000111,false,1,8,00,00,00,00,00,00,00,00
304872200,00000561,false,0,8,05,60,00,07,80,00,0F,00
304872500,00000567,false,0,8,40,09,08,2C,00,00,00,00
304872700,00000578,false,0,6,00,00,00,00,0F,00
304873000,00000588,false,0,8,FC,FF,03,00,00,00,00,00
304873200,000005EC,false,0,8,00,00,00,04,00,00,00,00
304882100,00000450,false,0,3,00,C2,05
304882400,00000462,false,0,8,FE,3F,FF,0F,F0,1F,00,00
304882600,00000471,false,0,6,15,54,11,00,00,8C
304879500,00000107,false,1,8,00,00,00,00,2A,41,C0,00
304881300,0000016A,false,1,8,00,00,00,00,00,00,00,00
304890100,00000112,false,1,8,00,20,06,00,00,00,00,00
304901800,00000450,false,0,3,00,C2,05
304902100,00000462,false,0,8,FE,3F,FF,0F,F0,1F,00,00
304902300,00000471,false,0,6,15,54,11,00,00,50
304901200,00000188,false,1,8,40,50,01,04,00,00,00,00
304909500,00000107,false,1,8,00,00,00,00,2A,C1,C0,00
304910100,00000113,false,1,8,82,00,00,00,00,00,00,00
304919200,0000019B,false,1,8,00,80,00,00,00,00,00,00
304921200,00000189,false,1,8,00,00,00,00,00,00,00,00
304922000,00000450,false,0,3,00,C2,05
304922300,00000462,false,0,8,FE,3F,FF,0F,F0,1F,00,00
304922500,00000471,false,0,6,15,54,11,00,00,54
304942000,0000007F,false,0,8,00,00,00,00,00,00,00,00
304942300,00000412,false,0,8,00,00,00,00,00,00,00,00
304942500,00000450,false,0,3,00,C2,05
304942800,0000045D,false,0,8,00,00,00,00,00,00,00,00
304943000,00000462,false,0,8,FE,3F,FF,0F,F0,1F,00,00
304943200,00000471,false,0,6,15,54,11,00,00,58
304943500,00000479,false,0,8,FF,00,00,00,00,00,00,00
304943800,0000049A,false,0,8,00,00,00,00,00,00,FC,03
304944100,000004A9,false,0,8,00,00,00,10,00,00,00,00
304944300,000004FE,false,0,8,FF,FF,7F,FF,FF,00,FF,FF
304944600,00000520,false,0,8,00,00,00,00,00,00,00,00
304944900,00000559,false,0,8,00,40,00,00,00,00,00,00
304945200,000005B4,false,0,8,00,00,00,00,0C,30,00,00
304945400,000005BE,false,0,8,00,00,00,00,00,00,00,00
304929400,00000100,false,1,8,04,06,00,00,00,00,80,00
304929700,00000106,false,1,8,00,00,00,00,00,00,00,00
304930000,00000109,false,1,8,00,00,00,00,00,00,00,00
304930200,00000510,false,1,8,00,00,FF,00,00,00,00,00
304939200,0000041E,false,1,8,00,12,00,00,00,00,FF,FF
304939400,00000107,false,1,8,00,00,00,00,2A,81,C0,00
304939700,0000059D,false,1,8,64,60,60,00,00,00,00,00
304941100,0000018A,false,1,8,00,00,00,00,00,00,00,00
304949400,00000101,false,1,8,00,00,00,00,00,00,00,10
304961900,00000450,false,0,3,00,C2,05
304962200,00000462,false,0,8,FE,3F,FF,0F,F0,1F,00,00
304962400,00000471,false,0,6,15,54,11,00,00,9C
304962800,0000050E,false,0,8,00,00,00,00,00,00,00,00
304963000,00000541,false,0,8,00,01,22,00,C8,08,00,00
304963300,0000055C,false,0,8,66,01,14,FF,01,00,00,00
304963600,0000055F,false,0,8,00,10,00,02,30,00,04,00
304971900,0000045E,false,0,8,00,00,00,00,00,00,00,00
304972200,00000561,false,0,8,05,60,00,07,80,00,0F,00
304972500,00000567,false,0,8,40,09,08,2C,00,00,00,00
304972700,00000578,false,0,6,00,00,00,00,0F,00
304973000,00000588,false,0,8,FC,FF,03,00,00,00,00,00
304973200,000005EC,false,0,8,00,00,00,04,00,00,00,00
304969300,00000102,false,1,8,00,00,A0,00,00,00,00,00
304979400,00000107,false,1,8,00,00,00,00,2A,81,C0,00
304981800,00000450,false,0,3,00,C2,05
304982100,00000462,false,0,8,FE,3F,FF,0F,F0,1F,00,00
304982300,00000471,false,0,6,15,54,11,00,00,60
304982600,00000553,false,0,8,04,00,80,00,00,00,80,00
304992100,000005B3,false,0,8,43,D0,FF,00,00,00,00,00
304992400,000005DF,false,0,8,45,1A,02,00,00,00,00,00
305001900,00000450,false,0,3,00,C2,05
305002100,00000462,false,0,8,FE,3F,FF,0F,F0,1F,00,00
305002300,00000471,false,0,6,15,54,11,00,00,64
304989300,00000103,false,1,8,00,00,00,00,00,00,00,00
305009300,00000104,false,1,8,48,4E,C0,02,00,00,00,40
305011900,000005D0,false,0,8,8D,34,02,00,00,00,00,00
305012200,000005D3,false,0,8,0F,00,00,00,00,00,00,00
305021700,00000450,false,0,3,00,C2,05
305021900,00000462,false,0,8,FE,3F,FF,0F,F0,1F,00,00
305022100,00000471,false,0,6,15,54,11,00,00,68
305029300,00000593,false,0,6,01,00,FF,FF,FF,FF
305019300,00000107,false,1,8,00,00,00,00,2A,81,C0,00
305029300,00000105,false,1,8,00,00,00,00,08,00,00,00
305039100,00000400,false,1,8,01,02,00,00,00,00,FF,FF
305041000,00000168,false,1,8,88,00,C4,04,C1,B0,40,00
305041300,0000018B,false,1,8,16,FF,F8,00,00,00,00,00
305041600,0000018C,false,1,8,03,00,00,00,00,00,00,00
305041800,0000018D,false,1,8,FF,FF,FF,FF,C0,00,00,18
305042100,0000018E,false,1,8,FF,FF,FF,FF,01,00,00,00
305042400,0000018F,false,1,8,00,00,00,00,00,00,00,00
305042100,00000450,false,0,3,00,C2,05
305042400,00000462,false,0,8,FE,3F,FF,0F,F0,1F,00,00
305042600,00000471,false,0,6,15,54,11,00,00,AC
305042900,00000479,false,0,8,FF,00,00,00,00,00,00,00
305043200,00000520,false,0,8,00,00,00,00,00,00,00,00
305042700,000001F7,false,1,8,00,00,00,40,00,00,00,00
305042900,000001FA,false,1,8,FF,C0,00,00,00,00,00,00
305043200,00000588,false,1,8,00,00,00,00,00,00,00,00
305043500,00000589,false,1,8,00,00,00,7F,FF,00,00,00
305061800,00000450,false,0,3,00,C2,05
305062000,00000462,false,0,8,FE,3F,FF,0F,F0,1F,00,00
305062200,00000471,false,0,6,15,54,11,00,00,B0
305062500,00000541,false,0,8,00,01,22,00,C8,08,00,00
305062800,0000055C,false,0,8,66,01,14,FF,01,00,00,00
305063100,0000055F,false,0,8,00,10,00,02,30,00,04,00
305049300,00000107,false,1,8,00,00,00,00,2A,41,C0,00
305049900,00000110,false,1,8,00,00,00,00,00,00,00,00
305061000,00000169,false,1,8,00,00,00,00,00,00,40,00
305069900,00000111,false,1,8,00,00,00,00,00,00,00,00
305071900,00000561,false,0,8,05,60,00,07,80,00,0F,00
305072200,00000567,false,0,8,40,09,08,2C,00,00,00,00
305072500,00000578,false,0,6,00,00,00,00,0F,00
305072700,00000588,false,0,8,FC,FF,03,00,00,00,00,00
305073000,000005EC,false,0,8,00,00,00,04,00,00,00,00
305081900,00000450,false,0,3,00,C2,05
305082100,00000462,false,0,8,FE,3F,FF,0F,F0,1F,00,00
305082400,00000471,false,0,6,15,54,11,00,00,B4
305079200,00000107,false,1,8,00,00,00,00,2A,C1,C0,00
305081000,0000016A,false,1,8,00,00,00,00,00,00,00,00
305089900,00000112,false,1,8,00,20,06,00,00,00,00,00
305101600,00000450,false,0,3,00,C2,05
305101900,00000462,false,0,8,FE,3F,FF,0F,F0,1F,00,00
305102100,00000471,false,0,6,15,54,11,00,00,B8
305100900,00000188,false,1,8,40,50,01,04,00,00,00,00
305109900,00000113,false,1,8,82,00,00,00,00,00,00,00
305119200,00000107,false,1,8,00,00,00,00,2A,81,C0,00
305119400,0000019B,false,1,8,00,80,00,00,00,00,00,00
305121000,00000189,false,1,8,00,00,00,00,00,00,00,00
305121800,00000450,false,0,3,00,C2,05
305122000,00000462,false,0,8,FE,3F,FF,0F,F0,1F,00,00
305122200,00000471,false,0,6,15,54,11,00,00,FC
305141800,00000412,false,0,8,00,00,00,00,00,00,00,00
305142000,00000450,false,0,3,00,C2,05
305142200,0000045D,false,0,8,00,00,00,00,00,00,00,00
305142500,00000462,false,0,8,FE,3F,FF,0F,F0,1F,00,00
305142700,00000471,false,0,6,15,54,11,00,00,40
305143000,00000479,false,0,8,FF,00,00,00,00,00,00,00
305143300,0000049A,false,0,8,00,00,00,00,00,00,FC,03
305143500,000004A9,false,0,8,00,00,00,10,00,00,00,00
305143800,000004FE,false,0,8,FF,FF,7F,FF,FF,00,FF,FF
305144100,00000520,false,0,8,00,00,00,00,00,00,00,00
305144400,00000559,false,0,8,00,40,00,00,00,00,00,00
305144600,000005B4,false,0,8,00,00,00,00,0C,30,00,00
305129200,00000100,false,1,8,04,06,00,00,00,00,80,00
305129500,00000106,false,1,8,00,00,00,00,00,00,00,00
305129700,00000401,false,1,8,16,02,00,00,00,00,FF,FF
305129900,00000109,false,1,8,00,00,00,00,00,00,00,00
305130200,00000510,false,1,8,00,00,FF,00,00,00,00,00
305139200,0000059D,false,1,8,64,60,60,00,00,00,00,00
305140900,0000018A,false,1,8,00,00,00,00,00,00,00,00
305149100,00000101,false,1,8,00,00,00,00,00,00,00,10
305161700,00000450,false,0,3,00,C2,05
305162000,00000462,false,0,8,FE,3F,FF,0F,F0,1F,00,00
305162200,00000471,false,0,6,15,54,11,00,00,44
305162500,0000050E,false,0,8,00,00,00,00,00,00,00,00
305162800,00000541,false,0,8,00,01,22,00,C8,08,00,00
305163000,0000055C,false,0,8,66,01,14,FF,01,00,00,00
305163300,0000055F,false,0,8,00,10,00,02,30,00,04,00
305171700,0000045E,false,0,8,00,00,00,00,00,00,00,00
305171900,00000561,false,0,8,05,60,00,07,80,00,0F,00
305172200,00000567,false,0,8,40,09,08,2C,00,00,00,00
305172500,00000578,false,0,6,00,00,00,00,0F,00
305172700,00000588,false,0,8,FC,FF,03,00,00,00,00,00
305173000,000005EC,false,0,8,00,00,00,04,00,00,00,00
305159100,00000107,false,1,8,00,00,00,00,2A,81,C0,00
305169100,00000102,false,1,8,00,00,A0,00,00,00,00,00
305181600,00000450,false,0,3,00,C2,05
305181800,00000462,false,0,8,FE,3F,FF,0F,F0,1F,00,00
305182000,00000471,false,0,6,15,54,11,00,00,48
305182300,00000553,false,0,8,04,00,80,00,00,00,80,00
305191900,000005B3,false,0,8,43,D0,FF,00,00,00,00,00
305192100,000005DF,false,0,8,45,1A,02,00,00,00,00,00
305201600,00000450,false,0,3,00,C2,05
305201900,00000462,false,0,8,FE,3F,FF,0F,F0,1F,00,00
305202100,00000471,false,0,6,15,54,11,00,00,8C
305189100,00000103,false,1,8,00,00,00,00,00,00,00,00
305189400,00000107,false,1,8,00,00,00,00,2A,C1,C0,00
305209100,00000104,false,1,8,48,4E,C0,02,00,00,00,40
305221400,00000450,false,0,3,00,C2,05
305221700,00000462,false,0,8,FE,3F,FF,0F,F0,1F,00,00
305221900,00000471,false,0,6,15,54,11,00,00,50
305229100,00000593,false,0,6,01,00,FF,FF,FF,FF
305220600,00000416,false,1,8,1E,02,00,00,00,00,FF,FF
305229000,00000105,false,1,8,00,00,00,00,08,00,00,00
305229300,00000107,false,1,8,00,00,00,00,2A,C1,C0,00
305241800,00000450,false,0,3,00,C2,05
305242100,00000462,false,0,8,FE,3F,FF,0F,F0,1F,00,00
305242400,00000471,false,0,6,15,54,11,00,00,54
305242600,00000479,false,0,8,FF,00,00,00,00,00,00,00
305242900,00000520,false,0,8,00,00,00,00,00,00,00,00
305240800,00000168,false,1,8,88,00,C4,04,C1,B0,40,00
305241100,0000018B,false,1,8,16,FF,F8,00,00,00,00,00
305241300,0000018C,false,1,8,03,00,00,00,00,00,00,00
305241600,0000018D,false,1,8,FF,FF,FF,FF,C0,00,00,18
305241800,0000018E,false,1,8,FF,FF,FF,FF,01,00,00,00
305242100,0000018F,false,1,8,00,00,00,00,00,00,00,00
305242400,000001F7,false,1,8,00,00,00,40,00,00,00,00
305242700,000001FA,false,1,8,FF,C0,00,00,00,00,00,00
305242900,00000588,false,1,8,00,00,00,00,00,00,00,00
305243200,00000589,false,1,8,00,00,00,7F,FF,00,00,00
305249700,00000110,false,1,8,00,00,00,00,00,00,00,00
305259000,00000107,false,1,8,00,00,00,00,2A,81,C0,00
305260700,00000169,false,1,8,00,00,00,00,00,00,40,00
305261500,00000450,false,0,3,00,C2,05
305261800,00000462,false,0,8,FE,3F,FF,0F,F0,1F,00,00
305262000,00000471,false,0,6,15,54,11,00,00,58
305262200,00000541,false,0,8,00,01,22,00,C8,08,00,00
305262500,0000055C,false,0,8,66,01,14,FF,01,00,00,00
305262800,0000055F,false,0,8,00,10,00,02,30,00,04,00
305269700,00000111,false,1,8,00,00,00,00,00,00,00,00
305271700,00000561,false,0,8,05,60,00,07,80,00,0F,00
305272000,00000567,false,0,8,40,09,08,2C,00,00,00,00
305272200,00000578,false,0,6,00,00,00,00,0F,00
305272500,00000588,false,0,8,FC,FF,03,00,00,00,00,00
305272700,000005EC,false,0,8,00,00,00,04,00,00,00,00
305281700,00000450,false,0,3,00,C2,05
305281900,00000462,false,0,8,FE,3F,FF,0F,F0,1F,00,00
305282100,00000471,false,0,6,15,54,11,00,00,9C
305280800,0000016A,false,1,8,00,00,00,00,00,00,00,00
305289000,00000107,false,1,8,00,00,00,00,2A,C1,C0,00
305289600,00000112,false,1,8,00,20,06,00,00,00,00,00
305301400,00000450,false,0,3,00,C2,05
305301700,00000462,false,0,8,FE,3F,FF,0F,F0,1F,00,00
305301900,00000471,false,0,6,15,54,11,00,00,60
305300700,00000188,false,1,8,40,50,01,04,00,00,00,00
305309600,00000113,false,1,8,82,00,00,00,00,00,00,00
305319200,0000041E,false,1,8,00,12,00,00,00,00,FF,FF
305319500,0000019B,false,1,8,00,80,00,00,00,00,00,00
305320700,00000189,false,1,8,00,00,00,00,00,00,00,00
305321500,00000450,false,0,3,00,C2,05
305321800,00000462,false,0,8,FE,3F,FF,0F,F0,1F,00,00
305322000,00000471,false,0,6,15,54,11,00,00,64
305341500,00000412,false,0,8,00,00,00,00,00,00,00,00
305341700,00000450,false,0,3,00,C2,05
305342000,0000045D,false,0,8,00,00,00,00,00,00,00,00
305342200,00000462,false,0,8,FE,3F,FF,0F,F0,1F,00,00
305342400,00000471,false,0,6,15,54,11,00,00,68
305342700,00000479,false,0,8,FF,00,00,00,00,00,00,00
305343000,0000049A,false,0,8,00,00,00,00,00,00,FC,03
305343200,000004A9,false,0,8,00,00,00,10,00,00,00,00
305343500,000004FE,false,0,8,FF,FF,7F,FF,FF,00,FF,FF
305343800,00000520,false,0,8,00,00,00,00,00,00,00,00
305344000,00000559,false,0,8,00,40,00,00,00,00,00,00
305344300,000005B4,false,0,8,00,00,00,00,0C,30,00,00
305328900,00000100,false,1,8,04,06,00,00,00,00,80,00
305329200,00000106,false,1,8,00,00,00,00,00,00,00,00
305329500,00000107,false,1,8,00,00,00,00,2A,81,C0,00
305329700,00000510,false,1,8,00,00,FF,00,00,00,00,00
305330000,00000109,false,1,8,00,00,00,00,00,00,00,00
305339200,0000059D,false,1,8,64,60,60,00,00,00,00,00
305340600,0000018A,false,1,8,00,00,00,00,00,00,00,00
305348900,00000101,false,1,8,00,00,00,00,00,00,00,10
305361500,00000450,false,0,3,00,C2,05
305361700,00000462,false,0,8,FE,3F,FF,0F,F0,1F,00,00
305362000,00000471,false,0,6,15,54,11,00,00,AC
305362300,0000050E,false,0,8,00,00,00,00,00,00,00,00
305362500,00000541,false,0,8,00,01,22,00,C8,08,00,00
305362800,0000055C,false,0,8,66,01,14,FF,01,00,00,00
305363100,0000055F,false,0,8,00,10,00,02,30,00,04,00
305371500,0000045E,false,0,8,00,00,00,00,00,00,00,00
305371700,00000561,false,0,8,05,60,00,07,80,00,0F,00
305372000,00000567,false,0,8,40,09,08,2C,00,00,00,00
305372200,00000578,false,0,6,00,00,00,00,0F,00
305372500,00000588,false,0,8,FC,FF,03,00,00,00,00,00
305372700,000005EC,false,0,8,00,00,00,04,00,00,00,00
305358900,00000107,false,1,8,00,00,00,00,2A,C1,C0,00
305368800,00000102,false,1,8,00,00,A0,00,00,00,00,00
305381300,00000450,false,0,3,00,C2,05
305381600,00000462,false,0,8,FE,3F,FF,0F,F0,1F,00,00
305381800,00000471,false,0,6,15,54,11,00,00,B0
305382100,00000553,false,0,8,04,00,80,00,00,00,80,00
305391600,000005B3,false,0,8,43,D0,FF,00,00,00,00,00
305391900,000005DF,false,0,8,45,1A,02,00,00,00,00,00
305401400,00000450,false,0,3,00,C2,05
305401600,00000462,false,0,8,FE,3F,FF,0F,F0,1F,00,00
305401900,00000471,false,0,6,15,54,11,00,00,B4
305388800,00000103,false,1,8,00,00,00,00,00,00,00,00
305398800,00000107,false,1,8,00,00,00,00,2A,C1,C0,00
305421200,00000450,false,0,3,00,C2,05
305421400,00000462,false,0,8,FE,3F,FF,0F,F0,1F,00,00
305421600,00000471,false,0,6,15,54,11,00,00,B8
305408800,00000104,false,1,8,48,4E,C0,02,00,00,00,40
305418600,00000400,false,1,8,01,02,00,00,00,00,FF,FF
305428800,00000105,false,1,8,00,00,00,00,08,00,00,00
305429100,00000107,false,1,8,00,00,00,00,2A,81,C0,00
305428800,00000593,false,0,6,01,00,FF,FF,FF,FF
305441600,00000450,false,0,3,00,C2,05
305441900,00000462,false,0,8,FE,3F,FF,0F,F0,1F,00,00
305442100,00000471,false,0,6,15,54,11,00,00,FC
305442400,00000479,false,0,8,FF,00,00,00,00,00,00,00
305442600,00000520,false,0,8,00,00,00,00,00,00,00,00
305440500,00000168,false,1,8,88,00,C4,04,C1,B0,40,00
305440800,0000018B,false,1,8,16,FF,F8,00,00,00,00,00
305441100,0000018C,false,1,8,03,00,00,00,00,00,00,00
305441300,0000018D,false,1,8,FF,FF,FF,FF,C0,00,00,18
305441600,0000018E,false,1,8,FF,FF,FF,FF,01,00,00,00
305441900,0000018F,false,1,8,00,00,00,00,00,00,00,00
305442100,000001F7,false,1,8,00,00,00,40,00,00,00,00
305442400,000001FA,false,1,8,FF,C0,00,00,00,00,00,00
305442700,00000588,false,1,8,00,00,00,00,00,00,00,00
305443000,00000589,false,1,8,00,00,00,7F,FF,00,00,00
305449400,00000110,false,1,8,00,00,00,00,00,00,00,00
305461200,00000450,false,0,3,00,C2,05
305461400,00000462,false,0,8,FE,3F,FF,0F,F0,1F,00,00
305461600,00000471,false,0,6,15,54,11,00,00,40
305461900,00000541,false,0,8,00,01,22,00,C8,08,00,00
305462200,0000055C,false,0,8,66,01,14,FF,01,00,00,00
305462500,0000055F,false,0,8,00,10,00,02,30,00,04,00
305460500,00000169,false,1,8,00,00,00,00,00,00,40,00
305468800,00000107,false,1,8,00,00,00,00,2A,C1,C0,00
305469400,00000111,false,1,8,00,00,00,00,00,00,00,00
305471400,00000561,false,0,8,05,60,00,07,80,00,0F,00
305471700,00000567,false,0,8,40,09,08,2C,00,00,00,00
305472000,00000578,false,0,6,00,00,00,00,0F,00
305472200,00000588,false,0,8,FC,FF,03,00,00,00,00,00
305472500,000005EC,false,0,8,00,00,00,04,00,00,00,00
305481400,00000450,false,0,3,00,C2,05
305481700,00000462,false,0,8,FE,3F,FF,0F,F0,1F,00,00
305481900,00000471,false,0,6,15,54,11,00,00,44
305480500,0000016A,false,1,8,00,00,00,00,00,00,00,00
305489400,00000112,false,1,8,00,20,06,00,00,00,00,00
305501100,00000450,false,0,3,00,C2,05
305501400,00000462,false,0,8,FE,3F,FF,0F,F0,1F,00,00
305501600,00000471,false,0,6,15,54,11,00,00,48
305498700,00000107,false,1,8,00,00,00,00,2A,81,C0,00
305500400,00000188,false,1,8,40,50,01,04,00,00,00,00
305509200,00000401,false,1,8,16,02,00,00,00,00,FF,FF
305509500,00000113,false,1,8,82,00,00,00,00,00,00,00
305519200,0000019B,false,1,8,00,80,00,00,00,00,00,00
305521300,00000450,false,0,3,00,C2,05
305521500,00000462,false,0,8,FE,3F,FF,0F,F0,1F,00,00
305521700,00000471,false,0,6,15,54,11,00,00,8C
305520500,00000189,false,1,8,00,00,00,00,00,00,00,00
305541300,00000412,false,0,8,00,00,00,00,00,00,00,00
305541500,00000450,false,0,3,00,C2,05
305541700,0000045D,false,0,8,00,00,00,00,00,00,00,00
305542000,00000462,false,0,8,FE,3F,FF,0F,F0,1F,00,00
305542200,00000471,false,0,6,15,54,11,00,00,50
305542500,00000479,false,0,8,FF,00,00,00,00,00,00,00
305542700,0000049A,false,0,8,00,00,00,00,00,00,FC,03
305543000,000004A9,false,0,8,00,00,00,10,00,00,00,00
305543300,000004FE,false,0,8,FF,FF,7F,FF,FF,00,FF,FF
305543500,00000520,false,0,8,00,00,00,00,00,00,00,00
305543800,00000559,false,0,8,00,40,00,00,00,00,00,00
305544100,000005B4,false,0,8,00,00,00,00,0C,30,00,00
305528600,00000100,false,1,8,04,06,00,00,00,00,80,00
305528900,00000106,false,1,8,00,00,00,00,00,00,00,00
305529200,00000109,false,1,8,00,00,00,00,00,00,00,00
305529400,00000510,false,1,8,00,00,FF,00,00,00,00,00
305538700,00000107,false,1,8,00,00,00,00,2A,C1,C0,00
305539200,0000059D,false,1,8,64,60,60,00,00,00,00,00
305540400,0000018A,false,1,8,00,00,00,00,00,00,00,00
305548600,00000101,false,1,8,00,00,00,00,00,00,00,10
305561200,00000450,false,0,3,00,C2,05
305561500,00000462,false,0,8,FE,3F,FF,0F,F0,1F,00,00
305561700,00000471,false,0,6,15,54,11,00,00,54
305562000,0000050E,false,0,8,00,00,00,00,00,00,00,00
305562300,00000541,false,0,8,00,01,22,00,C8,08,00,00
305562500,0000055C,false,0,8,66,01,14,FF,01,00,00,00
305562800,0000055F,false,0,8,00,10,00,02,30,00,04,00
305571200,0000045E,false,0,8,00,00,00,00,00,00,00,00
305571500,00000561,false,0,8,05,60,00,07,80,00,0F,00
305571700,00000567,false,0,8,40,09,08,2C,00,00,00,00
305572000,00000578,false,0,6,00,00,00,00,0F,00
305572200,00000588,false,0,8,FC,FF,03,00,00,00,00,00
305572500,000005EC,false,0,8,00,00,00,04,00,00,00,00
305568600,00000102,false,1,8,00,00,A0,00,00,00,00,00
305568900,00000107,false,1,8,00,00,00,00,2A,81,C0,00
305581100,00000450,false,0,3,00,C2,05
305581300,00000462,false,0,8,FE,3F,FF,0F,F0,1F,00,00
305581600,00000471,false,0,6,15,54,11,00,00,58
305581800,00000553,false,0,8,04,00,80,00,00,00,80,00
305591400,000005B3,false,0,8,43,D0,FF,00,00,00,00,00
305591600,000005DF,false,0,8,45,1A,02,00,00,00,00,00
305601300,00000450,false,0,3,00,C2,05
305601500,00000462,false,0,8,FE,3F,FF,0F,F0,1F,00,00
305601700,00000471,false,0,6,15,54,11,00,00,9C
305588600,00000103,false,1,8,00,00,00,00,00,00,00,00
305600200,00000416,false,1,8,1E,02,00,00,00,00,FF,FF
305620900,00000450,false,0,3,00,C2,05
305621200,00000462,false,0,8,FE,3F,FF,0F,F0,1F,00,00
305621400,00000471,false,0,6,15,54,11,00,00,60
305608600,00000104,false,1,8,48,4E,C0,02,00,00,00,40
305608800,00000107,false,1,8,00,00,00,00,2A,C1,C0,00
305628500,00000105,false,1,8,00,00,00,00,08,00,00,00
305628600,00000593,false,0,6,01,00,FF,FF,FF,FF
305641300,00000450,false,0,3,00,C2,05
305641600,00000462,false,0,8,FE,3F,FF,0F,F0,1F,00,00
305641900,00000471,false,0,6,15,54,11,00,00,64
305642100,00000479,false,0,8,FF,00,00,00,00,00,00,00
305642400,00000520,false,0,8,00,00,00,00,00,00,00,00
305640300,00000168,false,1,8,88,00,C4,04,C1,B0,40,00
305640600,0000018B,false,1,8,16,FF,F8,00,00,00,00,00
305640800,0000018C,false,1,8,03,00,00,00,00,00,00,00
305641100,0000018D,false,1,8,FF,FF,FF,FF,C0,00,00,18
305641300,0000018E,false,1,8,FF,FF,FF,FF,01,00,00,00
305641600,0000018F,false,1,8,00,00,00,00,00,00,00,00
305641900,000001F7,false,1,8,00,00,00,40,00,00,00,00
305642200,000001FA,false,1,8,FF,C0,00,00,00,00,00,00
305642400,00000588,false,1,8,00,00,00,00,00,00,00,00
305642700,00000589,false,1,8,00,00,00,7F,FF,00,00,00
305648500,00000107,false,1,8,00,00,00,00,2A,C1,C0,00
305649200,00000110,false,1,8,00,00,00,00,00,00,00,00
305660900,00000450,false,0,3,00,C2,05
305661200,00000462,false,0,8,FE,3F,FF,0F,F0,1F,00,00
305661400,00000471,false,0,6,15,54,11,00,00,68
305660200,00000169,false,1,8,00,00,00,00,00,00,40,00
305661700,00000541,false,0,8,00,01,22,00,C8,08,00,00
305662000,0000055C,false,0,8,66,01,14,FF,01,00,00,00
305662200,0000055F,false,0,8,00,10,00,02,30,00,04,00
305669200,00000111,false,1,8,00,00,00,00,00,00,00,00
305671200,00000561,false,0,8,05,60,00,07,80,00,0F,00
305671500,00000567,false,0,8,40,09,08,2C,00,00,00,00
305671700,00000578,false,0,6,00,00,00,00,0F,00
305672000,00000588,false,0,8,FC,FF,03,00,00,00,00,00
305672300,000005EC,false,0,8,00,00,00,04,00,00,00,00
305681200,00000450,false,0,3,00,C2,05
305681400,00000462,false,0,8,FE,3F,FF,0F,F0,1F,00,00
305681600,00000471,false,0,6,15,54,11,00,00,AC
305678500,00000107,false,1,8,00,00,00,00,2A,81,C0,00
305680300,0000016A,false,1,8,00,00,00,00,00,00,00,00
305689200,00000112,false,1,8,00,20,06,00,00,00,00,00
305700900,00000450,false,0,3,00,C2,05
305701100,00000462,false,0,8,FE,3F,FF,0F,F0,1F,00,00
305701300,00000471,false,0,6,15,54,11,00,00,B0
305699200,0000041E,false,1,8,00,12,00,00,00,00,FF,FF
305700200,00000188,false,1,8,40,50,01,04,00,00,00,00
305708500,00000107,false,1,8,00,00,00,00,2A,C1,C0,00
305709100,00000113,false,1,8,82,00,00,00,00,00,00,00
305719200,0000019B,false,1,8,00,80,00,00,00,00,00,00
305720200,00000189,false,1,8,00,00,00,00,00,00,00,00
305721000,00000450,false,0,3,00,C2,05
305721300,00000462,false,0,8,FE,3F,FF,0F,F0,1F,00,00
305721500,00000471,false,0,6,15,54,11,00,00,B4
305741000,00000412,false,0,8,00,00,00,00,00,00,00,00
305741200,00000450,false,0,3,00,C2,05
305741500,0000045D,false,0,8,00,00,00,00,00,00,00,00
305741700,00000462,false,0,8,FE,3F,FF,0F,F0,1F,00,00
305742000,00000471,false,0,6,15,54,11,00,00,B8
305742200,00000479,false,0,8,FF,00,00,00,00,00,00,00
305742500,0000049A,false,0,8,00,00,00,00,00,00,FC,03
305742800,000004A9,false,0,8,00,00,00,10,00,00,00,00
305743000,000004FE,false,0,8,FF,FF,7F,FF,FF,00,FF,FF
305743300,00000520,false,0,8,00,00,00,00,00,00,00,00
305743600,00000559,false,0,8,00,40,00,00,00,00,00,00
305743800,000005B4,false,0,8,00,00,00,00,0C,30,00,00
305728400,00000100,false,1,8,04,06,00,00,00,00,80,00
305728700,00000106,false,1,8,00,00,00,00,00,00,00,00
305728900,00000109,false,1,8,00,00,00,00,00,00,00,00
305729200,00000510,false,1,8,00,00,FF,00,00,00,00,00
305739200,0000059D,false,1,8,64,60,60,00,00,00,00,00
305740100,0000018A,false,1,8,00,00,00,00,00,00,00,00
305748400,00000101,false,1,8,00,00,00,00,00,00,00,10
305748700,00000107,false,1,8,00,00,00,00,2A,41,C0,00
305761000,00000450,false,0,3,00,C2,05
305761200,00000462,false,0,8,FE,3F,FF,0F,F0,1F,00,00
305761500,00000471,false,0,6,15,54,11,00,00,FC
305761800,0000050E,false,0,8,00,00,00,00,00,00,00,00
305762000,00000541,false,0,8,00,01,22,00,C8,08,00,00
305762300,0000055C,false,0,8,66,01,14,FF,01,00,00,00
305762600,0000055F,false,0,8,00,10,00,02,30,00,04,00
305771000,0000045E,false,0,8,00,00,00,00,00,00,00,00
305771200,00000561,false,0,8,05,60,00,07,80,00,0F,00
305771500,00000567,false,0,8,40,09,08,2C,00,00,00,00
305771700,00000578,false,0,6,00,00,00,00,0F,00
305772000,00000588,false,0,8,FC,FF,03,00,00,00,00,00
305772200,000005EC,false,0,8,00,00,00,04,00,00,00,00
305768400,00000102,false,1,8,00,00,A0,00,00,00,00,00
305778400,00000107,false,1,8,00,00,00,00,2A,C1,C0,00
305780800,00000450,false,0,3,00,C2,05
305781100,00000462,false,0,8,FE,3F,FF,0F,F0,1F,00,00
305781300,00000471,false,0,6,15,54,11,00,00,40
305781600,00000553,false,0,8,04,00,80,00,00,00,80,00
305791100,000005B3,false,0,8,43,D0,FF,00,00,00,00,00
305791400,000005DF,false,0,8,45,1A,02,00,00,00,00,00
305800900,00000450,false,0,3,00,C2,05
305801100,00000462,false,0,8,FE,3F,FF,0F,F0,1F,00,00
305801400,00000471,false,0,6,15,54,11,00,00,44
305788300,00000103,false,1,8,00,00,00,00,00,00,00,00
305798100,00000400,false,1,8,01,02,00,00,00,00,FF,FF
305808300,00000104,false,1,8,48,4E,C0,02,00,00,00,40
305820700,00000450,false,0,3,00,C2,05
305820900,00000462,false,0,8,FE,3F,FF,0F,F0,1F,00,00
305821200,00000471,false,0,6,15,54,11,00,00,48
305828300,00000593,false,0,6,01,00,FF,FF,FF,FF
305818300,00000107,false,1,8,00,00,00,00,2A,81,C0,00
305828300,00000105,false,1,8,00,00,00,00,08,00,00,00
305841100,00000450,false,0,3,00,C2,05
305841400,00000462,false,0,8,FE,3F,FF,0F,F0,1F,00,00
305841600,00000471,false,0,6,15,54,11,00,00,8C
305841900,00000479,false,0,8,FF,00,00,00,00,00,00,00
305842100,00000520,false,0,8,00,00,00,00,00,00,00,00
305840100,00000168,false,1,8,88,00,C4,04,C1,B0,40,00
305840300,0000018B,false,1,8,16,FF,F8,00,00,00,00,00
305840600,0000018C,false,1,8,03,00,00,00,00,00,00,00
305840800,0000018D,false,1,8,FF,FF,FF,FF,C0,00,00,18
305841100,0000018E,false,1,8,FF,FF,FF,FF,01,00,00,00
305841400,0000018F,false,1,8,00,00,00,00,00,00,00,00
305841600,000001F7,false,1,8,00,00,00,40,00,00,00,00
305841900,000001FA,false,1,8,FF,C0,00,00,00,00,00,00
305842200,00000588,false,1,8,00,00,00,00,00,00,00,00
305842500,00000589,false,1,8,00,00,00,7F,FF,00,00,00
305849000,00000110,false,1,8,00,00,00,00,00,00,00,00
305858200,00000107,false,1,8,00,00,00,00,2A,81,C0,00
305860000,00000169,false,1,8,00,00,00,00,00,00,40,00
305860700,00000450,false,0,3,00,C2,05
305860900,00000462,false,0,8,FE,3F,FF,0F,F0,1F,00,00
305861100,00000471,false,0,6,15,54,11,00,00,50
305861500,00000541,false,0,8,00,01,22,00,C8,08,00,00
305861700,0000055C,false,0,8,66,01,14,FF,01,00,00,00
305862000,0000055F,false,0,8,00,10,00,02,30,00,04,00
305870900,00000561,false,0,8,05,60,00,07,80,00,0F,00
305871200,00000567,false,0,8,40,09,08,2C,00,00,00,00
305871500,00000578,false,0,6,00,00,00,00,0F,00
305871700,00000588,false,0,8,FC,FF,03,00,00,00,00,00
305872000,000005EC,false,0,8,00,00,00,04,00,00,00,00
305880900,00000450,false,0,3,00,C2,05
305881200,00000462,false,0,8,FE,3F,FF,0F,F0,1F,00,00
305881400,00000471,false,0,6,15,54,11,00,00,54
305868900,00000111,false,1,8,00,00,00,00,00,00,00,00
305880000,0000016A,false,1,8,00,00,00,00,00,00,00,00
305888800,00000401,false,1,8,16,02,00,00,00,00,FF,FF
305889100,00000112,false,1,8,00,20,06,00,00,00,00,00
305900700,00000450,false,0,3,00,C2,05
305901000,00000462,false,0,8,FE,3F,FF,0F,F0,1F,00,00
305901200,00000471,false,0,6,15,54,11,00,00,58
305898200,00000107,false,1,8,00,00,00,00,2A,81,C0,00
305899900,00000188,false,1,8,40,50,01,04,00,00,00,00
305908900,00000113,false,1,8,82,00,00,00,00,00,00,00
305919200,0000019B,false,1,8,00,80,00,00,00,00,00,00
305920000,00000189,false,1,8,00,00,00,00,00,00,00,00
305920800,00000450,false,0,3,00,C2,05
305921000,00000462,false,0,8,FE,3F,FF,0F,F0,1F,00,00
305921200,00000471,false,0,6,15,54,11,00,00,9C
305940800,0000007F,false,0,8,00,00,00,00,00,00,00,00
305941100,00000412,false,0,8,00,00,00,00,00,00,00,00
305941300,00000450,false,0,3,00,C2,05
305941600,0000045D,false,0,8,00,00,00,00,00,00,00,00
305941800,00000462,false,0,8,FE,3F,FF,0F,F0,1F,00,00
305942000,00000471,false,0,6,15,54,11,00,00,60
305942300,00000479,false,0,8,FF,00,00,00,00,00,00,00
305942600,0000049A,false,0,8,00,00,00,00,00,00,FC,03
305942900,000004A9,false,0,8,00,00,00,10,00,00,00,00
305943100,000004FE,false,0,8,FF,FF,7F,FF,FF,00,FF,FF
305943400,00000520,false,0,8,00,00,00,00,00,00,00,00
305943700,00000559,false,0,8,00,40,00,00,00,00,00,00
305943900,000005B4,false,0,8,00,00,00,00,0C,30,00,00
305944200,000005BE,false,0,8,00,00,00,00,00,00,00,00
305928100,00000100,false,1,8,04,06,00,00,00,00,80,00
305928400,00000106,false,1,8,00,00,00,00,00,00,00,00
305928700,00000107,false,1,8,00,00,00,00,2A,81,C0,00
305928900,00000510,false,1,8,00,00,FF,00,00,00,00,00
305929200,00000109,false,1,8,00,00,00,00,00,00,00,00
305939200,0000059D,false,1,8,64,60,60,00,00,00,00,00
305939900,0000018A,false,1,8,00,00,00,00,00,00,00,00
305948100,00000101,false,1,8,00,00,00,00,00,00,00,10
305960700,00000450,false,0,3,00,C2,05
305961000,00000462,false,0,8,FE,3F,FF,0F,F0,1F,00,00
305961200,00000471,false,0,6,15,54,11,00,00,64
305961500,0000050E,false,0,8,00,00,00,00,00,00,00,00
305961800,00000541,false,0,8,00,01,22,00,C8,08,00,00
305962000,0000055C,false,0,8,66,01,14,FF,01,00,00,00
305962300,0000055F,false,0,8,00,10,00,02,30,00,04,00
305970700,0000045E,false,0,8,00,00,00,00,00,00,00,00
305971000,00000561,false,0,8,05,60,00,07,80,00,0F,00
305971200,00000567,false,0,8,40,09,08,2C,00,00,00,00
305971500,00000578,false,0,6,00,00,00,00,0F,00
305971700,00000588,false,0,8,FC,FF,03,00,00,00,00,00
305972000,000005EC,false,0,8,00,00,00,04,00,00,00,00
305958100,00000107,false,1,8,00,00,00,00,2A,C1,C0,00
305968100,00000102,false,1,8,00,00,A0,00,00,00,00,00
305980600,00000450,false,0,3,00,C2,05
305980900,00000462,false,0,8,FE,3F,FF,0F,F0,1F,00,00
305981100,00000471,false,0,6,15,54,11,00,00,68
305981400,00000553,false,0,8,04,00,80,00,00,00,80,00
305990900,000005B3,false,0,8,43,D0,FF,00,00,00,00,00
305991100,000005DF,false,0,8,45,1A,02,00,00,00,00,00
305979600,00000416,false,1,8,1E,02,00,00,00,00,FF,FF
305988100,00000103,false,1,8,00,00,00,00,00,00,00,00
305988400,00000107,false,1,8,00,00,00,00,2A,81,C0,00
306000600,00000450,false,0,3,00,C2,05
306000900,00000462,false,0,8,FE,3F,FF,0F,F0,1F,00,00
306001100,00000471,false,0,6,15,54,11,00,00,AC
306010700,000005D0,false,0,8,8D,34,02,00,00,00,00,00
306011000,000005D3,false,0,8,0F,00,00,00,00,00,00,00
306020500,00000450,false,0,3,00,C2,05
306020700,00000462,false,0,8,FE,3F,FF,0F,F0,1F,00,00
306020900,00000471,false,0,6,15,54,11,00,00,B0
306008000,00000104,false,1,8,48,4E,C0,02,00,00,00,40
306028000,00000105,false,1,8,00,00,00,00,08,00,00,00
306028300,00000107,false,1,8,00,00,00,00,2A,81,C0,00
306028100,00000593,false,0,6,01,00,FF,FF,FF,FF
306040800,00000450,false,0,3,00,C2,05
306041200,00000462,false,0,8,FE,3F,FF,0F,F0,1F,00,00
306041400,00000471,false,0,6,15,54,11,00,00,B4
306041600,00000479,false,0,8,FF,00,00,00,00,00,00,00
306041900,00000520,false,0,8,00,00,00,00,00,00,00,00
306039800,00000168,false,1,8,88,00,C4,04,C1,B0,40,00
306040100,0000018B,false,1,8,16,FF,F8,00,00,00,00,00
306040300,0000018C,false,1,8,03,00,00,00,00,00,00,00
306040600,0000018D,false,1,8,FF,FF,FF,FF,C0,00,00,18
306040900,0000018E,false,1,8,FF,FF,FF,FF,01,00,00,00
306041100,0000018F,false,1,8,00,00,00,00,00,00,00,00
306041400,000001F7,false,1,8,00,00,00,40,00,00,00,00
306041700,000001FA,false,1,8,FF,C0,00,00,00,00,00,00
306041900,00000588,false,1,8,00,00,00,00,00,00,00,00
306042200,00000589,false,1,8,00,00,00,7F,FF,00,00,00
306048700,00000110,false,1,8,00,00,00,00,00,00,00,00
306059700,00000169,false,1,8,00,00,00,00,00,00,40,00
306060500,00000450,false,0,3,00,C2,05
306060800,00000462,false,0,8,FE,3F,FF,0F,F0,1F,00,00
306061000,00000471,false,0,6,15,54,11,00,00,B8
306061200,00000541,false,0,8,00,01,22,00,C8,08,00,00
306061600,0000055C,false,0,8,66,01,14,FF,01,00,00,00
306061900,0000055F,false,0,8,00,10,00,02,30,00,04,00
306070700,00000561,false,0,8,05,60,00,07,80,00,0F,00
306071000,00000567,false,0,8,40,09,08,2C,00,00,00,00
306071200,00000578,false,0,6,00,00,00,00,0F,00
306071400,00000588,false,0,8,FC,FF,03,00,00,00,00,00
306071700,000005EC,false,0,8,00,00,00,04,00,00,00,00
306080700,00000450,false,0,3,00,C2,05
306081000,00000462,false,0,8,FE,3F,FF,0F,F0,1F,00,00
306081200,00000471,false,0,6,15,54,11,00,00,FC
306068000,00000107,false,1,8,00,00,00,00,2A,81,C0,00
306068700,00000111,false,1,8,00,00,00,00,00,00,00,00
306079200,0000041E,false,1,8,00,12,00,00,00,00,FF,FF
306079800,0000016A,false,1,8,00,00,00,00,00,00,00,00
306088700,00000112,false,1,8,00,20,06,00,00,00,00,00
306100400,00000450,false,0,3,00,C2,05
306100600,00000462,false,0,8,FE,3F,FF,0F,F0,1F,00,00
306100800,00000471,false,0,6,15,54,11,00,00,40
306098000,00000107,false,1,8,00,00,00,00,2A,C1,C0,00
306099700,00000188,false,1,8,40,50,01,04,00,00,00,00
306108700,00000113,false,1,8,82,00,00,00,00,00,00,00
306120600,00000450,false,0,3,00,C2,05
306120900,00000462,false,0,8,FE,3F,FF,0F,F0,1F,00,00
306121100,00000471,false,0,6,15,54,11,00,00,44
306119200,0000019B,false,1,8,00,80,00,00,00,00,00,00
306119800,00000189,false,1,8,00,00,00,00,00,00,00,00
306127900,00000100,false,1,8,04,06,00,00,00,00,80,00
306128200,00000106,false,1,8,00,00,00,00,00,00,00,00
306128500,00000107,false,1,8,00,00,00,00,2B,01,C0,00
306128700,00000510,false,1,8,00,00,FF,00,00,00,00,00
306129000,00000109,false,1,8,00,00,00,00,00,00,00,00
306139200,0000059D,false,1,8,64,60,60,00,00,00,00,00
306139700,0000018A,false,1,8,00,00,00,00,00,00,00,00
306140600,00000412,false,0,8,00,00,00,00,00,00,00,00
306140700,00000450,false,0,3,00,C2,05
306141000,0000045D,false,0,8,00,00,00,00,00,00,00,00
306141300,00000462,false,0,8,FE,3F,FF,0F,F0,1F,00,00
306141500,00000471,false,0,6,15,54,11,00,00,48
306141700,00000479,false,0,8,FF,00,00,00,00,00,00,00
306142100,0000049A,false,0,8,00,00,00,00,00,00,FC,03
306142300,000004A9,false,0,8,00,00,00,10,00,00,00,00
306142600,000004FE,false,0,8,FF,FF,7F,FF,FF,00,FF,FF
306142900,00000520,false,0,8,00,00,00,00,00,00,00,00
306143100,00000559,false,0,8,00,40,00,00,00,00,00,00
306143400,000005B4,false,0,8,00,00,00,00,0C,30,00,00
306147900,00000101,false,1,8,00,00,00,00,00,00,00,10
306160500,00000450,false,0,3,00,C2,05
306160700,00000462,false,0,8,FE,3F,FF,0F,F0,1F,00,00
306160900,00000471,false,0,6,15,54,11,00,00,8C
306161200,0000050E,false,0,8,00,00,00,00,00,00,00,00
306161500,00000541,false,0,8,00,01,22,00,C8,08,00,00
306161700,0000055C,false,0,8,66,01,14,FF,01,00,00,00
306162000,0000055F,false,0,8,00,10,00,02,30,00,04,00
306170500,0000045E,false,0,8,00,00,00,00,00,00,00,00
306170700,00000561,false,0,8,05,60,00,07,80,00,0F,00
306171000,00000567,false,0,8,40,09,08,2C,00,00,00,00
306171200,00000578,false,0,6,00,00,00,00,0F,00
306171500,00000588,false,0,8,FC,FF,03,00,00,00,00,00
306171800,000005EC,false,0,8,00,00,00,04,00,00,00,00
306167900,00000102,false,1,8,00,00,A0,00,00,00,00,00
306168100,00000107,false,1,8,00,00,00,00,2A,81,C0,00
306180400,00000450,false,0,3,00,C2,05
306180700,00000462,false,0,8,FE,3F,FF,0F,F0,1F,00,00
306180900,00000471,false,0,6,15,54,11,00,00,50
306181100,00000553,false,0,8,04,00,80,00,00,00,80,00
306190600,000005B3,false,0,8,43,D0,FF,00,00,00,00,00
306190900,000005DF,false,0,8,45,1A,02,00,00,00,00,00
306177600,00000400,false,1,8,01,02,00,00,00,00,FF,FF
306187800,00000103,false,1,8,00,00,00,00,00,00,00,00
306197800,00000107,false,1,8,00,00,00,00,2A,C1,C0,00
306200400,00000450,false,0,3,00,C2,05
306200700,00000462,false,0,8,FE,3F,FF,0F,F0,1F,00,00
306200900,00000471,false,0,6,15,54,11,00,00,54
306220200,00000450,false,0,3,00,C2,05
306220400,00000462,false,0,8,FE,3F,FF,0F,F0,1F,00,00
306220700,00000471,false,0,6,15,54,11,00,00,58
306207800,00000104,false,1,8,48,4E,C0,02,00,00,00,40
306227800,00000105,false,1,8,00,00,00,00,08,00,00,00
306227800,00000593,false,0,6,01,00,FF,FF,FF,FF
306240600,00000450,false,0,3,00,C2,05
306240900,00000462,false,0,8,FE,3F,FF,0F,F0,1F,00,00
306241100,00000471,false,0,6,15,54,11,00,00,9C
306241400,00000479,false,0,8,FF,00,00,00,00,00,00,00
306241700,00000520,false,0,8,00,00,00,00,00,00,00,00
306237800,00000107,false,1,8,00,00,00,00,2A,81,C0,00
306239600,00000168,false,1,8,88,00,C4,04,C1,B0,40,00
306239800,0000018B,false,1,8,16,FF,F8,00,00,00,00,00
306240100,0000018C,false,1,8,03,00,00,00,00,00,00,00
306240300,0000018D,false,1,8,FF,FF,FF,FF,C0,00,00,18
306240600,0000018E,false,1,8,FF,FF,FF,FF,01,00,00,00
306240900,0000018F,false,1,8,00,00,00,00,00,00,00,00
306241200,000001F7,false,1,8,00,00,00,40,00,00,00,00
306241400,000001FA,false,1,8,FF,C0,00,00,00,00,00,00
306241700,00000588,false,1,8,00,00,00,00,00,00,00,00
306242000,00000589,false,1,8,00,00,00,7F,FF,00,00,00
306248500,00000110,false,1,8,00,00,00,00,00,00,00,00
306259500,00000169,false,1,8,00,00,00,00,00,00,40,00
306260300,00000450,false,0,3,00,C2,05
306260500,00000462,false,0,8,FE,3F,FF,0F,F0,1F,00,00
306260800,00000471,false,0,6,15,54,11,00,00,60
306261000,00000541,false,0,8,00,01,22,00,C8,08,00,00
306261300,0000055C,false,0,8,66,01,14,FF,01,00,00,00
306261600,0000055F,false,0,8,00,10,00,02,30,00,04,00
306270500,00000561,false,0,8,05,60,00,07,80,00,0F,00
306270800,00000567,false,0,8,40,09,08,2C,00,00,00,00
306271100,00000578,false,0,6,00,00,00,00,0F,00
306271300,00000588,false,0,8,FC,FF,03,00,00,00,00,00
306271600,000005EC,false,0,8,00,00,00,04,00,00,00,00
306280400,00000450,false,0,3,00,C2,05
306280700,00000462,false,0,8,FE,3F,FF,0F,F0,1F,00,00
306280900,00000471,false,0,6,15,54,11,00,00,64
306268300,00000401,false,1,8,16,02,00,00,00,00,FF,FF
306268600,00000111,false,1,8,00,00,00,00,00,00,00,00
306277700,00000107,false,1,8,00,00,00,00,2A,81,C0,00
306279500,0000016A,false,1,8,00,00,00,00,00,00,00,00
306288400,00000112,false,1,8,00,20,06,00,00,00,00,00
306300100,00000450,false,0,3,00,C2,05
306300400,00000462,false,0,8,FE,3F,FF,0F,F0,1F,00,00
306300600,00000471,false,0,6,15,54,11,00,00,68
306299500,00000188,false,1,8,40,50,01,04,00,00,00,00
306308400,00000113,false,1,8,82,00,00,00,00,00,00,00
306320400,00000450,false,0,3,00,C2,05
306320600,00000462,false,0,8,FE,3F,FF,0F,F0,1F,00,00
306320800,00000471,false,0,6,15,54,11,00,00,AC
306317700,00000107,false,1,8,00,00,00,00,2A,81,C0,00
306319200,0000019B,false,1,8,00,80,00,00,00,00,00,00
306319500,00000189,false,1,8,00,00,00,00,00,00,00,00
306327700,00000100,false,1,8,04,06,00,00,00,00,80,00
306327900,00000106,false,1,8,00,00,00,00,00,00,00,00
306328200,00000109,false,1,8,00,00,00,00,00,00,00,00
306328500,00000510,false,1,8,00,00,FF,00,00,00,00,00
306339200,0000059D,false,1,8,64,60,60,00,00,00,00,00
306339500,0000018A,false,1,8,00,00,00,00,00,00,00,00
306340300,00000412,false,0,8,00,00,00,00,00,00,00,00
306340500,00000450,false,0,3,00,C2,05
306340800,0000045D,false,0,8,00,00,00,00,00,00,00,00
306341000,00000462,false,0,8,FE,3F,FF,0F,F0,1F,00,00
306341200,00000471,false,0,6,15,54,11,00,00,B0
306341500,00000479,false,0,8,FF,00,00,00,00,00,00,00
306341800,0000049A,false,0,8,00,00,00,00,00,00,FC,03
306342100,000004A9,false,0,8,00,00,00,10,00,00,00,00
306342400,000004FE,false,0,8,FF,FF,7F,FF,FF,00,FF,FF
306342600,00000520,false,0,8,00,00,00,00,00,00,00,00
306342900,00000559,false,0,8,00,40,00,00,00,00,00,00
306343200,000005B4,false,0,8,00,00,00,00,0C,30,00,00
306347600,00000101,false,1,8,00,00,00,00,00,00,00,10
306347900,00000107,false,1,8,00,00,00,00,2A,81,C0,00
306360300,00000450,false,0,3,00,C2,05
306360600,00000462,false,0,8,FE,3F,FF,0F,F0,1F,00,00
306360800,00000471,false,0,6,15,54,11,00,00,B4
306361100,0000050E,false,0,8,00,00,00,00,00,00,00,00
306361300,00000541,false,0,8,00,01,22,00,C8,08,00,00
306361600,0000055C,false,0,8,66,01,14,FF,01,00,00,00
306361900,0000055F,false,0,8,00,10,00,02,30,00,04,00
306370200,0000045E,false,0,8,00,00,00,00,00,00,00,00
306370500,00000561,false,0,8,05,60,00,07,80,00,0F,00
306370800,00000567,false,0,8,40,09,08,2C,00,00,00,00
306371000,00000578,false,0,6,00,00,00,00,0F,00
306371200,00000588,false,0,8,FC,FF,03,00,00,00,00,00
306371500,000005EC,false,0,8,00,00,00,04,00,00,00,00
306359200,00000416,false,1,8,1E,02,00,00,00,00,FF,FF
306367600,00000102,false,1,8,00,00,A0,00,00,00,00,00
306380100,00000450,false,0,3,00,C2,05
306380400,00000462,false,0,8,FE,3F,FF,0F,F0,1F,00,00
306380600,00000471,false,0,6,15,54,11,00,00,B8
306380800,00000553,false,0,8,04,00,80,00,00,00,80,00
306390400,000005B3,false,0,8,43,D0,FF,00,00,00,00,00
306390600,000005DF,false,0,8,45,1A,02,00,00,00,00,00
306387600,00000103,false,1,8,00,00,00,00,00,00,00,00
306400100,00000450,false,0,3,00,C2,05
306400400,00000462,false,0,8,FE,3F,FF,0F,F0,1F,00,00
306400600,00000471,false,0,6,15,54,11,00,00,FC
306419900,00000450,false,0,3,00,C2,05
306420200,00000462,false,0,8,FE,3F,FF,0F,F0,1F,00,00
306420400,00000471,false,0,6,15,54,11,00,00,40
306407600,00000104,false,1,8,48,4E,C0,02,00,00,00,40
306427500,00000593,false,0,6,01,00,FF,FF,FF,FF
306427500,00000105,false,1,8,00,00,00,00,08,00,00,00
306440400,00000450,false,0,3,00,C2,05
306440700,00000462,false,0,8,FE,3F,FF,0F,F0,1F,00,00
306440900,00000471,false,0,6,15,54,11,00,00,44
306441200,00000479,false,0,8,FF,00,00,00,00,00,00,00
306441500,00000520,false,0,8,00,00,00,00,00,00,00,00
306439300,00000168,false,1,8,88,00,C4,04,C1,B0,40,00
306439600,0000018B,false,1,8,16,FF,F8,00,00,00,00,00
306439900,0000018C,false,1,8,03,00,00,00,00,00,00,00
306440100,0000018D,false,1,8,FF,FF,FF,FF,C0,00,00,18
306440400,0000018E,false,1,8,FF,FF,FF,FF,01,00,00,00
306440700,0000018F,false,1,8,00,00,00,00,00,00,00,00
306440900,000001F7,false,1,8,00,00,00,40,00,00,00,00
306441200,000001FA,false,1,8,FF,C0,00,00,00,00,00,00
306441400,00000588,false,1,8,00,00,00,00,00,00,00,00
306441700,00000589,false,1,8,00,00,00,7F,FF,00,00,00
306447500,00000107,false,1,8,00,00,00,00,2A,41,C0,00
306448300,00000110,false,1,8,00,00,00,00,00,00,00,00
306460100,00000450,false,0,3,00,C2,05
306460300,00000462,false,0,8,FE,3F,FF,0F,F0,1F,00,00
306460500,00000471,false,0,6,15,54,11,00,00,48
306460800,00000541,false,0,8,00,01,22,00,C8,08,00,00
306461100,0000055C,false,0,8,66,01,14,FF,01,00,00,00
306461400,0000055F,false,0,8,00,10,00,02,30,00,04,00
306470200,00000561,false,0,8,05,60,00,07,80,00,0F,00
306470500,00000567,false,0,8,40,09,08,2C,00,00,00,00
306470700,00000578,false,0,6,00,00,00,00,0F,00
306471000,00000588,false,0,8,FC,FF,03,00,00,00,00,00
306471300,000005EC,false,0,8,00,00,00,04,00,00,00,00
306480200,00000450,false,0,3,00,C2,05
306459200,0000041E,false,1,8,00,12,00,00,00,00,FF,FF
306459400,00000169,false,1,8,00,00,00,00,00,00,40,00
306468200,00000111,false,1,8,00,00,00,00,00,00,00,00
306477500,00000107,false,1,8,00,00,00,00,2A,81,C0,00
306479300,0000016A,false,1,8,00,00,00,00,00,00,00,00
306480400,00000462,false,0,8,FE,3F,FF,0F,F0,1F,00,00
306480700,00000471,false,0,6,15,54,11,00,00,8C
306499900,00000450,false,0,3,00,C2,05
306500100,00000462,false,0,8,FE,3F,FF,0F,F0,1F,00,00
306500400,00000471,false,0,6,15,54,11,00,00,50
306488200,00000112,false,1,8,00,20,06,00,00,00,00,00
306499200,00000188,false,1,8,40,50,01,04,00,00,00,00
306508200,00000113,false,1,8,82,00,00,00,00,00,00,00
306520100,00000450,false,0,3,00,C2,05
306520400,00000462,false,0,8,FE,3F,FF,0F,F0,1F,00,00
306520600,00000471,false,0,6,15,54,11,00,00,54
306517400,00000107,false,1,8,00,00,00,00,2A,81,C0,00
306519200,0000019B,false,1,8,00,80,00,00,00,00,00,00
306519500,00000189,false,1,8,00,00,00,00,00,00,00,00
306527400,00000100,false,1,8,04,06,00,00,00,00,80,00
306527700,00000106,false,1,8,00,00,00,00,00,00,00,00
306528000,00000109,false,1,8,00,00,00,00,00,00,00,00
306528200,00000510,false,1,8,00,00,FF,00,00,00,00,00
306539200,0000018A,false,1,8,00,00,00,00,00,00,00,00
306539400,0000059D,false,1,8,64,60,60,00,00,00,00,00
306540100,00000412,false,0,8,00,00,00,00,00,00,00,00
306540300,00000450,false,0,3,00,C2,05
306540500,0000045D,false,0,8,00,00,00,00,00,00,00,00
306540800,00000462,false,0,8,FE,3F,FF,0F,F0,1F,00,00
306541000,00000471,false,0,6,15,54,11,00,00,58
306541200,00000479,false,0,8,FF,00,00,00,00,00,00,00
306541500,0000049A,false,0,8,00,00,00,00,00,00,FC,03
306541800,000004A9,false,0,8,00,00,00,10,00,00,00,00
306542000,000004FE,false,0,8,FF,FF,7F,FF,FF,00,FF,FF
306542300,00000520,false,0,8,00,00,00,00,00,00,00,00
306542600,00000559,false,0,8,00,40,00,00,00,00,00,00
306542900,000005B4,false,0,8,00,00,00,00,0C,30,00,00
306560000,00000450,false,0,3,00,C2,05
306560300,00000462,false,0,8,FE,3F,FF,0F,F0,1F,00,00
306560500,00000471,false,0,6,15,54,11,00,00,9C
306560800,0000050E,false,0,8,00,00,00,00,00,00,00,00
306561000,00000541,false,0,8,00,01,22,00,C8,08,00,00
306561300,0000055C,false,0,8,66,01,14,FF,01,00,00,00
306561600,0000055F,false,0,8,00,10,00,02,30,00,04,00
306547400,00000101,false,1,8,00,00,00,00,00,00,00,10
306557100,00000400,false,1,8,01,02,00,00,00,00,FF,FF
306557400,00000107,false,1,8,00,00,00,00,2A,81,C0,00
306567300,00000102,false,1,8,00,00,A0,00,00,00,00,00
306570000,0000045E,false,0,8,00,00,00,00,00,00,00,00
306570200,00000561,false,0,8,05,60,00,07,80,00,0F,00
306570500,00000567,false,0,8,40,09,08,2C,00,00,00,00
306570700,00000578,false,0,6,00,00,00,00,0F,00
306571000,00000588,false,0,8,FC,FF,03,00,00,00,00,00
306571300,000005EC,false,0,8,00,00,00,04,00,00,00,00
306579900,00000450,false,0,3,00,C2,05
306580100,00000462,false,0,8,FE,3F,FF,0F,F0,1F,00,00
306580300,00000471,false,0,6,15,54,11,00,00,60
306580600,00000553,false,0,8,04,00,80,00,00,00,80,00
306590100,000005B3,false,0,8,43,D0,FF,00,00,00,00,00
306590400,000005DF,false,0,8,45,1A,02,00,00,00,00,00
306587300,00000103,false,1,8,00,00,00,00,00,00,00,00
306599900,00000450,false,0,3,00,C2,05
306600200,00000462,false,0,8,FE,3F,FF,0F,F0,1F,00,00
306600400,00000471,false,0,6,15,54,11,00,00,64
306607300,00000104,false,1,8,48,4E,C0,02,00,00,00,40
306619700,00000450,false,0,3,00,C2,05
306620000,00000462,false,0,8,FE,3F,FF,0F,F0,1F,00,00
306620200,00000471,false,0,6,15,54,11,00,00,68
306627300,00000593,false,0,6,01,00,FF,FF,FF,FF
306640100,00000450,false,0,3,00,C2,05
306640400,00000462,false,0,8,FE,3F,FF,0F,F0,1F,00,00
306640600,00000471,false,0,6,15,54,11,00,00,AC
306640900,00000479,false,0,8,FF,00,00,00,00,00,00,00
306641200,00000520,false,0,8,00,00,00,00,00,00,00,00
306627300,00000105,false,1,8,00,00,00,00,08,00,00,00
306639100,00000168,false,1,8,88,00,C4,04,C1,B0,40,00
306639300,0000018B,false,1,8,16,FF,F8,00,00,00,00,00
306639600,0000018C,false,1,8,03,00,00,00,00,00,00,00
306639900,0000018D,false,1,8,FF,FF,FF,FF,C0,00,00,18
306640100,0000018E,false,1,8,FF,FF,FF,FF,01,00,00,00
306640400,0000018F,false,1,8,00,00,00,00,00,00,00,00
306640700,000001F7,false,1,8,00,00,00,40,00,00,00,00
306640900,000001FA,false,1,8,FF,C0,00,00,00,00,00,00
306641200,00000588,false,1,8,00,00,00,00,00,00,00,00
306641500,00000589,false,1,8,00,00,00,7F,FF,00,00,00
306647900,00000401,false,1,8,16,02,00,00,00,00,FF,FF
306648200,00000110,false,1,8,00,00,00,00,00,00,00,00
306659700,00000450,false,0,3,00,C2,05
306659900,00000462,false,0,8,FE,3F,FF,0F,F0,1F,00,00
306660200,00000471,false,0,6,15,54,11,00,00,B0
306660500,00000541,false,0,8,00,01,22,00,C8,08,00,00
306660700,0000055C,false,0,8,66,01,14,FF,01,00,00,00
306661000,0000055F,false,0,8,00,10,00,02,30,00,04,00
306670000,00000561,false,0,8,05,60,00,07,80,00,0F,00
306670300,00000567,false,0,8,40,09,08,2C,00,00,00,00
306670500,00000578,false,0,6,00,00,00,00,0F,00
306670800,00000588,false,0,8,FC,FF,03,00,00,00,00,00
306671000,000005EC,false,0,8,00,00,00,04,00,00,00,00
306657200,00000107,false,1,8,00,00,00,00,2A,41,C0,00
306659000,00000169,false,1,8,00,00,00,00,00,00,40,00
306668000,00000111,false,1,8,00,00,00,00,00,00,00,00
306679000,0000016A,false,1,8,00,00,00,00,00,00,00,00
306679900,00000450,false,0,3,00,C2,05
306680200,00000462,false,0,8,FE,3F,FF,0F,F0,1F,00,00
306680400,00000471,false,0,6,15,54,11,00,00,B4
306699600,00000450,false,0,3,00,C2,05
306699900,00000462,false,0,8,FE,3F,FF,0F,F0,1F,00,00
306700100,00000471,false,0,6,15,54,11,00,00,B8
306688000,00000112,false,1,8,00,20,06,00,00,00,00,00
306697200,00000107,false,1,8,00,00,00,00,2A,41,C0,00
306699000,00000188,false,1,8,40,50,01,04,00,00,00,00
306708000,00000113,false,1,8,82,00,00,00,00,00,00,00
306719900,00000450,false,0,3,00,C2,05
306720100,00000462,false,0,8,FE,3F,FF,0F,F0,1F,00,00
306720400,00000471,false,0,6,15,54,11,00,00,FC
306719000,00000189,false,1,8,00,00,00,00,00,00,00,00
306719200,0000019B,false,1,8,00,80,00,00,00,00,00,00
306727100,00000100,false,1,8,04,06,00,00,00,00,80,00
306727400,00000106,false,1,8,00,00,00,00,00,00,00,00
306727700,00000107,false,1,8,00,00,00,00,2A,C1,C0,00
306728000,00000109,false,1,8,00,00,00,00,00,00,00,00
306728200,00000510,false,1,8,00,00,FF,00,00,00,00,00
306739900,00000412,false,0,8,00,00,00,00,00,00,00,00
306740000,00000450,false,0,3,00,C2,05
306740300,0000045D,false,0,8,00,00,00,00,00,00,00,00
306740500,00000462,false,0,8,FE,3F,FF,0F,F0,1F,00,00
306740800,00000471,false,0,6,15,54,11,00,00,40
306741000,00000479,false,0,8,FF,00,00,00,00,00,00,00
306741300,0000049A,false,0,8,00,00,00,00,00,00,FC,03
306741600,000004A9,false,0,8,00,00,00,10,00,00,00,00
306741900,000004FE,false,0,8,FF,FF,7F,FF,FF,00,FF,FF
306742100,00000520,false,0,8,00,00,00,00,00,00,00,00
306742400,00000559,false,0,8,00,40,00,00,00,00,00,00
306742700,000005B4,false,0,8,00,00,00,00,0C,30,00,00
306738700,00000416,false,1,8,1E,02,00,00,00,00,FF,FF
306739000,0000018A,false,1,8,00,00,00,00,00,00,00,00
306739200,0000059D,false,1,8,64,60,60,00,00,00,00,00
306747100,00000101,false,1,8,00,00,00,00,00,00,00,10
306759700,00000450,false,0,3,00,C2,05
306760000,00000462,false,0,8,FE,3F,FF,0F,F0,1F,00,00
306760200,00000471,false,0,6,15,54,11,00,00,44
306760500,0000050E,false,0,8,00,00,00,00,00,00,00,00
306760700,00000541,false,0,8,00,01,22,00,C8,08,00,00
306761000,0000055C,false,0,8,66,01,14,FF,01,00,00,00
306761300,0000055F,false,0,8,00,10,00,02,30,00,04,00
306767100,00000102,false,1,8,00,00,A0,00,00,00,00,00
306767400,00000107,false,1,8,00,00,00,00,2A,C1,C0,00
306769700,0000045E,false,0,8,00,00,00,00,00,00,00,00
306770000,00000561,false,0,8,05,60,00,07,80,00,0F,00
306770300,00000567,false,0,8,40,09,08,2C,00,00,00,00
306770500,00000578,false,0,6,00,00,00,00,0F,00
306770800,00000588,false,0,8,FC,FF,03,00,00,00,00,00
306771000,000005EC,false,0,8,00,00,00,04,00,00,00,00
306779600,00000450,false,0,3,00,C2,05
306779900,00000462,false,0,8,FE,3F,FF,0F,F0,1F,00,00
306780100,00000471,false,0,6,15,54,11,00,00,48
306780400,00000553,false,0,8,04,00,80,00,00,00,80,00
306789900,000005B3,false,0,8,43,D0,FF,00,00,00,00,00
306790200,000005DF,false,0,8,45,1A,02,00,00,00,00,00
306787100,00000103,false,1,8,00,00,00,00,00,00,00,00
306799700,00000450,false,0,3,00,C2,05
306799900,00000462,false,0,8,FE,3F,FF,0F,F0,1F,00,00
306800100,00000471,false,0,6,15,54,11,00,00,8C
306797100,00000107,false,1,8,00,00,00,00,2A,81,C0,00
306807100,00000104,false,1,8,48,4E,C0,02,00,00,00,40
306819500,00000450,false,0,3,00,C2,05
306819700,00000462,false,0,8,FE,3F,FF,0F,F0,1F,00,00
306819900,00000471,false,0,6,15,54,11,00,00,50
