Time Stamp,ID,Extended,Bus,LEN,D1,D2,D3,D4,D5,D6,D7,D8
7254438300,000007DF,false,1,8,02,01,00,00,00,00,00,00
7254444400,000007EB,false,1,8,06,41,00,80,00,00,01,00
7254446200,000007EC,false,1,8,06,41,00,80,00,00,01,AA
7254596500,000007DF,false,1,8,02,01,00,00,00,00,00,00
7254604200,000007EB,false,1,8,06,41,00,80,00,00,01,00
7254606000,000007EC,false,1,8,06,41,00,80,00,00,01,AA
7255179800,000007DF,false,1,8,02,01,00,00,00,00,00,00
7255183500,000007EB,false,1,8,06,41,00,80,00,00,01,00
7255190300,000007EC,false,1,8,06,41,00,80,00,00,01,AA
7255267200,000007DF,false,1,8,02,01,20,00,00,00,00,00
7255273400,000007EB,false,1,8,06,41,20,80,01,80,00,00
7255275600,000007EC,false,1,8,06,41,20,80,01,80,01,AA
7255343400,000007DF,false,1,8,02,01,40,00,00,00,00,00
7255357400,000007EC,false,1,8,06,41,40,00,00,00,20,AA
7256841500,000007DF,false,1,8,02,01,00,00,00,00,00,00
7256860200,000007EB,false,1,8,06,41,00,80,00,00,01,00
7256860700,000007EC,false,1,8,06,41,00,80,00,00,01,AA
7257095000,000007DF,false,1,8,02,01,00,00,00,00,00,00
7257101100,000007EB,false,1,8,06,41,00,80,00,00,01,00
7257103000,000007EC,false,1,8,06,41,00,80,00,00,01,AA
7257223500,000007DF,false,1,8,02,09,02,00,00,00,00,00
7257232800,000007EC,false,1,8,10,14,49,02,01,4F,53,45
7257233100,000007E4,false,1,8,30,00,00,00,00,00,00,00
7257242800,000007EC,false,1,8,21,56,5F,5F,20,42,4D,53
7257255000,000007EC,false,1,8,22,20,00,00,00,00,00,00
7257329700,000007DF,false,1,8,02,09,04,00,00,00,00,00
7257330800,000007EB,false,1,8,04,49,04,01,00,00,00,00
7257332400,000007ED,false,1,8,10,13,49,04,01,45,4F,53
7257332700,000007E5,false,1,8,30,00,00,00,00,00,00,00
7257337700,000007EC,false,1,8,10,13,49,04,01,4F,53,45
7257338000,000007E4,false,1,8,30,00,00,00,00,00,00,00
7257339800,000007EA,false,1,8,04,49,04,01,00,00,00,00
7257342300,000007ED,false,1,8,21,45,4B,35,4C,2D,4F,53
7257354900,000007EC,false,1,8,21,56,42,36,38,32,32,52
7257355300,000007ED,false,1,8,22,32,2D,44,30,30,30,00
7257365900,000007EC,false,1,8,22,00,00,00,00,00,00,AA
7257421900,000007DF,false,1,8,02,09,0A,00,00,00,00,00
7257430700,000007EB,false,1,8,04,49,0A,01,00,00,00,00
7257432200,000007ED,false,1,8,10,17,49,0A,01,42,43,43
7257432500,000007E5,false,1,8,30,00,00,00,00,00,00,00
7257432800,000007EC,false,1,8,10,17,49,0A,01,42,45,43
7257433000,000007E4,false,1,8,30,00,00,00,00,00,00,00
7257442100,000007ED,false,1,8,21,4D,2D,42,2B,43,68,61
7257442500,000007EC,false,1,8,21,4D,2D,42,2B,45,6E,65
7257454700,000007EC,false,1,8,22,72,67,79,43,74,72,6C
7257455200,000007ED,false,1,8,22,72,67,65,72,43,74,72
7257463000,000007EC,false,1,8,23,00,00,00,AA,AA,AA,AA
7257464500,000007ED,false,1,8,23,6C,00,00,00,00,00,00
7257509700,000007DF,false,1,8,02,09,08,00,00,00,00,00
7257975100,000007DF,false,1,8,02,09,0B,00,00,00,00,00
7258418200,000007DF,false,1,8,02,01,00,00,00,00,00,00
7258419500,000007EB,false,1,8,06,41,00,80,00,00,01,00
7258426300,000007EC,false,1,8,06,41,00,80,00,00,01,AA
7258634300,000007DF,false,1,8,02,01,00,00,00,00,00,00
7258639200,000007EB,false,1,8,06,41,00,80,00,00,01,00
7258641100,000007EC,false,1,8,06,41,00,80,00,00,01,AA
7258866500,000007DF,false,1,8,02,01,00,00,00,00,00,00
7258869000,000007EB,false,1,8,06,41,00,80,00,00,01,00
7258875800,000007EC,false,1,8,06,41,00,80,00,00,01,AA
7259126200,000007DF,false,1,8,02,01,00,00,00,00,00,00
7259128700,000007EB,false,1,8,06,41,00,80,00,00,01,00
7259135500,000007EC,false,1,8,06,41,00,80,00,00,01,AA
7259357200,000007DF,false,1,8,02,01,00,00,00,00,00,00
7259368400,000007EB,false,1,8,06,41,00,80,00,00,01,00
7259370500,000007EC,false,1,8,06,41,00,80,00,00,01,AA
7259578100,000007DF,false,1,8,02,01,00,00,00,00,00,00
7259584900,000007EC,false,1,8,06,41,00,80,00,00,01,AA
7259588100,000007EB,false,1,8,06,41,00,80,00,00,01,00
7259799000,000007DF,false,1,8,02,01,00,00,00,00,00,00
7259807800,000007EB,false,1,8,06,41,00,80,00,00,01,00
7259812400,000007EC,false,1,8,06,41,00,80,00,00,01,AA
7260020100,000007DF,false,1,8,02,01,00,00,00,00,00,00
7260027500,000007EB,false,1,8,06,41,00,80,00,00,01,00
7260029400,000007EC,false,1,8,06,41,00,80,00,00,01,AA
7260279800,000007DF,false,1,8,02,01,00,00,00,00,00,00
7260287200,000007EB,false,1,8,06,41,00,80,00,00,01,00
7260292200,000007EC,false,1,8,06,41,00,80,00,00,01,AA
7260463300,000007DF,false,1,8,02,01,00,00,00,00,00,00
7260467000,000007EB,false,1,8,06,41,00,80,00,00,01,00
7260473800,000007EC,false,1,8,06,41,00,80,00,00,01,AA
7260696800,000007DF,false,1,8,02,01,00,00,00,00,00,00
7260703600,000007EC,false,1,8,06,41,00,80,00,00,01,AA
7260706700,000007EB,false,1,8,06,41,00,80,00,00,01,00
7260917600,000007DF,false,1,8,02,01,00,00,00,00,00,00
7260926400,000007EB,false,1,8,06,41,00,80,00,00,01,00
7260928300,000007EC,false,1,8,06,41,00,80,00,00,01,AA
7261188700,000007DF,false,1,8,02,01,00,00,00,00,00,00
7261196100,000007EB,false,1,8,06,41,00,80,00,00,01,00
7261197900,000007EC,false,1,8,06,41,00,80,00,00,01,AA
7261357200,000007DF,false,1,8,02,01,00,00,00,00,00,00
7261365800,000007EB,false,1,8,06,41,00,80,00,00,01,00
7261368100,000007EC,false,1,8,06,41,00,80,00,00,01,AA
7261595700,000007DF,false,1,8,02,01,00,00,00,00,00,00
7261602400,000007EC,false,1,8,06,41,00,80,00,00,01,AA
7261605600,000007EB,false,1,8,06,41,00,80,00,00,01,00
7261822900,000007DF,false,1,8,02,01,00,00,00,00,00,00
7261825300,000007EB,false,1,8,06,41,00,80,00,00,01,00
7261832200,000007EC,false,1,8,06,41,00,80,00,00,01,AA
7262055100,000007DF,false,1,8,02,01,00,00,00,00,00,00
7262065000,000007EB,false,1,8,06,41,00,80,00,00,01,00
7262067200,000007EC,false,1,8,06,41,00,80,00,00,01,AA
7262268600,000007DF,false,1,8,02,01,00,00,00,00,00,00
7262274700,000007EB,false,1,8,06,41,00,80,00,00,01,00
7262276600,000007EC,false,1,8,06,41,00,80,00,00,01,AA
7262497000,000007DF,false,1,8,02,01,00,00,00,00,00,00
7262504400,000007EB,false,1,8,06,41,00,80,00,00,01,00
7262509000,000007EC,false,1,8,06,41,00,80,00,00,01,AA
7262729500,000007DF,false,1,8,02,01,00,00,00,00,00,00
7262734200,000007EB,false,1,8,06,41,00,80,00,00,01,00
7262736100,000007EC,false,1,8,06,41,00,80,00,00,01,AA
7262945200,000007DF,false,1,8,02,01,00,00,00,00,00,00
7262959000,000007EB,false,1,8,06,41,00,80,00,00,01,00
7262959500,000007EC,false,1,8,06,41,00,80,00,00,01,AA
7263166400,000007DF,false,1,8,02,01,00,00,00,00,00,00
7263173600,000007EB,false,1,8,06,41,00,80,00,00,01,00
7263175500,000007EC,false,1,8,06,41,00,80,00,00,01,AA
7263425900,000007DF,false,1,8,02,01,00,00,00,00,00,00
7263433300,000007EB,false,1,8,06,41,00,80,00,00,01,00
7263435200,000007EC,false,1,8,06,41,00,80,00,00,01,AA
7263656900,000007DF,false,1,8,02,01,00,00,00,00,00,00
7263663000,000007EB,false,1,8,06,41,00,80,00,00,01,00
7263665200,000007EC,false,1,8,06,41,00,80,00,00,01,AA
7263889000,000007DF,false,1,8,02,01,00,00,00,00,00,00
7263892700,000007EB,false,1,8,06,41,00,80,00,00,01,00
7263899600,000007EC,false,1,8,06,41,00,80,00,00,01,AA
7264123900,000007DF,false,1,8,02,01,00,00,00,00,00,00
7264132500,000007EB,false,1,8,06,41,00,80,00,00,01,00
7264134400,000007EC,false,1,8,06,41,00,80,00,00,01,AA
7264381000,000007DF,false,1,8,02,01,00,00,00,00,00,00
7264382100,000007EB,false,1,8,06,41,00,80,00,00,01,00
7264389000,000007EC,false,1,8,06,41,00,80,00,00,01,AA
7264594700,000007DF,false,1,8,02,01,00,00,00,00,00,00
7264601900,000007EB,false,1,8,06,41,00,80,00,00,01,00
7264606200,000007EC,false,1,8,06,41,00,80,00,00,01,AA
7264826700,000007DF,false,1,8,02,01,00,00,00,00,00,00
7264831600,000007EB,false,1,8,06,41,00,80,00,00,01,00
7264833500,000007EC,false,1,8,06,41,00,80,00,00,01,AA
7277085500,000007DF,false,1,8,02,01,00,00,00,00,00,00
7277086400,000007EB,false,1,8,06,41,00,80,00,00,01,00
7277093500,000007EC,false,1,8,06,41,00,80,00,00,01,AA
7277243800,000007DF,false,1,8,02,01,00,00,00,00,00,00
7277246200,000007EB,false,1,8,06,41,00,80,00,00,01,00
7277253300,000007EC,false,1,8,06,41,00,80,00,00,01,AA
7277787300,000007DF,false,1,8,02,01,00,00,00,00,00,00
7277795600,000007EB,false,1,8,06,41,00,80,00,00,01,00
7277797700,000007EC,false,1,8,06,41,00,80,00,00,01,AA
7277874700,000007DF,false,1,8,02,01,00,00,00,00,00,00
7277882600,000007EC,false,1,8,06,41,00,80,00,00,01,AA
7277885400,000007EB,false,1,8,06,41,00,80,00,00,01,00
7277949500,000007DF,false,1,8,02,01,00,00,00,00,00,00
7277955400,000007EB,false,1,8,06,41,00,80,00,00,01,00
7277957500,000007EC,false,1,8,06,41,00,80,00,00,01,AA
7278204200,000007DF,false,1,8,01,03,00,00,00,00,00,00
7278205100,000007EB,false,1,8,02,43,00,00,00,00,00,00
7278206800,000007ED,false,1,8,02,43,00,00,00,00,00,00
7278212100,000007EC,false,1,8,02,43,00,AA,AA,AA,AA,AA
7278214100,000007EA,false,1,8,02,43,00,00,00,00,00,00
7278270300,000007DF,false,1,8,01,03,00,00,00,00,00,00
7278273700,000007EA,false,1,8,02,43,00,00,00,00,00,00
7278275100,000007EB,false,1,8,02,43,00,00,00,00,00,00
7278276800,000007ED,false,1,8,02,43,00,00,00,00,00,00
7278277100,000007EC,false,1,8,02,43,00,AA,AA,AA,AA,AA
7278334000,000007DF,false,1,8,01,07,00,00,00,00,00,00
7278343700,000007EA,false,1,8,02,47,00,00,00,00,00,00
7278345000,000007EB,false,1,8,02,47,00,00,00,00,00,00
7278347100,000007EC,false,1,8,02,47,00,AA,AA,AA,AA,AA
7278347400,000007ED,false,1,8,02,47,00,00,00,00,00,00
7278431400,000007DF,false,1,8,01,07,00,00,00,00,00,00
7278443500,000007EA,false,1,8,02,47,00,00,00,00,00,00
7278444900,000007EB,false,1,8,02,47,00,00,00,00,00,00
7278447000,000007EC,false,1,8,02,47,00,AA,AA,AA,AA,AA
7278447300,000007ED,false,1,8,02,47,00,00,00,00,00,00
7278510000,000007DF,false,1,8,01,0A,00,00,00,00,00,00
7278513400,000007EA,false,1,8,02,4A,00,00,00,00,00,00
7278514800,000007EB,false,1,8,02,4A,00,00,00,00,00,00
7278516500,000007ED,false,1,8,02,4A,00,00,00,00,00,00
7278578800,000007DF,false,1,8,03,19,02,08,00,00,00,00
7278583400,000007EA,false,1,8,03,7F,19,12,00,00,00,00
7278583700,000007BF,false,1,8,07,59,02,FF,58,12,87,28
7278584600,000007EB,false,1,8,03,7F,19,11,00,00,00,00
7278586600,000007DC,false,1,8,07,59,02,89,58,12,87,08
7278588700,0000079E,false,1,8,03,59,02,08,AA,AA,AA,AA
7278589000,000007EC,false,1,8,03,59,02,FF,AA,AA,AA,AA
7278589300,000007CC,false,1,8,10,13,59,02,89,58,12,87
7278589600,000007ED,false,1,8,03,7F,19,11,00,00,00,00
7278589900,00000788,false,1,8,03,59,02,09,AA,AA,AA,AA
7278590200,0000072D,false,1,8,07,59,02,09,96,03,00,08
7278591100,0000073B,false,1,8,03,59,02,09,AA,AA,AA,AA
7278593300,000007BB,false,1,8,07,59,02,09,92,38,13,09
7278596100,000007AD,false,1,8,03,7F,19,78,AA,AA,AA,AA
7278598500,000007CE,false,1,8,07,59,02,09,90,01,52,09
7278599900,000007A8,false,1,8,03,7F,19,78,AA,AA,AA,AA
7278601100,0000078B,false,1,8,03,7F,19,22,AA,AA,AA,AA
7278605800,00000778,false,1,8,10,17,59,02,09,96,03,00
7278663700,000007DF,false,1,8,03,19,02,AC,00,00,00,00
7278668700,0000079E,false,1,8,03,59,02,08,AA,AA,AA,AA
7278672100,000007DC,false,1,8,03,7F,19,31,AA,AA,AA,AA
7278673400,000007EA,false,1,8,03,7F,19,12,00,00,00,00
7278673700,000007BF,false,1,8,07,59,02,FF,58,12,87,28
7278674500,000007EB,false,1,8,03,7F,19,11,00,00,00,00
7278676200,000007ED,false,1,8,03,7F,19,11,00,00,00,00
7278676600,000007EC,false,1,8,03,59,02,FF,AA,AA,AA,AA
7278678400,000007CE,false,1,8,07,59,02,09,90,01,52,09
7278681000,0000073B,false,1,8,03,59,02,09,AA,AA,AA,AA
7278681600,000007BB,false,1,8,07,59,02,09,92,38,13,09
7278733600,000007DF,false,1,8,03,19,02,AF,00,00,00,00
7278736900,0000079E,false,1,8,03,59,02,08,AA,AA,AA,AA
7278741700,000007DC,false,1,8,03,7F,19,31,AA,AA,AA,AA
7278743400,000007BF,false,1,8,07,59,02,FF,58,12,87,28
7278743600,000007EA,false,1,8,03,7F,19,12,00,00,00,00
7278744400,000007EB,false,1,8,03,7F,19,11,00,00,00,00
7278746600,000007EC,false,1,8,03,59,02,FF,AA,AA,AA,AA
7278746900,000007ED,false,1,8,03,7F,19,11,00,00,00,00
7278748400,000007CE,false,1,8,07,59,02,09,90,01,52,09
7278750900,0000073B,false,1,8,03,59,02,09,AA,AA,AA,AA
7278753300,000007BB,false,1,8,07,59,02,09,92,38,13,09
7278813500,000007DF,false,1,8,04,18,00,FF,00,00,00,00
7278816100,000007ED,false,1,8,02,58,00,00,00,00,00,00
7278821600,000007DC,false,1,8,03,7F,18,21,AA,AA,AA,AA
7278830100,000007EA,false,1,8,02,58,00,00,00,00,00,00
7278830700,000007EB,false,1,8,02,58,00,00,00,00,00,00
7278833100,000007BB,false,1,8,03,7F,18,11,00,00,00,00
7278894700,000007DF,false,1,8,04,18,00,FF,00,00,00,00
7278896100,000007ED,false,1,8,02,58,00,00,00,00,00,00
7278901600,000007DC,false,1,8,03,7F,18,21,AA,AA,AA,AA
7278903200,000007EA,false,1,8,02,58,00,00,00,00,00,00
7278904300,000007EB,false,1,8,02,58,00,00,00,00,00,00
7278911300,000007BB,false,1,8,03,7F,18,11,00,00,00,00
7278969600,000007DF,false,1,8,04,18,02,FF,00,00,00,00
7278973000,000007EA,false,1,8,03,7F,18,12,00,00,00,00
7278974100,000007EB,false,1,8,03,7F,18,12,00,00,00,00
7278975900,000007ED,false,1,8,03,7F,18,12,00,00,00,00
7278976200,000007DC,false,1,8,03,7F,18,21,AA,AA,AA,AA
7278981100,000007BB,false,1,8,03,7F,18,11,00,00,00,00
7279135500,000007DF,false,1,8,02,01,00,00,00,00,00,00
7279143900,000007EB,false,1,8,06,41,00,80,00,00,01,00
7279146100,000007EC,false,1,8,06,41,00,80,00,00,01,AA
7279265200,000007AD,false,1,8,07,59,02,08,96,03,00,08
7279357800,000007E0,false,1,8,02,10,03,00,00,00,00,00
7279797400,000007E0,false,1,8,02,10,90,00,00,00,00,00
7280244000,000007E0,false,1,8,01,20,00,00,00,00,00,00
7280677400,000007E0,false,1,8,02,10,03,00,00,00,00,00
7281096600,000007A8,false,1,8,03,7F,19,78,AA,AA,AA,AA
7281118100,000007E0,false,1,8,02,10,90,00,00,00,00,00
7281562600,000007E0,false,1,8,01,20,00,00,00,00,00,00
7282011900,000007E0,false,1,8,01,20,00,00,00,00,00,00
7282499200,000007DF,false,1,8,02,01,00,00,00,00,00,00
7282507000,000007EC,false,1,8,06,41,00,80,00,00,01,AA
7282509800,000007EB,false,1,8,06,41,00,80,00,00,01,00
7282668700,000007E7,false,1,8,02,10,03,00,00,00,00,00
7283110600,000007E7,false,1,8,02,10,90,00,00,00,00,00
7283560000,000007E7,false,1,8,01,20,00,00,00,00,00,00
7283593400,000007A8,false,1,8,03,7F,19,78,AA,AA,AA,AA
7286090200,000007A8,false,1,8,03,7F,19,78,AA,AA,AA,AA
7309008900,000007DF,false,1,8,02,01,00,00,00,00,00,00
7309017100,000007EB,false,1,8,06,41,00,80,00,00,01,00
7309019700,000007EC,false,1,8,06,41,00,80,00,00,01,AA
7309170200,000007DF,false,1,8,02,01,00,00,00,00,00,00
7309176800,000007EB,false,1,8,06,41,00,80,00,00,01,00
7309179300,000007EC,false,1,8,06,41,00,80,00,00,01,AA
7309695600,000007DF,false,1,8,02,01,00,00,00,00,00,00
7309706200,000007EB,false,1,8,06,41,00,80,00,00,01,00
7309708600,000007EC,false,1,8,06,41,00,80,00,00,01,AA
7323122300,000007DF,false,1,8,02,01,00,00,00,00,00,00
7323129600,000007EB,false,1,8,06,41,00,80,00,00,01,00
7323132200,000007EC,false,1,8,06,41,00,80,00,00,01,AA
7323282600,000007DF,false,1,8,02,01,00,00,00,00,00,00
7323289400,000007EB,false,1,8,06,41,00,80,00,00,01,00
7323292000,000007EC,false,1,8,06,41,00,80,00,00,01,AA
7323797500,000007DF,false,1,8,02,01,00,00,00,00,00,00
7323807700,000007EC,false,1,8,06,41,00,80,00,00,01,AA
7323808800,000007EB,false,1,8,06,41,00,80,00,00,01,00
7324027300,000007E7,false,1,8,02,10,03,00,00,00,00,00
7324473000,000007E7,false,1,8,02,10,90,00,00,00,00,00
7324911100,000007E7,false,1,8,01,20,00,00,00,00,00,00
7325336900,000007E7,false,1,8,02,10,90,00,00,00,00,00
7325785100,000007E7,false,1,8,02,10,90,00,00,00,00,00
7326210800,000007E7,false,1,8,01,20,00,00,00,00,00,00
7326649000,000007E7,false,1,8,01,20,00,00,00,00,00,00
7327144900,000007DF,false,1,8,02,01,00,00,00,00,00,00
7327152200,000007EC,false,1,8,06,41,00,80,00,00,01,AA
7327154600,000007EB,false,1,8,06,41,00,80,00,00,01,00
7327314500,000007E1,false,1,8,02,10,03,00,00,00,00,00
7327756400,000007E1,false,1,8,02,10,90,00,00,00,00,00
7328187300,000007E1,false,1,8,01,20,00,00,00,00,00,00
7328631600,000007E1,false,1,8,02,10,03,00,00,00,00,00
7329071000,000007E1,false,1,8,02,10,90,00,00,00,00,00
7329509200,000007E1,false,1,8,01,20,00,00,00,00,00,00
7356236800,000007DF,false,1,8,02,01,00,00,00,00,00,00
7356248700,000007EB,false,1,8,06,41,00,80,00,00,01,00
7356253900,000007EC,false,1,8,06,41,00,80,00,00,01,AA
7356404600,000007DF,false,1,8,02,01,00,00,00,00,00,00
7356408500,000007EB,false,1,8,06,41,00,80,00,00,01,00
7356411400,000007EC,false,1,8,06,41,00,80,00,00,01,AA
7356891000,000007DF,false,1,8,02,01,00,00,00,00,00,00
7356897900,000007EB,false,1,8,06,41,00,80,00,00,01,00
7356900800,000007EC,false,1,8,06,41,00,80,00,00,01,AA
7357094800,000007E2,false,1,8,02,10,03,00,00,00,00,00
7357097200,000007EA,false,1,8,03,7F,10,12,00,00,00,00
7357108200,000007E2,false,1,8,02,10,90,00,00,00,00,00
7357117200,000007EA,false,1,8,02,50,90,00,00,00,00,00
7357131900,000007E2,false,1,8,01,20,00,00,00,00,00,00
7357147100,000007EA,false,1,8,01,60,00,00,00,00,00,00
7357220600,000007E2,false,1,8,02,10,03,00,00,00,00,00
7357230500,000007EA,false,1,8,03,7F,10,12,00,00,00,00
7357286600,000007E2,false,1,8,03,19,02,08,00,00,00,00
7357297000,000007EA,false,1,8,03,7F,19,12,00,00,00,00
7357346800,000007E2,false,1,8,03,19,02,AC,00,00,00,00
7357356900,000007EA,false,1,8,03,7F,19,12,00,00,00,00
7369061700,000007DF,false,1,8,02,01,00,00,00,00,00,00
7369062900,000007EB,false,1,8,06,41,00,80,00,00,01,00
7369071000,000007EC,false,1,8,06,41,00,80,00,00,01,AA
7369221500,000007DF,false,1,8,02,01,00,00,00,00,00,00
7369232700,000007EB,false,1,8,06,41,00,80,00,00,01,00
7369235800,000007EC,false,1,8,06,41,00,80,00,00,01,AA
7369742100,000007DF,false,1,8,02,01,00,00,00,00,00,00
7369750100,000007EC,false,1,8,06,41,00,80,00,00,01,AA
7369752000,000007EB,false,1,8,06,41,00,80,00,00,01,00
7369960600,000007E2,false,1,8,02,10,03,00,00,00,00,00
7369971500,000007EA,false,1,8,03,7F,10,12,00,00,00,00
7369983100,000007E2,false,1,8,02,10,90,00,00,00,00,00
7369991500,000007EA,false,1,8,02,50,90,00,00,00,00,00
7370010500,000007E2,false,1,8,01,20,00,00,00,00,00,00
7370021600,000007EA,false,1,8,01,60,00,00,00,00,00,00
7370079200,000007E2,false,1,8,03,19,02,AF,00,00,00,00
7370081600,000007EA,false,1,8,03,7F,19,12,00,00,00,00
7370134100,000007E2,false,1,8,03,19,02,AF,00,00,00,00
7370141200,000007EA,false,1,8,03,7F,19,12,00,00,00,00
7370205300,000007E2,false,1,8,04,18,00,FF,00,00,00,00
7370214700,000007EA,false,1,8,02,58,00,00,00,00,00,00
7370274000,000007E2,false,1,8,04,18,02,FF,00,00,00,00
7370281300,000007EA,false,1,8,03,7F,18,12,00,00,00,00
7370348900,000007E2,false,1,8,04,18,00,80,00,00,00,00
7370351100,000007EA,false,1,8,02,58,00,00,00,00,00,00
7370391500,000007E2,false,1,8,04,18,02,80,00,00,00,00
7370400900,000007EA,false,1,8,03,7F,18,12,00,00,00,00
7370475000,000007E2,false,1,8,04,18,20,FF,00,00,00,00
7370481100,000007EA,false,1,8,02,58,00,00,00,00,00,00
7370541100,000007E2,false,1,8,04,18,60,FF,00,00,00,00
7370550900,000007EA,false,1,8,02,58,00,00,00,00,00,00
7370612300,000007E2,false,1,8,04,18,00,40,00,00,00,00
7370620900,000007EA,false,1,8,02,58,00,00,00,00,00,00
7370675900,000007E2,false,1,8,01,20,00,00,00,00,00,00
7370680800,000007EA,false,1,8,01,60,00,00,00,00,00,00
7370792000,000007DF,false,1,8,02,01,00,00,00,00,00,00
7370798800,000007EC,false,1,8,06,41,00,80,00,00,01,AA
7370800700,000007EB,false,1,8,06,41,00,80,00,00,01,00
7370961800,000007E3,false,1,8,02,10,03,00,00,00,00,00
7370970500,000007EB,false,1,8,03,7F,10,12,00,00,00,00
7370984300,000007E3,false,1,8,02,10,90,00,00,00,00,00
7370990500,000007EB,false,1,8,02,50,90,00,00,00,00,00
7371006700,000007E3,false,1,8,01,20,00,00,00,00,00,00
7371020500,000007EB,false,1,8,01,60,00,00,00,00,00,00
7371136600,000007E3,false,1,8,02,10,03,00,00,00,00,00
7371140300,000007EB,false,1,8,03,7F,10,12,00,00,00,00
7371181600,000007E3,false,1,8,03,19,02,08,00,00,00,00
7371190200,000007EB,false,1,8,03,7F,19,11,00,00,00,00
7371250200,000007E3,false,1,8,03,19,02,AC,00,00,00,00
7371260200,000007EB,false,1,8,03,7F,19,11,00,00,00,00
7371323900,000007E3,false,1,8,03,19,02,AF,00,00,00,00
7371330100,000007EB,false,1,8,03,7F,19,11,00,00,00,00
7371426300,000007E3,false,1,8,04,18,00,FF,00,00,00,00
7371430000,000007EB,false,1,8,02,58,00,00,00,00,00,00
7371484800,000007E3,false,1,8,04,18,02,FF,00,00,00,00
7371489900,000007EB,false,1,8,03,7F,18,12,00,00,00,00
7371528700,000007E3,false,1,8,04,18,00,80,00,00,00,00
7371539900,000007EB,false,1,8,02,58,00,00,00,00,00,00
7371599900,000007E3,false,1,8,04,18,02,80,00,00,00,00
7371612900,000007EB,false,1,8,03,7F,18,12,00,00,00,00
7371669800,000007E3,false,1,8,04,18,20,FF,00,00,00,00
7371679700,000007EB,false,1,8,02,58,00,00,00,00,00,00
7371752200,000007E3,false,1,8,04,18,60,FF,00,00,00,00
7371759600,000007EB,false,1,8,02,58,00,00,00,00,00,00
7371808300,000007E3,false,1,8,04,18,00,40,00,00,00,00
7371825600,000007EB,false,1,8,02,58,00,00,00,00,00,00
7371891900,000007E3,false,1,8,01,20,00,00,00,00,00,00
7371899400,000007EB,false,1,8,01,60,00,00,00,00,00,00
7372010500,000007DF,false,1,8,02,01,00,00,00,00,00,00
7372025400,000007EB,false,1,8,06,41,00,80,00,00,01,00
7372025900,000007EC,false,1,8,06,41,00,80,00,00,01,AA
7372176600,000007E4,false,1,8,02,10,03,00,00,00,00,00
7372187100,000007EC,false,1,8,06,50,03,00,32,01,F4,AA
7372212800,000007E4,false,1,8,02,10,90,00,00,00,00,00
7372649700,000007E4,false,1,8,01,20,00,00,00,00,00,00
7372656500,000007EC,false,1,8,01,60,AA,AA,AA,AA,AA,AA
7372716000,000007E4,false,1,8,02,10,03,00,00,00,00,00
7372731500,000007EC,false,1,8,06,50,03,00,32,01,F4,AA
7372799600,000007E4,false,1,8,03,19,02,08,00,00,00,00
7372811500,000007EC,false,1,8,03,59,02,FF,AA,AA,AA,AA
7372858300,000007E4,false,1,8,03,19,02,AC,00,00,00,00
7372866300,000007EC,false,1,8,03,59,02,FF,AA,AA,AA,AA
7372923200,000007E4,false,1,8,03,19,02,AF,00,00,00,00
7372931300,000007EC,false,1,8,03,59,02,FF,AA,AA,AA,AA
7373059300,000007E4,false,1,8,04,18,00,FF,00,00,00,00
7373066000,000007EC,false,1,8,03,7F,18,11,AA,AA,AA,AA
7373106700,000007E4,false,1,8,04,18,02,FF,00,00,00,00
7373121000,000007EC,false,1,8,03,7F,18,11,AA,AA,AA,AA
7373162900,000007E4,false,1,8,04,18,00,80,00,00,00,00
7373171000,000007EC,false,1,8,03,7F,18,11,AA,AA,AA,AA
7373234100,000007E4,false,1,8,04,18,02,80,00,00,00,00
7373240800,000007EC,false,1,8,03,7F,18,11,AA,AA,AA,AA
7373297800,000007E4,false,1,8,04,18,20,FF,00,00,00,00
7373312900,000007EC,false,1,8,03,7F,18,11,AA,AA,AA,AA
7373368900,000007E4,false,1,8,04,18,60,FF,00,00,00,00
7373375700,000007EC,false,1,8,03,7F,18,11,AA,AA,AA,AA
7373435100,000007E4,false,1,8,04,18,00,40,00,00,00,00
7373445600,000007EC,false,1,8,03,7F,18,11,AA,AA,AA,AA
7373539900,000007E4,false,1,8,01,20,00,00,00,00,00,00
7373550400,000007EC,false,1,8,01,60,AA,AA,AA,AA,AA,AA
7373722400,000007DF,false,1,8,02,01,00,00,00,00,00,00
7373727100,000007EB,false,1,8,06,41,00,80,00,00,01,00
7373730300,000007EC,false,1,8,06,41,00,80,00,00,01,AA
7373970600,000007E5,false,1,8,02,10,03,00,00,00,00,00
7373979400,000007ED,false,1,8,03,7F,10,12,00,00,00,00
7374005600,000007E5,false,1,8,02,10,90,00,00,00,00,00
7374022900,000007ED,false,1,8,02,50,90,00,00,00,00,00
7374044400,000007E5,false,1,8,01,20,00,00,00,00,00,00
7374049300,000007ED,false,1,8,01,60,00,00,00,00,00,00
7374101700,000007E5,false,1,8,02,10,03,00,00,00,00,00
7374111900,000007ED,false,1,8,03,7F,10,12,00,00,00,00
7374176900,000007E5,false,1,8,03,19,02,08,00,00,00,00
7374179100,000007ED,false,1,8,03,7F,19,11,00,00,00,00
7374246400,000007E5,false,1,8,03,19,02,AC,00,00,00,00
7374249100,000007ED,false,1,8,03,7F,19,11,00,00,00,00
7374305200,000007E5,false,1,8,03,19,02,AF,00,00,00,00
7374319500,000007ED,false,1,8,03,7F,19,11,00,00,00,00
7374415100,000007E5,false,1,8,04,18,00,FF,00,00,00,00
7374428900,000007ED,false,1,8,02,58,00,00,00,00,00,00
7374483800,000007E5,false,1,8,04,18,02,FF,00,00,00,00
7374489100,000007ED,false,1,8,03,7F,18,12,00,00,00,00
7374538700,000007E5,false,1,8,04,18,00,80,00,00,00,00
7374548700,000007ED,false,1,8,02,58,00,00,00,00,00,00
7374613600,000007E5,false,1,8,04,18,02,80,00,00,00,00
7374628600,000007ED,false,1,8,03,7F,18,12,00,00,00,00
7374676100,000007E5,false,1,8,04,18,20,FF,00,00,00,00
7374678600,000007ED,false,1,8,02,58,00,00,00,00,00,00
7374732200,000007E5,false,1,8,04,18,60,FF,00,00,00,00
7374738600,000007ED,false,1,8,02,58,00,00,00,00,00,00
7374798400,000007E5,false,1,8,04,18,00,40,00,00,00,00
7374809000,000007ED,false,1,8,02,58,00,00,00,00,00,00
7374928200,000007E5,false,1,8,01,20,00,00,00,00,00,00
7374938200,000007ED,false,1,8,01,60,00,00,00,00,00,00
7375078000,000007DF,false,1,8,02,01,00,00,00,00,00,00
7375085500,000007EB,false,1,8,06,41,00,80,00,00,01,00
7375088600,000007EC,false,1,8,06,41,00,80,00,00,01,AA
7375279000,00000725,false,1,8,02,10,03,00,00,00,00,00
7375298700,0000072D,false,1,8,02,50,03,AA,AA,AA,AA,AA
7375316500,00000725,false,1,8,02,10,90,00,00,00,00,00
7375328700,0000072D,false,1,8,02,50,90,AA,AA,AA,AA,AA
7375352600,00000725,false,1,8,01,20,00,00,00,00,00,00
7375368700,0000072D,false,1,8,03,7F,20,00,AA,AA,AA,AA
7375427500,00000725,false,1,8,02,10,03,00,00,00,00,00
7375438700,0000072D,false,1,8,02,50,03,AA,AA,AA,AA,AA
7375532500,00000725,false,1,8,03,19,02,08,00,00,00,00
7375548600,0000072D,false,1,8,07,59,02,09,96,03,00,08
7375638500,00000725,false,1,8,01,20,00,00,00,00,00,00
7375658600,0000072D,false,1,8,03,7F,20,00,AA,AA,AA,AA
7403569000,000007DF,false,1,8,02,01,00,00,00,00,00,00
7403588200,000007EB,false,1,8,06,41,00,80,00,00,01,00
7403588500,000007EC,false,1,8,06,41,00,80,00,00,01,AA
7403738800,000007DF,false,1,8,02,01,00,00,00,00,00,00
7403748500,000007EC,false,1,8,06,41,00,80,00,00,01,AA
7403750200,000007EB,false,1,8,06,41,00,80,00,00,01,00
7411574300,000007DF,false,1,8,02,01,00,00,00,00,00,00
7411581300,000007EB,false,1,8,06,41,00,80,00,00,01,00
7411584000,000007EC,false,1,8,06,41,00,80,00,00,01,AA
7412043900,000007DF,false,1,8,02,01,00,00,00,00,00,00
7412050700,000007EB,false,1,8,06,41,00,80,00,00,01,00
7412053300,000007EC,false,1,8,06,41,00,80,00,00,01,AA
7412091200,000007DF,false,1,8,02,01,00,00,00,00,00,00
7412098300,000007EC,false,1,8,06,41,00,80,00,00,01,AA
7412100700,000007EB,false,1,8,06,41,00,80,00,00,01,00
7412142400,000007DF,false,1,8,02,01,00,00,00,00,00,00
7412148300,000007EC,false,1,8,06,41,00,80,00,00,01,AA
7412150600,000007EB,false,1,8,06,41,00,80,00,00,01,00
7412309600,000007DF,false,1,8,02,01,00,00,00,00,00,00
7412318100,000007EC,false,1,8,06,41,00,80,00,00,01,AA
7412320400,000007EB,false,1,8,06,41,00,80,00,00,01,00
7412370800,000007DF,false,1,8,02,01,20,00,00,00,00,00
7412380300,000007EB,false,1,8,06,41,20,80,01,80,00,00
7412382900,000007EC,false,1,8,06,41,20,80,01,80,01,AA
7412438200,000007DF,false,1,8,02,01,40,00,00,00,00,00
7412447900,000007EC,false,1,8,06,41,40,00,00,00,20,AA
7412508100,000007DF,false,1,8,02,01,0D,00,00,00,00,00
7412937600,000007DF,false,1,8,02,01,0D,00,00,00,00,00
7413373300,000007DF,false,1,8,02,01,0D,00,00,00,00,00
7413812800,000007DF,false,1,8,02,01,0D,00,00,00,00,00
7414238500,000007DF,false,1,8,02,01,0D,00,00,00,00,00
7448328300,000007DF,false,1,8,02,01,00,00,00,00,00,00
7448336400,000007EB,false,1,8,06,41,00,80,00,00,01,00
7448338900,000007EC,false,1,8,06,41,00,80,00,00,01,AA
7448489100,000007DF,false,1,8,02,01,00,00,00,00,00,00
7448496100,000007EB,false,1,8,06,41,00,80,00,00,01,00
7448498700,000007EC,false,1,8,06,41,00,80,00,00,01,AA
7449019100,000007DF,false,1,8,02,01,00,00,00,00,00,00
7449035500,000007EB,false,1,8,06,41,00,80,00,00,01,00
7449038100,000007EC,false,1,8,06,41,00,80,00,00,01,AA
7449232500,0000073E,false,1,8,02,10,03,00,00,00,00,00
7449681900,0000073E,false,1,8,02,10,90,00,00,00,00,00
7450138800,0000073E,false,1,8,01,20,00,00,00,00,00,00
7450597000,0000073E,false,1,8,02,10,03,00,00,00,00,00
7451038900,0000073E,false,1,8,02,10,03,00,00,00,00,00
7451479700,0000073E,false,1,8,02,10,90,00,00,00,00,00
7451905400,0000073E,false,1,8,01,20,00,00,00,00,00,00
7452349800,0000073E,false,1,8,01,20,00,00,00,00,00,00
7452887900,000007DF,false,1,8,02,01,00,00,00,00,00,00
7452891000,000007EB,false,1,8,06,41,00,80,00,00,01,00
7452898400,000007EC,false,1,8,06,41,00,80,00,00,01,AA
7453084200,00000740,false,1,8,02,10,03,00,00,00,00,00
7453524600,00000740,false,1,8,02,10,90,00,00,00,00,00
7453961600,00000740,false,1,8,01,20,00,00,00,00,00,00
7454401100,00000740,false,1,8,02,10,03,00,00,00,00,00
7454861700,00000740,false,1,8,02,10,90,00,00,00,00,00
7480262700,000007DF,false,1,8,02,01,00,00,00,00,00,00
7480267200,000007EB,false,1,8,06,41,00,80,00,00,01,00
7480269900,000007EC,false,1,8,06,41,00,80,00,00,01,AA
7480420500,000007DF,false,1,8,02,01,00,00,00,00,00,00
7480427000,000007EB,false,1,8,06,41,00,80,00,00,01,00
7480429700,000007EC,false,1,8,06,41,00,80,00,00,01,AA
7480948000,000007DF,false,1,8,02,01,00,00,00,00,00,00
7480954100,000007EC,false,1,8,06,41,00,80,00,00,01,AA
7480956400,000007EB,false,1,8,06,41,00,80,00,00,01,00
7481296800,00000740,false,1,8,02,10,03,00,00,00,00,00
7493153000,000007DF,false,1,8,02,01,00,00,00,00,00,00
7493166700,000007EB,false,1,8,06,41,00,80,00,00,01,00
7493167200,000007EC,false,1,8,06,41,00,80,00,00,01,AA
7493317800,000007DF,false,1,8,02,01,00,00,00,00,00,00
7493322200,000007EB,false,1,8,06,41,00,80,00,00,01,00
7493323900,000007EC,false,1,8,06,41,00,80,00,00,01,AA
7493914800,000007DF,false,1,8,02,01,00,00,00,00,00,00
7493921300,000007EB,false,1,8,06,41,00,80,00,00,01,00
7493923100,000007EC,false,1,8,06,41,00,80,00,00,01,AA
7494211900,00000740,false,1,8,02,10,03,00,00,00,00,00
7494657600,00000740,false,1,8,02,10,90,00,00,00,00,00
7495120700,00000740,false,1,8,01,20,00,00,00,00,00,00
7495571500,00000740,false,1,8,03,19,02,08,00,00,00,00
7496022200,00000740,false,1,8,03,19,02,08,00,00,00,00
7496459100,00000740,false,1,8,03,19,02,AC,00,00,00,00
7496888600,00000740,false,1,8,03,19,02,AF,00,00,00,00
7497331900,00000740,false,1,8,04,18,00,FF,00,00,00,00
7497821300,00000740,false,1,8,04,18,02,FF,00,00,00,00
7498267000,00000740,false,1,8,04,18,00,80,00,00,00,00
7498712600,00000740,false,1,8,04,18,02,80,00,00,00,00
7499144600,00000740,false,1,8,04,18,20,FF,00,00,00,00
7499589100,00000740,false,1,8,04,18,60,FF,00,00,00,00
7535286400,000007DF,false,1,8,02,01,00,00,00,00,00,00
7535295100,000007EB,false,1,8,06,41,00,80,00,00,01,00
7535295400,000007EC,false,1,8,06,41,00,80,00,00,01,AA
7535445700,000007DF,false,1,8,02,01,00,00,00,00,00,00
7535449500,000007EB,false,1,8,06,41,00,80,00,00,01,00
7535452400,000007EC,false,1,8,06,41,00,80,00,00,01,AA
7535919700,000007DF,false,1,8,02,01,00,00,00,00,00,00
7535929000,000007EB,false,1,8,06,41,00,80,00,00,01,00
7535931800,000007EC,false,1,8,06,41,00,80,00,00,01,AA
7549310400,000007DF,false,1,8,02,01,00,00,00,00,00,00
7549320400,000007EB,false,1,8,06,41,00,80,00,00,01,00
7549322700,000007EC,false,1,8,06,41,00,80,00,00,01,AA
7549473200,000007DF,false,1,8,02,01,00,00,00,00,00,00
7549480100,000007EB,false,1,8,06,41,00,80,00,00,01,00
7549482500,000007EC,false,1,8,06,41,00,80,00,00,01,AA
7549994400,000007DF,false,1,8,02,01,00,00,00,00,00,00
7549999500,000007EB,false,1,8,06,41,00,80,00,00,01,00
7550007700,000007EC,false,1,8,06,41,00,80,00,00,01,AA
7550101800,000007DF,false,1,8,02,01,00,00,00,00,00,00
7550109300,000007EB,false,1,8,06,41,00,80,00,00,01,00
7550114400,000007EC,false,1,8,06,41,00,80,00,00,01,AA
7550304100,00000751,false,1,8,02,10,03,00,00,00,00,00
7550739700,00000751,false,1,8,02,10,90,00,00,00,00,00
7551169200,00000751,false,1,8,01,20,00,00,00,00,00,00
7551607400,00000751,false,1,8,02,10,03,00,00,00,00,00
7552046900,00000751,false,1,8,02,10,90,00,00,00,00,00
7552490100,00000751,false,1,8,01,20,00,00,00,00,00,00
7552918300,00000751,false,1,8,01,20,00,00,00,00,00,00
7553435200,000007DF,false,1,8,02,01,00,00,00,00,00,00
7553445300,000007EB,false,1,8,06,41,00,80,00,00,01,00
7553448400,000007EC,false,1,8,06,41,00,80,00,00,01,AA
7553593700,00000752,false,1,8,02,10,03,00,00,00,00,00
7554027000,00000752,false,1,8,02,10,90,00,00,00,00,00
7554466600,00000752,false,1,8,01,20,00,00,00,00,00,00
7554910900,00000752,false,1,8,02,10,03,00,00,00,00,00
7555350300,00000752,false,1,8,02,10,90,00,00,00,00,00
7555791000,00000752,false,1,8,01,20,00,00,00,00,00,00
7569867200,000007DF,false,1,8,02,01,00,00,00,00,00,00
7569874900,000007EB,false,1,8,06,41,00,80,00,00,01,00
7569881900,000007EC,false,1,8,06,41,00,80,00,00,01,AA
7570032500,000007DF,false,1,8,02,01,00,00,00,00,00,00
7570034800,000007EB,false,1,8,06,41,00,80,00,00,01,00
7570041900,000007EC,false,1,8,06,41,00,80,00,00,01,AA
7570621300,000007DF,false,1,8,02,01,00,00,00,00,00,00
7570627000,000007EB,false,1,8,06,41,00,80,00,00,01,00
7570629200,000007EC,false,1,8,06,41,00,80,00,00,01,AA
7570854700,00000755,false,1,8,02,10,03,00,00,00,00,00
7571300400,00000755,false,1,8,02,10,90,00,00,00,00,00
7571739900,00000755,false,1,8,01,20,00,00,00,00,00,00
7572179300,00000755,false,1,8,02,10,03,00,00,00,00,00
7572628800,00000755,false,1,8,02,10,03,00,00,00,00,00
7573057000,00000755,false,1,8,02,10,90,00,00,00,00,00
7573502700,00000755,false,1,8,01,20,00,00,00,00,00,00
7573944600,00000755,false,1,8,01,20,00,00,00,00,00,00
7574465300,000007DF,false,1,8,02,01,00,00,00,00,00,00
7574469300,000007EB,false,1,8,06,41,00,80,00,00,01,00
7574477200,000007EC,false,1,8,06,41,00,80,00,00,01,AA
7574673800,00000757,false,1,8,02,10,03,00,00,00,00,00
7575120700,00000757,false,1,8,02,10,90,00,00,00,00,00
7575563900,00000757,false,1,8,01,20,00,00,00,00,00,00
7575993400,00000757,false,1,8,02,10,03,00,00,00,00,00
7603036600,000007DF,false,1,8,02,01,00,00,00,00,00,00
7603044000,000007EB,false,1,8,06,41,00,80,00,00,01,00
7603046300,000007EC,false,1,8,06,41,00,80,00,00,01,AA
7603196900,000007DF,false,1,8,02,01,00,00,00,00,00,00
7603203800,000007EB,false,1,8,06,41,00,80,00,00,01,00
7603206700,000007EC,false,1,8,06,41,00,80,00,00,01,AA
7603720700,000007DF,false,1,8,02,01,00,00,00,00,00,00
7603731400,000007EB,false,1,8,06,41,00,80,00,00,01,00
7603731900,000007EC,false,1,8,06,41,00,80,00,00,01,AA
7603915500,00000757,false,1,8,02,10,03,00,00,00,00,00
7615896000,000007DF,false,1,8,02,01,00,00,00,00,00,00
7615898200,000007EB,false,1,8,06,41,00,80,00,00,01,00
7615903800,000007EC,false,1,8,06,41,00,80,00,00,01,AA
7616054300,000007DF,false,1,8,02,01,00,00,00,00,00,00
7616058000,000007EB,false,1,8,06,41,00,80,00,00,01,00
7616063600,000007EC,false,1,8,06,41,00,80,00,00,01,AA
7616561200,000007DF,false,1,8,02,01,00,00,00,00,00,00
7616567300,000007EB,false,1,8,06,41,00,80,00,00,01,00
7616570700,000007EC,false,1,8,06,41,00,80,00,00,01,AA
7616745900,00000757,false,1,8,02,10,03,00,00,00,00,00
7617207900,00000757,false,1,8,02,10,90,00,00,00,00,00
7617649800,00000757,false,1,8,01,20,00,00,00,00,00,00
7618079300,00000757,false,1,8,03,19,02,08,00,00,00,00
7618527500,00000757,false,1,8,03,19,02,08,00,00,00,00
7618963200,00000757,false,1,8,03,19,02,AC,00,00,00,00
7619407700,00000757,false,1,8,03,19,02,AF,00,00,00,00
7619847200,00000757,false,1,8,04,18,00,FF,00,00,00,00
7620287700,00000757,false,1,8,04,18,02,FF,00,00,00,00
7620721100,00000757,false,1,8,04,18,00,80,00,00,00,00
7621169400,00000757,false,1,8,04,18,02,80,00,00,00,00
7621616200,00000757,false,1,8,04,18,20,FF,00,00,00,00
7622045700,00000757,false,1,8,04,18,60,FF,00,00,00,00
7622478400,00000757,false,1,8,04,18,00,40,00,00,00,00
7636291400,000007DF,false,1,8,02,01,00,00,00,00,00,00
7636302900,000007EB,false,1,8,06,41,00,80,00,00,01,00
7636308900,000007EC,false,1,8,06,41,00,80,00,00,01,AA
7636459200,000007DF,false,1,8,02,01,00,00,00,00,00,00
7636462700,000007EB,false,1,8,06,41,00,80,00,00,01,00
7636468700,000007EC,false,1,8,06,41,00,80,00,00,01,AA
7637020500,000007DF,false,1,8,02,01,00,00,00,00,00,00
7637022000,000007EB,false,1,8,06,41,00,80,00,00,01,00
7637028000,000007EC,false,1,8,06,41,00,80,00,00,01,AA
7637265600,00000760,false,1,8,02,10,03,00,00,00,00,00
7637703400,00000760,false,1,8,02,10,90,00,00,00,00,00
7638132800,00000760,false,1,8,01,20,00,00,00,00,00,00
7638578600,00000760,false,1,8,02,10,03,00,00,00,00,00
7639016800,00000760,false,1,8,02,10,03,00,00,00,00,00
7639442500,00000760,false,1,8,02,10,90,00,00,00,00,00
7639879400,00000760,false,1,8,01,20,00,00,00,00,00,00
7640325100,00000760,false,1,8,01,20,00,00,00,00,00,00
7640809600,000007DF,false,1,8,02,01,00,00,00,00,00,00
7640817300,000007EB,false,1,8,06,41,00,80,00,00,01,00
7640818500,000007EC,false,1,8,06,41,00,80,00,00,01,AA
7640964400,00000770,false,1,8,02,10,03,00,00,00,00,00
7640993200,00000778,false,1,8,02,50,03,AA,AA,AA,AA,AA
7641024300,00000770,false,1,8,02,10,90,00,00,00,00,00
7641053200,00000778,false,1,8,02,50,90,AA,AA,AA,AA,AA
7641069200,00000770,false,1,8,01,20,00,00,00,00,00,00
7641093300,00000778,false,1,8,01,60,AA,AA,AA,AA,AA,AA
7641176600,00000770,false,1,8,02,10,03,00,00,00,00,00
7641203000,00000778,false,1,8,02,50,03,AA,AA,AA,AA,AA
7641392600,00000770,false,1,8,03,19,02,08,00,00,00,00
7641412700,00000778,false,1,8,10,17,59,02,09,96,03,00
7641413000,00000770,false,1,8,30,00,05,00,00,00,00,00
7641422700,00000778,false,1,8,21,08,A8,01,00,08,56,7C
7641432700,00000778,false,1,8,22,00,08,A2,11,00,08,58
7641442700,00000778,false,1,8,23,29,00,08,AA,AA,AA,AA
7641518600,00000770,false,1,8,01,20,00,00,00,00,00,00
7641542600,00000778,false,1,8,01,60,AA,AA,AA,AA,AA,AA
7641691000,000007DF,false,1,8,02,01,00,00,00,00,00,00
7641696200,000007EB,false,1,8,06,41,00,80,00,00,01,00
7641702300,000007EC,false,1,8,06,41,00,80,00,00,01,AA
7641855800,00000771,false,1,8,02,10,03,00,00,00,00,00
7642305200,00000771,false,1,8,02,10,90,00,00,00,00,00
7642777100,00000771,false,1,8,01,20,00,00,00,00,00,00
7656825200,000007DF,false,1,8,02,01,00,00,00,00,00,00
7656827600,000007EB,false,1,8,06,41,00,80,00,00,01,00
7656833700,000007EC,false,1,8,06,41,00,80,00,00,01,AA
7656984000,000007DF,false,1,8,02,01,00,00,00,00,00,00
7656987400,000007EB,false,1,8,06,41,00,80,00,00,01,00
7656993500,000007EC,false,1,8,06,41,00,80,00,00,01,AA
7657568900,000007DF,false,1,8,02,01,00,00,00,00,00,00
7657576700,000007EB,false,1,8,06,41,00,80,00,00,01,00
7657577800,000007EC,false,1,8,06,41,00,80,00,00,01,AA
7657881000,00000771,false,1,8,02,10,03,00,00,00,00,00
7658324200,00000771,false,1,8,02,10,90,00,00,00,00,00
7658777500,00000771,false,1,8,01,20,00,00,00,00,00,00
7659230600,00000771,false,1,8,02,10,03,00,00,00,00,00
7659678600,00000771,false,1,8,02,10,03,00,00,00,00,00
7660117000,00000771,false,1,8,02,10,90,00,00,00,00,00
7660556400,00000771,false,1,8,01,20,00,00,00,00,00,00
7660982100,00000771,false,1,8,01,20,00,00,00,00,00,00
7661497800,000007DF,false,1,8,02,01,00,00,00,00,00,00
7661501800,000007EB,false,1,8,06,41,00,80,00,00,01,00
7661508000,000007EC,false,1,8,06,41,00,80,00,00,01,AA
7661689100,00000776,false,1,8,02,10,03,00,00,00,00,00
7661710400,0000077E,false,1,8,02,50,03,AA,AA,AA,AA,AA
7661723700,00000776,false,1,8,02,10,90,00,00,00,00,00
7661730300,0000077E,false,1,8,02,50,90,AA,AA,AA,AA,AA
7661751200,00000776,false,1,8,01,20,00,00,00,00,00,00
7661780500,0000077E,false,1,8,01,60,AA,AA,AA,AA,AA,AA
7661864800,00000776,false,1,8,02,10,03,00,00,00,00,00
7661890100,0000077E,false,1,8,02,50,03,AA,AA,AA,AA,AA
7661964700,00000776,false,1,8,03,19,02,08,00,00,00,00
7661990000,0000077E,false,1,8,07,59,02,09,A8,01,00,08
7662084500,00000776,false,1,8,01,20,00,00,00,00,00,00
7662109700,0000077E,false,1,8,01,60,AA,AA,AA,AA,AA,AA
7662260600,000007DF,false,1,8,02,01,00,00,00,00,00,00
7662270900,000007EB,false,1,8,06,41,00,80,00,00,01,00
7662279100,000007EC,false,1,8,06,41,00,80,00,00,01,AA
7662449100,00000777,false,1,8,02,10,03,00,00,00,00,00
7662888600,00000777,false,1,8,02,10,90,00,00,00,00,00
7663331700,00000777,false,1,8,01,20,00,00,00,00,00,00
7677156300,000007DF,false,1,8,02,01,00,00,00,00,00,00
7677162400,000007EB,false,1,8,06,41,00,80,00,00,01,00
7677164100,000007EC,false,1,8,06,41,00,80,00,00,01,AA
7677314600,000007DF,false,1,8,02,01,00,00,00,00,00,00
7677322200,000007EB,false,1,8,06,41,00,80,00,00,01,00
7677323900,000007EC,false,1,8,06,41,00,80,00,00,01,AA
7677776800,000007DF,false,1,8,02,01,00,00,00,00,00,00
7677781700,000007EB,false,1,8,06,41,00,80,00,00,01,00
7677785600,000007EC,false,1,8,06,41,00,80,00,00,01,AA
7677999100,00000777,false,1,8,02,10,03,00,00,00,00,00
7678448700,00000777,false,1,8,02,10,90,00,00,00,00,00
7678899200,00000777,false,1,8,01,20,00,00,00,00,00,00
7679332500,00000777,false,1,8,02,10,03,00,00,00,00,00
7679775600,00000777,false,1,8,02,10,03,00,00,00,00,00
7680223800,00000777,false,1,8,02,10,90,00,00,00,00,00
7680653300,00000777,false,1,8,01,20,00,00,00,00,00,00
7681123900,00000777,false,1,8,01,20,00,00,00,00,00,00
7681657300,000007DF,false,1,8,02,01,00,00,00,00,00,00
7681664500,000007EC,false,1,8,06,41,00,80,00,00,01,AA
7681666900,000007EB,false,1,8,06,41,00,80,00,00,01,00
7681844400,00000780,false,1,8,02,10,03,00,00,00,00,00
7681867600,00000788,false,1,8,06,50,03,00,32,00,FA,AA
7681880600,00000780,false,1,8,02,10,90,00,00,00,00,00
7681897300,00000788,false,1,8,03,7F,10,12,AA,AA,AA,AA
7681919100,00000780,false,1,8,01,20,00,00,00,00,00,00
7681937500,00000788,false,1,8,03,7F,20,11,AA,AA,AA,AA
7682010400,00000780,false,1,8,02,10,03,00,00,00,00,00
7682029700,00000788,false,1,8,06,50,03,00,32,00,FA,AA
7682099100,00000780,false,1,8,03,19,02,08,00,00,00,00
7682114900,00000788,false,1,8,03,59,02,09,AA,AA,AA,AA
7682185200,00000780,false,1,8,03,19,02,AC,00,00,00,00
7682195700,00000788,false,1,8,03,7F,19,31,AA,AA,AA,AA
7682253900,00000780,false,1,8,03,19,02,AF,00,00,00,00
7682267000,00000788,false,1,8,03,7F,19,31,AA,AA,AA,AA
7682338700,00000780,false,1,8,04,18,00,FF,00,00,00,00
7682354600,00000788,false,1,8,03,7F,18,11,AA,AA,AA,AA
7682418700,00000780,false,1,8,04,18,02,FF,00,00,00,00
7682439300,00000788,false,1,8,03,7F,18,11,AA,AA,AA,AA
7682513700,00000780,false,1,8,04,18,00,80,00,00,00,00
7682524400,00000788,false,1,8,03,7F,18,11,AA,AA,AA,AA
7682593500,00000780,false,1,8,04,18,02,80,00,00,00,00
7682607700,00000788,false,1,8,03,7F,18,11,AA,AA,AA,AA
7682674600,00000780,false,1,8,04,18,20,FF,00,00,00,00
7682690000,00000788,false,1,8,03,7F,18,11,AA,AA,AA,AA
7682787000,00000780,false,1,8,04,18,60,FF,00,00,00,00
7682805100,00000788,false,1,8,03,7F,18,11,AA,AA,AA,AA
7682891900,00000780,false,1,8,04,18,00,40,00,00,00,00
7682906300,00000788,false,1,8,03,7F,18,11,AA,AA,AA,AA
7682996600,00000780,false,1,8,01,20,00,00,00,00,00,00
7683019800,00000788,false,1,8,03,7F,20,11,AA,AA,AA,AA
7683171400,000007DF,false,1,8,02,01,00,00,00,00,00,00
7683176300,000007EB,false,1,8,06,41,00,80,00,00,01,00
7683182600,000007EC,false,1,8,06,41,00,80,00,00,01,AA
7683327800,00000783,false,1,8,02,10,03,00,00,00,00,00
7683343200,0000078B,false,1,8,06,50,03,00,32,01,F4,AA
7683363700,00000783,false,1,8,02,10,90,00,00,00,00,00
7683386700,0000078B,false,1,8,03,7F,10,12,AA,AA,AA,AA
7683399900,00000783,false,1,8,01,20,00,00,00,00,00,00
7683420400,0000078B,false,1,8,03,7F,20,11,AA,AA,AA,AA
7683497300,00000783,false,1,8,02,10,03,00,00,00,00,00
7683513000,0000078B,false,1,8,06,50,03,00,32,01,F4,AA
7683572200,00000783,false,1,8,03,19,02,08,00,00,00,00
7683592800,0000078B,false,1,8,03,7F,19,22,AA,AA,AA,AA
7683702100,00000783,false,1,8,03,19,02,AC,00,00,00,00
7683722700,0000078B,false,1,8,03,7F,19,31,AA,AA,AA,AA
7683785700,00000783,false,1,8,03,19,02,AF,00,00,00,00
7683806200,0000078B,false,1,8,03,7F,19,31,AA,AA,AA,AA
7683867000,00000783,false,1,8,04,18,00,FF,00,00,00,00
7683882500,0000078B,false,1,8,03,7F,18,11,AA,AA,AA,AA
7700171600,000007DF,false,1,8,02,01,00,00,00,00,00,00
7700175200,000007EB,false,1,8,06,41,00,80,00,00,01,00
7700181800,000007EC,false,1,8,06,41,00,80,00,00,01,AA
7700332400,000007DF,false,1,8,02,01,00,00,00,00,00,00
7700333800,000007EB,false,1,8,06,41,00,80,00,00,01,00
7700341600,000007EC,false,1,8,06,41,00,80,00,00,01,AA
7700867000,000007DF,false,1,8,02,01,00,00,00,00,00,00
7700874400,000007EB,false,1,8,06,41,00,80,00,00,01,00
7700874800,000007EC,false,1,8,06,41,00,80,00,00,01,AA
7701100400,00000783,false,1,8,02,10,03,00,00,00,00,00
7701121400,0000078B,false,1,8,06,50,03,00,32,01,F4,AA
7701164100,00000783,false,1,8,02,10,90,00,00,00,00,00
7701181300,0000078B,false,1,8,03,7F,10,12,AA,AA,AA,AA
7701209000,00000783,false,1,8,01,20,00,00,00,00,00,00
7701233700,0000078B,false,1,8,03,7F,20,11,AA,AA,AA,AA
7701301500,00000783,false,1,8,04,18,02,FF,00,00,00,00
7701321100,0000078B,false,1,8,03,7F,18,11,AA,AA,AA,AA
7701390100,00000783,false,1,8,04,18,02,FF,00,00,00,00
7701411000,0000078B,false,1,8,03,7F,18,11,AA,AA,AA,AA
7701492400,00000783,false,1,8,04,18,00,80,00,00,00,00
7701510900,0000078B,false,1,8,03,7F,18,11,AA,AA,AA,AA
7701588600,00000783,false,1,8,04,18,02,80,00,00,00,00
7701610800,0000078B,false,1,8,03,7F,18,11,AA,AA,AA,AA
7701678500,00000783,false,1,8,04,18,20,FF,00,00,00,00
7701700600,0000078B,false,1,8,03,7F,18,11,AA,AA,AA,AA
7701767200,00000783,false,1,8,04,18,60,FF,00,00,00,00
7701780500,0000078B,false,1,8,03,7F,18,11,AA,AA,AA,AA
7701859400,00000783,false,1,8,04,18,00,40,00,00,00,00
7701880400,0000078B,false,1,8,03,7F,18,11,AA,AA,AA,AA
7701939400,00000783,false,1,8,01,20,00,00,00,00,00,00
7701962800,0000078B,false,1,8,03,7F,20,11,AA,AA,AA,AA
7702089200,000007DF,false,1,8,02,01,00,00,00,00,00,00
7702091700,000007EB,false,1,8,06,41,00,80,00,00,01,00
7702099600,000007EC,false,1,8,06,41,00,80,00,00,01,AA
7702284000,00000791,false,1,8,02,10,03,00,00,00,00,00
7702718400,00000791,false,1,8,02,10,90,00,00,00,00,00
7703146600,00000791,false,1,8,01,20,00,00,00,00,00,00
7703596100,00000791,false,1,8,02,10,03,00,00,00,00,00
7704036800,00000791,false,1,8,02,10,90,00,00,00,00,00
7704486200,00000791,false,1,8,01,20,00,00,00,00,00,00
7704914400,00000791,false,1,8,01,20,00,00,00,00,00,00
7705477400,000007DF,false,1,8,02,01,00,00,00,00,00,00
7705485600,000007EC,false,1,8,06,41,00,80,00,00,01,AA
7705488400,000007EB,false,1,8,06,41,00,80,00,00,01,00
7705670100,00000793,false,1,8,02,10,03,00,00,00,00,00
7706100500,00000793,false,1,8,02,10,90,00,00,00,00,00
7719388500,000007DF,false,1,8,02,01,00,00,00,00,00,00
7719408500,000007EC,false,1,8,06,41,00,80,00,00,01,AA
7719410300,000007EB,false,1,8,06,41,00,80,00,00,01,00
7719560800,000007DF,false,1,8,02,01,00,00,00,00,00,00
7719568300,000007EC,false,1,8,06,41,00,80,00,00,01,AA
7719570100,000007EB,false,1,8,06,41,00,80,00,00,01,00
7720129900,000007DF,false,1,8,02,01,00,00,00,00,00,00
7720137400,000007EC,false,1,8,06,41,00,80,00,00,01,AA
7720139400,000007EB,false,1,8,06,41,00,80,00,00,01,00
7720322200,00000793,false,1,8,02,10,03,00,00,00,00,00
7720774200,00000793,false,1,8,02,10,90,00,00,00,00,00
7721206100,00000793,false,1,8,01,20,00,00,00,00,00,00
7721655700,00000793,false,1,8,02,10,03,00,00,00,00,00
7722105000,00000793,false,1,8,02,10,03,00,00,00,00,00
7722539500,00000793,false,1,8,02,10,90,00,00,00,00,00
7722980100,00000793,false,1,8,01,20,00,00,00,00,00,00
7723408400,00000793,false,1,8,01,20,00,00,00,00,00,00
7723956500,000007DF,false,1,8,02,01,00,00,00,00,00,00
7723964600,000007EB,false,1,8,06,41,00,80,00,00,01,00
7723966700,000007EC,false,1,8,06,41,00,80,00,00,01,AA
7724117500,00000794,false,1,8,02,10,03,00,00,00,00,00
7724543200,00000794,false,1,8,02,10,90,00,00,00,00,00
7724987700,00000794,false,1,8,01,20,00,00,00,00,00,00
7725423200,00000794,false,1,8,02,10,03,00,00,00,00,00
7725874100,00000794,false,1,8,02,10,90,00,00,00,00,00
7739942800,000007DF,false,1,8,02,01,00,00,00,00,00,00
7739944900,000007EB,false,1,8,06,41,00,80,00,00,01,00
7739953200,000007EC,false,1,8,06,41,00,80,00,00,01,AA
7740103600,000007DF,false,1,8,02,01,00,00,00,00,00,00
7740104700,000007EB,false,1,8,06,41,00,80,00,00,01,00
7740112900,000007EC,false,1,8,06,41,00,80,00,00,01,AA
7740600700,000007DF,false,1,8,02,01,00,00,00,00,00,00
7740604100,000007EB,false,1,8,06,41,00,80,00,00,01,00
7740612200,000007EC,false,1,8,06,41,00,80,00,00,01,AA
7740837900,00000794,false,1,8,02,10,03,00,00,00,00,00
7741274900,00000794,false,1,8,02,10,90,00,00,00,00,00
7741723000,00000794,false,1,8,01,20,00,00,00,00,00,00
7742150000,00000794,false,1,8,01,20,00,00,00,00,00,00
7742585700,00000794,false,1,8,01,20,00,00,00,00,00,00
7743085100,000007DF,false,1,8,02,01,00,00,00,00,00,00
7743091100,000007EB,false,1,8,06,41,00,80,00,00,01,00
7743093100,000007EC,false,1,8,06,41,00,80,00,00,01,AA
7743243700,00000796,false,1,8,02,10,03,00,00,00,00,00
7743250400,0000079E,false,1,8,02,50,03,AA,AA,AA,AA,AA
7743268600,00000796,false,1,8,02,10,90,00,00,00,00,00
7743711800,00000796,false,1,8,01,20,00,00,00,00,00,00
7743719800,0000079E,false,1,8,01,60,AA,AA,AA,AA,AA,AA
7743778000,00000796,false,1,8,02,10,03,00,00,00,00,00
7743789400,0000079E,false,1,8,02,50,03,AA,AA,AA,AA,AA
7743845400,00000796,false,1,8,03,19,02,08,00,00,00,00
7743849700,0000079E,false,1,8,03,59,02,08,AA,AA,AA,AA
7743899100,00000796,false,1,8,03,19,02,AC,00,00,00,00
7743909500,0000079E,false,1,8,03,59,02,08,AA,AA,AA,AA
7743974000,00000796,false,1,8,03,19,02,AF,00,00,00,00
7743979800,0000079E,false,1,8,03,59,02,08,AA,AA,AA,AA
7744026300,00000796,false,1,8,04,18,00,FF,00,00,00,00
7744039400,0000079E,false,1,8,03,7F,18,11,AA,AA,AA,AA
7744096200,00000796,false,1,8,04,18,02,FF,00,00,00,00
7744109200,0000079E,false,1,8,03,7F,18,11,AA,AA,AA,AA
7744167600,00000796,false,1,8,04,18,00,80,00,00,00,00
7744179600,0000079E,false,1,8,03,7F,18,11,AA,AA,AA,AA
7744256200,00000796,false,1,8,04,18,02,80,00,00,00,00
7744266300,0000079E,false,1,8,03,7F,18,11,AA,AA,AA,AA
7744344900,00000796,false,1,8,04,18,20,FF,00,00,00,00
7744346100,0000079E,false,1,8,03,7F,18,11,AA,AA,AA,AA
7744414800,00000796,false,1,8,04,18,60,FF,00,00,00,00
7744425800,0000079E,false,1,8,03,7F,18,11,AA,AA,AA,AA
7744480900,00000796,false,1,8,04,18,00,40,00,00,00,00
7744485600,0000079E,false,1,8,03,7F,18,11,AA,AA,AA,AA
7744525800,00000796,false,1,8,01,20,00,00,00,00,00,00
7744535500,0000079E,false,1,8,01,60,AA,AA,AA,AA,AA,AA
7744675600,000007DF,false,1,8,02,01,00,00,00,00,00,00
7744679100,000007EB,false,1,8,06,41,00,80,00,00,01,00
7744687300,000007EC,false,1,8,06,41,00,80,00,00,01,AA
7744879100,000007A0,false,1,8,02,10,03,00,00,00,00,00
7744889300,000007A8,false,1,8,02,50,03,AA,AA,AA,AA,AA
7744902900,000007A0,false,1,8,02,10,90,00,00,00,00,00
7744919300,000007A8,false,1,8,02,50,90,AA,AA,AA,AA,AA
7744939000,000007A0,false,1,8,01,20,00,00,00,00,00,00
7744949300,000007A8,false,1,8,01,60,AA,AA,AA,AA,AA,AA
7744999000,000007A0,false,1,8,02,10,03,00,00,00,00,00
7745009200,000007A8,false,1,8,02,50,03,AA,AA,AA,AA,AA
7745076400,000007A0,false,1,8,03,19,02,08,00,00,00,00
7745099100,000007A8,false,1,8,03,7F,19,78,AA,AA,AA,AA
7745168700,000007A0,false,1,8,01,20,00,00,00,00,00,00
7745813000,000007A0,false,1,8,02,10,03,00,00,00,00,00
7746240000,000007A0,false,1,8,02,10,90,00,00,00,00,00
7747595900,000007A8,false,1,8,03,7F,19,78,AA,AA,AA,AA
7750092800,000007A8,false,1,8,03,7F,19,78,AA,AA,AA,AA
7752589600,000007A8,false,1,8,03,7F,19,78,AA,AA,AA,AA
7757852700,000007DF,false,1,8,02,01,00,00,00,00,00,00
7757861600,000007EC,false,1,8,06,41,00,80,00,00,01,AA
7757862800,000007EB,false,1,8,06,41,00,80,00,00,01,00
7758013500,000007DF,false,1,8,02,01,00,00,00,00,00,00
7758021500,000007EC,false,1,8,06,41,00,80,00,00,01,AA
7758022700,000007EB,false,1,8,06,41,00,80,00,00,01,00
7758558300,000007DF,false,1,8,02,01,00,00,00,00,00,00
7758561900,000007EB,false,1,8,06,41,00,80,00,00,01,00
7758564200,000007EC,false,1,8,06,41,00,80,00,00,01,AA
7758749300,000007A0,false,1,8,02,10,03,00,00,00,00,00
7758751800,000007A8,false,1,8,02,50,03,AA,AA,AA,AA,AA
7758769300,000007A0,false,1,8,02,10,90,00,00,00,00,00
7758781700,000007A8,false,1,8,02,50,90,AA,AA,AA,AA,AA
7758794200,000007A0,false,1,8,01,20,00,00,00,00,00,00
7758811700,000007A8,false,1,8,01,60,AA,AA,AA,AA,AA,AA
7758905400,000007A0,false,1,8,03,19,02,08,00,00,00,00
7758931600,000007A8,false,1,8,03,7F,19,78,AA,AA,AA,AA
7759421000,000007A8,false,1,8,10,17,59,02,09,96,03,00
7759421200,000007A0,false,1,8,30,00,05,00,00,00,00,00
7759430900,000007A8,false,1,8,21,08,92,10,00,09,92,11
7759440900,000007A8,false,1,8,22,00,09,92,12,00,09,92
7759450900,000007A8,false,1,8,23,13,00,09,AA,AA,AA,AA
7760549500,000007A0,false,1,8,01,20,00,00,00,00,00,00
7760559500,000007A8,false,1,8,01,60,AA,AA,AA,AA,AA,AA
7761841700,000007DF,false,1,8,02,01,00,00,00,00,00,00
7761847900,000007EB,false,1,8,06,41,00,80,00,00,01,00
7761850100,000007EC,false,1,8,06,41,00,80,00,00,01,AA
7762000300,000007A1,false,1,8,02,10,03,00,00,00,00,00
7762441200,000007A1,false,1,8,02,10,90,00,00,00,00,00
7762875400,000007A1,false,1,8,01,20,00,00,00,00,00,00
7763321100,000007A1,false,1,8,02,10,03,00,00,00,00,00
7763755600,000007A1,false,1,8,02,10,90,00,00,00,00,00
7764227300,000007A1,false,1,8,01,20,00,00,00,00,00,00
7778189700,000007DF,false,1,8,02,01,00,00,00,00,00,00
7778197700,000007EB,false,1,8,06,41,00,80,00,00,01,00
7778200200,000007EC,false,1,8,06,41,00,80,00,00,01,AA
7778350500,000007DF,false,1,8,02,01,00,00,00,00,00,00
7778357500,000007EB,false,1,8,06,41,00,80,00,00,01,00
7778360100,000007EC,false,1,8,06,41,00,80,00,00,01,AA
7778875100,000007DF,false,1,8,02,01,00,00,00,00,00,00
7778876900,000007EB,false,1,8,06,41,00,80,00,00,01,00
7778885400,000007EC,false,1,8,06,41,00,80,00,00,01,AA
7779043800,000007A2,false,1,8,02,10,03,00,00,00,00,00
7779473100,000007A2,false,1,8,02,10,90,00,00,00,00,00
7779917400,000007A2,false,1,8,01,20,00,00,00,00,00,00
7780358300,000007A2,false,1,8,02,10,03,00,00,00,00,00
7780784000,000007A2,false,1,8,02,10,03,00,00,00,00,00
7781222200,000007A2,false,1,8,02,10,90,00,00,00,00,00
7781670300,000007A2,false,1,8,01,20,00,00,00,00,00,00
7782127400,000007A2,false,1,8,01,20,00,00,00,00,00,00
7782655400,000007DF,false,1,8,02,01,00,00,00,00,00,00
7782662200,000007EB,false,1,8,06,41,00,80,00,00,01,00
7782664600,000007EC,false,1,8,06,41,00,80,00,00,01,AA
7782900100,000007A3,false,1,8,02,10,03,00,00,00,00,00
7783337100,000007A3,false,1,8,02,10,90,00,00,00,00,00
7783786500,000007A3,false,1,8,01,20,00,00,00,00,00,00
7784236000,000007A3,false,1,8,02,10,03,00,00,00,00,00
7784689100,000007A3,false,1,8,02,10,90,00,00,00,00,00
7798754500,000007DF,false,1,8,02,01,00,00,00,00,00,00
7798762300,000007EB,false,1,8,06,41,00,80,00,00,01,00
7798765100,000007EC,false,1,8,06,41,00,80,00,00,01,AA
7798915300,000007DF,false,1,8,02,01,00,00,00,00,00,00
7798922100,000007EB,false,1,8,06,41,00,80,00,00,01,00
7798924700,000007EC,false,1,8,06,41,00,80,00,00,01,AA
7799438900,000007DF,false,1,8,02,01,00,00,00,00,00,00
7799441500,000007EB,false,1,8,06,41,00,80,00,00,01,00
7799450400,000007EC,false,1,8,06,41,00,80,00,00,01,AA
7799686100,000007A3,false,1,8,02,10,03,00,00,00,00,00
7800129300,000007A3,false,1,8,02,10,90,00,00,00,00,00
7800570000,000007A3,false,1,8,01,20,00,00,00,00,00,00
7801011900,000007A3,false,1,8,01,20,00,00,00,00,00,00
7801461400,000007A3,false,1,8,01,20,00,00,00,00,00,00
7801970800,000007DF,false,1,8,02,01,00,00,00,00,00,00
7801978400,000007EB,false,1,8,06,41,00,80,00,00,01,00
7801987400,000007EC,false,1,8,06,41,00,80,00,00,01,AA
7802140600,000007A4,false,1,8,02,10,03,00,00,00,00,00
7802580000,000007A4,false,1,8,02,10,90,00,00,00,00,00
7803023200,000007A4,false,1,8,01,20,00,00,00,00,00,00
7803471400,000007A4,false,1,8,02,10,03,00,00,00,00,00
7803905900,000007A4,false,1,8,02,10,90,00,00,00,00,00
7804334100,000007A4,false,1,8,01,20,00,00,00,00,00,00
7804778300,000007A4,false,1,8,01,20,00,00,00,00,00,00
7805268200,000007DF,false,1,8,02,01,00,00,00,00,00,00
7805274200,000007EB,false,1,8,06,41,00,80,00,00,01,00
7805283400,000007EC,false,1,8,06,41,00,80,00,00,01,AA
7805460400,000007A5,false,1,8,02,10,03,00,00,00,00,00
7805468500,000007AD,false,1,8,02,50,03,AA,AA,AA,AA,AA
7805482700,000007A5,false,1,8,02,10,90,00,00,00,00,00
7805498500,000007AD,false,1,8,02,50,90,AA,AA,AA,AA,AA
7805517600,000007A5,false,1,8,01,20,00,00,00,00,00,00
7805528400,000007AD,false,1,8,01,60,AA,AA,AA,AA,AA,AA
7805576300,000007A5,false,1,8,02,10,03,00,00,00,00,00
7805578400,000007AD,false,1,8,02,50,03,AA,AA,AA,AA,AA
7805630000,000007A5,false,1,8,03,19,02,08,00,00,00,00
7805648300,000007AD,false,1,8,03,7F,19,78,AA,AA,AA,AA
7805697400,000007A5,false,1,8,01,20,00,00,00,00,00,00
7806300400,000007A5,false,1,8,02,10,03,00,00,00,00,00
7806317400,000007AD,false,1,8,07,59,02,08,96,03,00,08
7806334100,000007A5,false,1,8,02,10,90,00,00,00,00,00
7806347300,000007AD,false,1,8,02,50,90,AA,AA,AA,AA,AA
7806400200,000007A5,false,1,8,01,20,00,00,00,00,00,00
7806407300,000007AD,false,1,8,01,60,AA,AA,AA,AA,AA,AA
7806496500,000007A5,false,1,8,03,19,02,08,00,00,00,00
7806517100,000007AD,false,1,8,03,7F,19,78,AA,AA,AA,AA
7807186200,000007AD,false,1,8,07,59,02,08,96,03,00,08
7808266700,000007A5,false,1,8,01,20,00,00,00,00,00,00
7808274800,000007AD,false,1,8,01,60,AA,AA,AA,AA,AA,AA
7809446500,000007DF,false,1,8,02,01,00,00,00,00,00,00
7809449100,000007EB,false,1,8,06,41,00,80,00,00,01,00
7809458200,000007EC,false,1,8,06,41,00,80,00,00,01,AA
7809994700,000007A6,false,1,8,02,10,03,00,00,00,00,00
7810435300,000007A6,false,1,8,02,10,90,00,00,00,00,00
7810915900,000007A6,false,1,8,01,20,00,00,00,00,00,00
7811354200,000007A6,false,1,8,02,10,03,00,00,00,00,00
7811789900,000007A6,false,1,8,02,10,90,00,00,00,00,00
7812228100,000007A6,false,1,8,01,20,00,00,00,00,00,00
7812653800,000007A6,false,1,8,01,20,00,00,00,00,00,00
7813178200,000007DF,false,1,8,02,01,00,00,00,00,00,00
7813184500,000007EB,false,1,8,06,41,00,80,00,00,01,00
7813187300,000007EC,false,1,8,06,41,00,80,00,00,01,AA
7813361700,000007A7,false,1,8,02,10,03,00,00,00,00,00
7813797300,000007A7,false,1,8,02,10,90,00,00,00,00,00
7814263000,000007A7,false,1,8,01,20,00,00,00,00,00,00
7814720000,000007A7,false,1,8,02,10,03,00,00,00,00,00
7815164500,000007A7,false,1,8,02,10,90,00,00,00,00,00
7815590200,000007A7,false,1,8,01,20,00,00,00,00,00,00
7816028400,000007A7,false,1,8,01,20,00,00,00,00,00,00
7816541800,000007DF,false,1,8,02,01,00,00,00,00,00,00
7816549600,000007EC,false,1,8,06,41,00,80,00,00,01,AA
7816551400,000007EB,false,1,8,06,41,00,80,00,00,01,00
7816788700,000007B1,false,1,8,02,10,03,00,00,00,00,00
7817225700,000007B1,false,1,8,02,10,90,00,00,00,00,00
7817652600,000007B1,false,1,8,01,20,00,00,00,00,00,00
7818090800,000007B1,false,1,8,02,10,03,00,00,00,00,00
7818559100,000007B1,false,1,8,02,10,90,00,00,00,00,00
7819012200,000007B1,false,1,8,01,20,00,00,00,00,00,00
7819444100,000007B1,false,1,8,01,20,00,00,00,00,00,00
7819984800,000007DF,false,1,8,02,01,00,00,00,00,00,00
7819987200,000007EB,false,1,8,06,41,00,80,00,00,01,00
7819995000,000007EC,false,1,8,06,41,00,80,00,00,01,AA
7820163300,000007B3,false,1,8,02,10,03,00,00,00,00,00
7820177600,000007BB,false,1,8,02,50,03,00,00,00,00,00
7820188300,000007B3,false,1,8,02,10,90,00,00,00,00,00
7820205300,000007BB,false,1,8,02,50,90,00,00,00,00,00
7820224400,000007B3,false,1,8,01,20,00,00,00,00,00,00
7820235200,000007BB,false,1,8,01,60,00,00,00,00,00,00
7820293100,000007B3,false,1,8,02,10,03,00,00,00,00,00
7820305100,000007BB,false,1,8,02,50,03,00,00,00,00,00
7820371800,000007B3,false,1,8,03,19,02,08,00,00,00,00
7820385000,000007BB,false,1,8,07,59,02,09,92,38,13,09
7820439000,000007B3,false,1,8,01,20,00,00,00,00,00,00
7820454900,000007BB,false,1,8,01,60,00,00,00,00,00,00
7820556600,000007DF,false,1,8,02,01,00,00,00,00,00,00
7820565400,000007EB,false,1,8,06,41,00,80,00,00,01,00
7820568200,000007EC,false,1,8,06,41,00,80,00,00,01,AA
7820766300,000007B6,false,1,8,02,10,03,00,00,00,00,00
7820779900,000007BE,false,1,8,06,50,03,00,32,01,F4,00
7820790000,000007B6,false,1,8,02,10,90,00,00,00,00,00
7821221900,000007B6,false,1,8,01,20,00,00,00,00,00,00
7821229400,000007BE,false,1,8,01,60,00,00,00,00,00,00
7821290600,000007B6,false,1,8,02,10,03,00,00,00,00,00
7821299300,000007BE,false,1,8,06,50,03,00,32,01,F4,00
7821368100,000007B6,false,1,8,03,19,02,08,00,00,00,00
7821379200,000007BE,false,1,8,03,59,02,7F,00,00,00,00
7821431700,000007B6,false,1,8,03,19,02,AC,00,00,00,00
7821439100,000007BE,false,1,8,03,59,02,7F,00,00,00,00
7821500400,000007B6,false,1,8,03,19,02,AF,00,00,00,00
7821509100,000007BE,false,1,8,03,59,02,7F,00,00,00,00
7821577900,000007B6,false,1,8,04,18,00,FF,00,00,00,00
7821589000,000007BE,false,1,8,03,7F,18,11,00,00,00,00
7821632800,000007B6,false,1,8,04,18,02,FF,00,00,00,00
7821638900,000007BE,false,1,8,03,7F,18,11,00,00,00,00
7821691500,000007B6,false,1,8,04,18,00,80,00,00,00,00
7821698800,000007BE,false,1,8,03,7F,18,11,00,00,00,00
7821767500,000007B6,false,1,8,04,18,02,80,00,00,00,00
7821778700,000007BE,false,1,8,03,7F,18,11,00,00,00,00
7821832500,000007B6,false,1,8,04,18,20,FF,00,00,00,00
7821838700,000007BE,false,1,8,03,7F,18,11,00,00,00,00
7821900000,000007B6,false,1,8,04,18,60,FF,00,00,00,00
7821908600,000007BE,false,1,8,03,7F,18,11,00,00,00,00
7821981100,000007B6,false,1,8,04,18,00,40,00,00,00,00
7821988500,000007BE,false,1,8,03,7F,18,11,00,00,00,00
7822069600,000007B6,false,1,8,01,20,00,00,00,00,00,00
7822088400,000007BE,false,1,8,01,60,00,00,00,00,00,00
7822229600,000007DF,false,1,8,02,01,00,00,00,00,00,00
7822233300,000007EB,false,1,8,06,41,00,80,00,00,01,00
7822236100,000007EC,false,1,8,06,41,00,80,00,00,01,AA
7822474300,000007B7,false,1,8,02,10,03,00,00,00,00,00
7822480000,000007BF,false,1,8,02,50,03,AA,AA,AA,AA,AA
7822501500,000007B7,false,1,8,02,10,90,00,00,00,00,00
7822510000,000007BF,false,1,8,02,50,90,AA,AA,AA,AA,AA
7822529100,000007B7,false,1,8,01,20,00,00,00,00,00,00
7822539900,000007BF,false,1,8,01,60,AA,AA,AA,AA,AA,AA
7822606500,000007B7,false,1,8,02,10,03,00,00,00,00,00
7822609900,000007BF,false,1,8,02,50,03,AA,AA,AA,AA,AA
7822676400,000007B7,false,1,8,03,19,02,08,00,00,00,00
7822679800,000007BF,false,1,8,07,59,02,FF,58,12,87,28
7822772500,000007B7,false,1,8,01,20,00,00,00,00,00,00
7822779700,000007BF,false,1,8,01,60,AA,AA,AA,AA,AA,AA
7822886500,000007DF,false,1,8,02,01,00,00,00,00,00,00
7822892500,000007EB,false,1,8,06,41,00,80,00,00,01,00
7822895300,000007EC,false,1,8,06,41,00,80,00,00,01,AA
7823130800,000007D0,false,1,8,02,10,03,00,00,00,00,00
7823560400,000007D0,false,1,8,02,10,90,00,00,00,00,00
7823998500,000007D0,false,1,8,01,20,00,00,00,00,00,00
7824443000,000007D0,false,1,8,02,10,03,00,00,00,00,00
7824882500,000007D0,false,1,8,02,10,90,00,00,00,00,00
7825316900,000007D0,false,1,8,01,20,00,00,00,00,00,00
7825762600,000007D0,false,1,8,01,20,00,00,00,00,00,00
7826360600,000007DF,false,1,8,02,01,00,00,00,00,00,00
7826369600,000007EB,false,1,8,06,41,00,80,00,00,01,00
7826371100,000007EC,false,1,8,06,41,00,80,00,00,01,AA
7826570400,000007D1,false,1,8,02,10,03,00,00,00,00,00
7826575700,000007D9,false,1,8,02,50,03,AA,AA,AA,AA,AA
7826592900,000007D1,false,1,8,02,10,90,00,00,00,00,00
7827057200,000007D1,false,1,8,01,20,00,00,00,00,00,00
7827076700,000007D9,false,1,8,01,60,AA,AA,AA,AA,AA,AA
7827125900,000007D1,false,1,8,02,10,03,00,00,00,00,00
7827130200,000007D9,false,1,8,02,50,03,AA,AA,AA,AA,AA
7827185900,000007D1,false,1,8,03,19,02,08,00,00,00,00
7827190100,000007D9,false,1,8,10,17,59,02,89,56,B6,87
7827190400,000007D1,false,1,8,30,00,05,00,00,00,00,00
7827192700,000007D9,false,1,8,21,08,56,38,08,08,58,06
7827199800,000007D9,false,1,8,22,87,08,56,14,87,08,56
7827206800,000007D9,false,1,8,23,43,08,08,AA,AA,AA,AA
7827308100,000007D1,false,1,8,01,20,00,00,00,00,00,00
7827309800,000007D9,false,1,8,01,60,AA,AA,AA,AA,AA,AA
7827517900,000007DF,false,1,8,02,01,00,00,00,00,00,00
7827525800,000007EC,false,1,8,06,41,00,80,00,00,01,AA
7827526800,000007EB,false,1,8,06,41,00,80,00,00,01,00
7827702700,000007D3,false,1,8,02,10,03,00,00,00,00,00
7828153400,000007D3,false,1,8,02,10,90,00,00,00,00,00
7828601600,000007D3,false,1,8,01,20,00,00,00,00,00,00
7829031100,000007D3,false,1,8,02,10,03,00,00,00,00,00
7829479300,000007D3,false,1,8,02,10,90,00,00,00,00,00
7829916200,000007D3,false,1,8,01,20,00,00,00,00,00,00
7830341900,000007D3,false,1,8,01,20,00,00,00,00,00,00
7830876300,000007DF,false,1,8,02,01,00,00,00,00,00,00
7830882600,000007EB,false,1,8,06,41,00,80,00,00,01,00
7830885600,000007EC,false,1,8,06,41,00,80,00,00,01,AA
7831068600,000007D2,false,1,8,02,10,03,00,00,00,00,00
7831081500,000007DA,false,1,8,02,50,03,AA,AA,AA,AA,AA
7831094800,000007D2,false,1,8,02,10,90,00,00,00,00,00
7831544200,000007D2,false,1,8,01,20,00,00,00,00,00,00
7831591000,000007DA,false,1,8,03,7F,20,78,AA,AA,AA,AA
7831620700,000007DA,false,1,8,01,60,AA,AA,AA,AA,AA,AA
7831735200,000007D2,false,1,8,02,10,03,00,00,00,00,00
7832163500,000007D2,false,1,8,02,10,90,00,00,00,00,00
7832616600,000007D2,false,1,8,01,20,00,00,00,00,00,00
7832667500,000007DA,false,1,8,03,7F,20,78,AA,AA,AA,AA
7832678200,000007DA,false,1,8,01,60,AA,AA,AA,AA,AA,AA
7832799000,000007D2,false,1,8,03,19,02,08,00,00,00,00
7833262100,000007D2,false,1,8,03,19,02,AC,00,00,00,00
7833267200,000007DA,false,1,8,03,7F,19,7F,AA,AA,AA,AA
7833393300,000007D2,false,1,8,04,18,60,FF,00,00,00,00
7833397000,000007DA,false,1,8,03,7F,18,11,AA,AA,AA,AA
7833516900,000007D2,false,1,8,04,18,20,FF,00,00,00,00
7833526900,000007DA,false,1,8,03,7F,18,11,AA,AA,AA,AA
7833582800,000007D2,false,1,8,01,20,00,00,00,00,00,00
7833586800,000007DA,false,1,8,03,7F,20,7F,AA,AA,AA,AA
7833717800,000007DF,false,1,8,02,01,00,00,00,00,00,00
7833719200,000007EB,false,1,8,06,41,00,80,00,00,01,00
7833728600,000007EC,false,1,8,06,41,00,80,00,00,01,AA
7833922700,000007D4,false,1,8,02,10,03,00,00,00,00,00
7833931700,000007DC,false,1,8,02,50,03,AA,AA,AA,AA,AA
7833949900,000007D4,false,1,8,02,10,90,00,00,00,00,00
7834390700,000007D4,false,1,8,01,20,00,00,00,00,00,00
7834401100,000007DC,false,1,8,01,60,AA,AA,AA,AA,AA,AA
7834456700,000007D4,false,1,8,02,10,03,00,00,00,00,00
7834465400,000007DC,false,1,8,02,50,03,AA,AA,AA,AA,AA
7834528100,000007D4,false,1,8,03,19,02,08,00,00,00,00
7834535300,000007DC,false,1,8,07,59,02,89,58,12,87,08
7834591700,000007D4,false,1,8,01,20,00,00,00,00,00,00
7834600600,000007DC,false,1,8,01,60,AA,AA,AA,AA,AA,AA
7834719200,000007DF,false,1,8,02,01,00,00,00,00,00,00
7834727400,000007EC,false,1,8,06,41,00,80,00,00,01,AA
7834727900,000007EB,false,1,8,06,41,00,80,00,00,01,00
7834919000,000007D5,false,1,8,02,10,03,00,00,00,00,00
7848550700,000007DF,false,1,8,02,01,00,00,00,00,00,00
7848560000,000007EC,false,1,8,06,41,00,80,00,00,01,AA
7848560800,000007EB,false,1,8,06,41,00,80,00,00,01,00
7848711000,000007DF,false,1,8,02,01,00,00,00,00,00,00
7848720000,000007EC,false,1,8,06,41,00,80,00,00,01,AA
7848720600,000007EB,false,1,8,06,41,00,80,00,00,01,00
7849243800,000007DF,false,1,8,02,01,00,00,00,00,00,00
7849249900,000007EB,false,1,8,06,41,00,80,00,00,01,00
7849253200,000007EC,false,1,8,06,41,00,80,00,00,01,AA
7849486000,000007D5,false,1,8,02,10,03,00,00,00,00,00
7849915500,000007D5,false,1,8,02,10,90,00,00,00,00,00
7850356100,000007D5,false,1,8,01,20,00,00,00,00,00,00
7850791900,000007D5,false,1,8,02,10,03,00,00,00,00,00
7851233800,000007D5,false,1,8,02,10,03,00,00,00,00,00
7851664600,000007D5,false,1,8,02,10,90,00,00,00,00,00
7852110200,000007D5,false,1,8,01,20,00,00,00,00,00,00
7852537200,000007D5,false,1,8,01,20,00,00,00,00,00,00
7853034400,000007DF,false,1,8,02,01,00,00,00,00,00,00
7853045300,000007EB,false,1,8,06,41,00,80,00,00,01,00
7853048400,000007EC,false,1,8,06,41,00,80,00,00,01,AA
7853209200,000007D6,false,1,8,02,10,03,00,00,00,00,00
7853645700,000007D6,false,1,8,02,10,90,00,00,00,00,00
7854075300,000007D6,false,1,8,01,20,00,00,00,00,00,00
7854513500,000007D6,false,1,8,02,10,03,00,00,00,00,00
7855044100,000007D6,false,1,8,02,10,90,00,00,00,00,00
7866468100,000007DF,false,1,8,02,01,00,00,00,00,00,00
7866478000,000007EC,false,1,8,06,41,00,80,00,00,01,AA
7866478700,000007EB,false,1,8,06,41,00,80,00,00,01,00
7866628900,000007DF,false,1,8,02,01,00,00,00,00,00,00
7866637800,000007EC,false,1,8,06,41,00,80,00,00,01,AA
7866638400,000007EB,false,1,8,06,41,00,80,00,00,01,00
7867171100,000007DF,false,1,8,02,01,00,00,00,00,00,00
7867177800,000007EB,false,1,8,06,41,00,80,00,00,01,00
7867181400,000007EC,false,1,8,06,41,00,80,00,00,01,AA
7867372100,000007D6,false,1,8,02,10,03,00,00,00,00,00
7867813900,000007D6,false,1,8,02,10,90,00,00,00,00,00
7868251000,000007D6,false,1,8,01,20,00,00,00,00,00,00
7868687900,000007D6,false,1,8,01,20,00,00,00,00,00,00
7869117400,000007D6,false,1,8,01,20,00,00,00,00,00,00
7869636800,000007DF,false,1,8,02,01,00,00,00,00,00,00
7869644400,000007EC,false,1,8,06,41,00,80,00,00,01,AA
7869644800,000007EB,false,1,8,06,41,00,80,00,00,01,00
7869789300,000007C1,false,1,8,02,10,03,00,00,00,00,00
7870228600,000007C1,false,1,8,02,10,90,00,00,00,00,00
7870671700,000007C1,false,1,8,01,20,00,00,00,00,00,00
7871117300,000007C1,false,1,8,02,10,03,00,00,00,00,00
7871554300,000007C1,false,1,8,02,10,90,00,00,00,00,00
7871995100,000007C1,false,1,8,01,20,00,00,00,00,00,00
7872420800,000007C1,false,1,8,01,20,00,00,00,00,00,00
7872957700,000007DF,false,1,8,02,01,00,00,00,00,00,00
7872960700,000007EB,false,1,8,06,41,00,80,00,00,01,00
7872964500,000007EC,false,1,8,06,41,00,80,00,00,01,AA
7900922000,000007DF,false,1,8,02,01,00,00,00,00,00,00
7900926100,000007EB,false,1,8,06,41,00,80,00,00,01,00
7900929800,000007EC,false,1,8,06,41,00,80,00,00,01,AA
7901080300,000007DF,false,1,8,02,01,00,00,00,00,00,00
7901085900,000007EB,false,1,8,06,41,00,80,00,00,01,00
7901089600,000007EC,false,1,8,06,41,00,80,00,00,01,AA
7908869600,000007DF,false,1,8,02,01,00,00,00,00,00,00
7908876300,000007EB,false,1,8,06,41,00,80,00,00,01,00
7908880100,000007EC,false,1,8,06,41,00,80,00,00,01,AA
7909356400,000007DF,false,1,8,02,01,00,00,00,00,00,00
7909368400,000007EB,false,1,8,06,41,00,80,00,00,01,00
7909369300,000007EC,false,1,8,06,41,00,80,00,00,01,AA
7909408900,000007DF,false,1,8,02,01,00,00,00,00,00,00
7909415700,000007EB,false,1,8,06,41,00,80,00,00,01,00
7909419400,000007EC,false,1,8,06,41,00,80,00,00,01,AA
7909461200,000007DF,false,1,8,02,01,00,00,00,00,00,00
7909466500,000007EB,false,1,8,06,41,00,80,00,00,01,00
7909469300,000007EC,false,1,8,06,41,00,80,00,00,01,AA
7909601200,000007DF,false,1,8,02,01,00,00,00,00,00,00
7909605500,000007EB,false,1,8,06,41,00,80,00,00,01,00
7909609200,000007EC,false,1,8,06,41,00,80,00,00,01,AA
7909667400,000007DF,false,1,8,02,01,20,00,00,00,00,00
7909675300,000007EC,false,1,8,06,41,20,80,01,80,01,AA
7909676400,000007EB,false,1,8,06,41,20,80,01,80,00,00
7909748600,000007DF,false,1,8,02,01,0B,00,00,00,00,00
7910181700,000007DF,false,1,8,02,01,10,00,00,00,00,00
7910632400,000007DF,false,1,8,02,01,33,00,00,00,00,00
7911061900,000007DF,false,1,8,02,01,0B,00,00,00,00,00
7911481400,000007DF,false,1,8,02,01,10,00,00,00,00,00
7986260800,000007DF,false,1,8,02,01,00,00,00,00,00,00
7986274000,000007EB,false,1,8,06,41,00,80,00,00,01,00
7986274500,000007EC,false,1,8,06,41,00,80,00,00,01,AA
7986425100,000007DF,false,1,8,02,01,00,00,00,00,00,00
7986431700,000007EB,false,1,8,06,41,00,80,00,00,01,00
7986437600,000007EC,false,1,8,06,41,00,80,00,00,01,AA
8022442700,000007DF,false,1,8,02,01,00,00,00,00,00,00
8022447700,000007EB,false,1,8,06,41,00,80,00,00,01,00
8022450900,000007EC,false,1,8,06,41,00,80,00,00,01,AA
8022601500,000007DF,false,1,8,02,01,00,00,00,00,00,00
8022607800,000007EB,false,1,8,06,41,00,80,00,00,01,00
8022615300,000007EC,false,1,8,06,41,00,80,00,00,01,AA
8023158000,000007DF,false,1,8,02,01,00,00,00,00,00,00
8023168000,000007EB,false,1,8,06,41,00,80,00,00,01,00
8023168300,000007EC,false,1,8,06,41,00,80,00,00,01,AA
8023374400,000007C4,false,1,8,02,10,03,00,00,00,00,00
8023381700,000007CC,false,1,8,06,50,03,00,32,01,F4,AA
8023397300,000007C4,false,1,8,02,10,90,00,00,00,00,00
8035181200,000007DF,false,1,8,02,01,00,00,00,00,00,00
8035192400,000007EB,false,1,8,06,41,00,80,00,00,01,00
8035192700,000007EC,false,1,8,06,41,00,80,00,00,01,AA
8035343000,000007DF,false,1,8,02,01,00,00,00,00,00,00
8035353000,000007EB,false,1,8,06,41,00,80,00,00,01,00
8035353300,000007EC,false,1,8,06,41,00,80,00,00,01,AA
8035832000,000007DF,false,1,8,02,01,00,00,00,00,00,00
8035841700,000007EB,false,1,8,06,41,00,80,00,00,01,00
8035842000,000007EC,false,1,8,06,41,00,80,00,00,01,AA
8036106600,000007C4,false,1,8,02,10,03,00,00,00,00,00
8036116500,000007CC,false,1,8,06,50,03,00,32,01,F4,AA
8036137800,000007C4,false,1,8,02,10,90,00,00,00,00,00
8036603500,000007C4,false,1,8,01,20,00,00,00,00,00,00
8037046700,000007C4,false,1,8,02,10,90,00,00,00,00,00
8037487400,000007C4,false,1,8,02,10,90,00,00,00,00,00
8037923100,000007C4,false,1,8,01,20,00,00,00,00,00,00
8038386300,000007C4,false,1,8,01,20,00,00,00,00,00,00
8038394100,000007CC,false,1,8,01,60,AA,AA,AA,AA,AA,AA
8038517400,000007DF,false,1,8,02,01,00,00,00,00,00,00
8038527900,000007EB,false,1,8,06,41,00,80,00,00,01,00
8038528200,000007EC,false,1,8,06,41,00,80,00,00,01,AA
8038710900,000007C5,false,1,8,02,10,03,00,00,00,00,00
8039150400,000007C5,false,1,8,02,10,90,00,00,00,00,00
8039601000,000007C5,false,1,8,01,20,00,00,00,00,00,00
8040028000,000007C5,false,1,8,02,10,03,00,00,00,00,00
8040481200,000007C5,false,1,8,02,10,90,00,00,00,00,00
8040926900,000007C5,false,1,8,01,20,00,00,00,00,00,00
8041395000,000007C5,false,1,8,01,20,00,00,00,00,00,00
8068380600,000007DF,false,1,8,02,01,00,00,00,00,00,00
8068391300,000007EB,false,1,8,06,41,00,80,00,00,01,00
8068391600,000007EC,false,1,8,06,41,00,80,00,00,01,AA
8068541900,000007DF,false,1,8,02,01,00,00,00,00,00,00
8068551700,000007EB,false,1,8,06,41,00,80,00,00,01,00
8068552000,000007EC,false,1,8,06,41,00,80,00,00,01,AA
8077533800,000007DF,false,1,8,02,01,00,00,00,00,00,00
8077538100,000007EB,false,1,8,06,41,00,80,00,00,01,00
8077548000,000007EC,false,1,8,06,41,00,80,00,00,01,AA
8078024500,000007DF,false,1,8,02,01,00,00,00,00,00,00
8078027500,000007EB,false,1,8,06,41,00,80,00,00,01,00
8078032900,000007EC,false,1,8,06,41,00,80,00,00,01,AA
8078088200,000007DF,false,1,8,02,01,00,00,00,00,00,00
8078097400,000007EB,false,1,8,06,41,00,80,00,00,01,00
8078100800,000007EC,false,1,8,06,41,00,80,00,00,01,AA
8078155600,000007DF,false,1,8,02,01,00,00,00,00,00,00
8078167300,000007EB,false,1,8,06,41,00,80,00,00,01,00
8078170000,000007EC,false,1,8,06,41,00,80,00,00,01,AA
8078299100,000007DF,false,1,8,02,01,00,00,00,00,00,00
8078307100,000007EB,false,1,8,06,41,00,80,00,00,01,00
8078309800,000007EC,false,1,8,06,41,00,80,00,00,01,AA
8078350300,000007DF,false,1,8,02,01,20,00,00,00,00,00
8078367100,000007EB,false,1,8,06,41,20,80,01,80,00,00
8078369700,000007EC,false,1,8,06,41,20,80,01,80,01,AA
8078425200,000007DF,false,1,8,02,01,33,00,00,00,00,00
8078862200,000007DF,false,1,8,02,01,0D,00,00,00,00,00
8079302900,000007DF,false,1,8,02,01,0D,00,00,00,00,00
8079765100,000007DF,false,1,8,02,01,0D,00,00,00,00,00
8080183100,000007DF,false,1,8,02,01,0D,00,00,00,00,00
8080663700,000007DF,false,1,8,02,01,0D,00,00,00,00,00
8081101900,000007DF,false,1,8,02,01,0D,00,00,00,00,00
8081540100,000007DF,false,1,8,02,01,0D,00,00,00,00,00
8081965800,000007DF,false,1,8,02,01,0C,00,00,00,00,00
8082396600,000007DF,false,1,8,02,01,0C,00,00,00,00,00
8082822300,000007DF,false,1,8,02,01,0C,00,00,00,00,00
8083249200,000007DF,false,1,8,02,01,0C,00,00,00,00,00
8083671200,000007DF,false,1,8,02,01,0C,00,00,00,00,00
8101610500,000007DF,false,1,8,02,01,00,00,00,00,00,00
8101621000,000007EB,false,1,8,06,41,00,80,00,00,01,00
8101621300,000007EC,false,1,8,06,41,00,80,00,00,01,AA
8101771800,000007DF,false,1,8,02,01,00,00,00,00,00,00
8101778200,000007EB,false,1,8,06,41,00,80,00,00,01,00
8101780800,000007EC,false,1,8,06,41,00,80,00,00,01,AA
8102263900,000007DF,false,1,8,02,01,00,00,00,00,00,00
8102271200,000007EB,false,1,8,06,41,00,80,00,00,01,00
8102273200,000007EC,false,1,8,06,41,00,80,00,00,01,AA
8102599600,000007C7,false,1,8,02,10,03,00,00,00,00,00
8103037800,000007C7,false,1,8,02,10,90,00,00,00,00,00
8103472200,000007C7,false,1,8,01,20,00,00,00,00,00,00
8103918000,000007C7,false,1,8,02,10,03,00,00,00,00,00
8104359900,000007C7,false,1,8,02,10,03,00,00,00,00,00
8104794400,000007C7,false,1,8,02,10,90,00,00,00,00,00
8130989000,000007DF,false,1,8,02,01,00,00,00,00,00,00
8130996000,000007EB,false,1,8,06,41,00,80,00,00,01,00
8130998000,000007EC,false,1,8,06,41,00,80,00,00,01,AA
8131148300,000007DF,false,1,8,02,01,00,00,00,00,00,00
8131151900,000007EB,false,1,8,06,41,00,80,00,00,01,00
8131157800,000007EC,false,1,8,06,41,00,80,00,00,01,AA
8131684700,000007DF,false,1,8,02,01,00,00,00,00,00,00
8131701200,000007EB,false,1,8,06,41,00,80,00,00,01,00
8131703800,000007EC,false,1,8,06,41,00,80,00,00,01,AA
8131877200,000007C7,false,1,8,02,10,03,00,00,00,00,00
8143790900,000007DF,false,1,8,02,01,00,00,00,00,00,00
8143796300,000007EB,false,1,8,06,41,00,80,00,00,01,00
8143798800,000007EC,false,1,8,06,41,00,80,00,00,01,AA
8143949200,000007DF,false,1,8,02,01,00,00,00,00,00,00
8143956100,000007EB,false,1,8,06,41,00,80,00,00,01,00
8143959100,000007EC,false,1,8,06,41,00,80,00,00,01,AA
8144453800,000007DF,false,1,8,02,01,00,00,00,00,00,00
8144455500,000007EB,false,1,8,06,41,00,80,00,00,01,00
8144468500,000007EC,false,1,8,06,41,00,80,00,00,01,AA
8144721000,000007C7,false,1,8,02,10,03,00,00,00,00,00
8145190500,000007C7,false,1,8,02,10,90,00,00,00,00,00
8145638500,000007C7,false,1,8,01,20,00,00,00,00,00,00
8146068100,000007C7,false,1,8,03,19,02,08,00,00,00,00
8146516300,000007C7,false,1,8,03,19,02,08,00,00,00,00
8146948200,000007C7,false,1,8,03,19,02,AC,00,00,00,00
8147377700,000007C7,false,1,8,03,19,02,AF,00,00,00,00
8147824700,000007C7,false,1,8,04,18,00,FF,00,00,00,00
8148262900,000007C7,false,1,8,04,18,02,FF,00,00,00,00
8148689900,000007C7,false,1,8,04,18,00,80,00,00,00,00
8149139300,000007C7,false,1,8,04,18,02,80,00,00,00,00
8149588800,000007C7,false,1,8,04,18,20,FF,00,00,00,00
8150028200,000007C7,false,1,8,04,18,60,FF,00,00,00,00
8150456200,000007C7,false,1,8,04,18,00,40,00,00,00,00
8183452700,000007DF,false,1,8,02,01,00,00,00,00,00,00
8183457300,000007EB,false,1,8,06,41,00,80,00,00,01,00
8183460500,000007EC,false,1,8,06,41,00,80,00,00,01,AA
8183611000,000007DF,false,1,8,02,01,00,00,00,00,00,00
8183620500,000007EB,false,1,8,06,41,00,80,00,00,01,00
8183620900,000007EC,false,1,8,06,41,00,80,00,00,01,AA
8191390000,000007DF,false,1,8,02,01,00,00,00,00,00,00
8191397500,000007EB,false,1,8,06,41,00,80,00,00,01,00
8191400500,000007EC,false,1,8,06,41,00,80,00,00,01,AA
8191914400,000007DF,false,1,8,02,01,00,00,00,00,00,00
8191916800,000007EB,false,1,8,06,41,00,80,00,00,01,00
8191923300,000007EC,false,1,8,06,41,00,80,00,00,01,AA
8191969200,000007DF,false,1,8,02,01,00,00,00,00,00,00
8191976900,000007EB,false,1,8,06,41,00,80,00,00,01,00
8191979900,000007EC,false,1,8,06,41,00,80,00,00,01,AA
8192046500,000007DF,false,1,8,02,01,00,00,00,00,00,00
8192053200,000007EC,false,1,8,06,41,00,80,00,00,01,AA
8192056800,000007EB,false,1,8,06,41,00,80,00,00,01,00
8192217600,000007DF,false,1,8,02,01,00,00,00,00,00,00
8192226500,000007EB,false,1,8,06,41,00,80,00,00,01,00
8192233000,000007EC,false,1,8,06,41,00,80,00,00,01,AA
8192273600,000007DF,false,1,8,02,01,20,00,00,00,00,00
8192276400,000007EB,false,1,8,06,41,20,80,01,80,00,00
8192282900,000007EC,false,1,8,06,41,20,80,01,80,01,AA
8192322500,000007DF,false,1,8,02,01,40,00,00,00,00,00
8192332800,000007EC,false,1,8,06,41,40,00,00,00,20,AA
8192388699,000007DF,false,1,8,02,01,0C,00,00,00,00,00
8192808100,000007DF,false,1,8,02,01,0C,00,00,00,00,00
8193263800,000007DF,false,1,8,02,01,0C,00,00,00,00,00
8193685799,000007DF,false,1,8,02,01,0C,00,00,00,00,00
8194101500,000007DF,false,1,8,02,01,0C,00,00,00,00,00
8228178099,000007DF,false,1,8,02,01,00,00,00,00,00,00
8228183499,000007EB,false,1,8,06,41,00,80,00,00,01,00
8228188899,000007EC,false,1,8,06,41,00,80,00,00,01,AA
8228339400,000007DF,false,1,8,02,01,00,00,00,00,00,00
8228341899,000007EB,false,1,8,06,41,00,80,00,00,01,00
8228348700,000007EC,false,1,8,06,41,00,80,00,00,01,AA
8228943600,000007DF,false,1,8,02,01,00,00,00,00,00,00
8228951100,000007EB,false,1,8,06,41,00,80,00,00,01,00
8228954500,000007EC,false,1,8,06,41,00,80,00,00,01,AA
8229155800,000007C6,false,1,8,02,10,03,00,00,00,00,00
8229176299,000007CE,false,1,8,06,50,03,00,32,01,F4,AA
8229294400,000007C6,false,1,8,02,10,90,00,00,00,00,00
8229732800,000007C6,false,1,8,01,20,00,00,00,00,00,00
8229748000,000007CE,false,1,8,01,60,AA,AA,AA,AA,AA,AA
8229798699,000007C6,false,1,8,02,10,03,00,00,00,00,00
8229818400,000007CE,false,1,8,06,50,03,00,32,01,F4,AA
8229887500,000007C6,false,1,8,03,19,02,08,00,00,00,00
8229898700,000007CE,false,1,8,07,59,02,09,90,01,52,09
8229976000,000007C6,false,1,8,01,20,00,00,00,00,00,00
8229988900,000007CE,false,1,8,01,60,AA,AA,AA,AA,AA,AA
8230227000,000007DF,false,1,8,02,01,00,00,00,00,00,00
8230229499,000007EB,false,1,8,06,41,00,80,00,00,01,00
8230236400,000007EC,false,1,8,06,41,00,80,00,00,01,AA
8230420500,00000730,false,1,8,02,10,03,00,00,00,00,00
8230860000,00000730,false,1,8,02,10,90,00,00,00,00,00
8231301900,00000730,false,1,8,01,20,00,00,00,00,00,00
8231767599,00000730,false,1,8,02,10,03,00,00,00,00,00
8232214500,00000730,false,1,8,02,10,90,00,00,00,00,00
8232648999,00000730,false,1,8,01,20,00,00,00,00,00,00
8233088400,00000730,false,1,8,01,20,00,00,00,00,00,00
8233631600,000007DF,false,1,8,02,01,00,00,00,00,00,00
8233635300,000007EB,false,1,8,06,41,00,80,00,00,01,00
8233642200,000007EC,false,1,8,06,41,00,80,00,00,01,AA
8233691500,000007DF,false,1,8,02,01,00,00,00,00,00,00
8233695200,000007EB,false,1,8,06,41,00,80,00,00,01,00
8233702200,000007EC,false,1,8,06,41,00,80,00,00,01,AA
8233918700,000007DF,false,1,8,02,01,00,00,00,00,00,00
8233924999,000007EB,false,1,8,06,41,00,80,00,00,01,00
8233928400,000007EC,false,1,8,06,41,00,80,00,00,01,AA
8234150799,000007DF,false,1,8,02,01,00,00,00,00,00,00
8234164699,000007EB,false,1,8,06,41,00,80,00,00,01,00
8234171000,000007EC,false,1,8,06,41,00,80,00,00,01,AA
8234396900,000007DF,false,1,8,02,01,00,00,00,00,00,00
8234404399,000007EB,false,1,8,06,41,00,80,00,00,01,00
8234407800,000007EC,false,1,8,06,41,00,80,00,00,01,AA
8247358500,000007DF,false,1,8,02,01,00,00,00,00,00,00
8247368300,000007EB,false,1,8,06,41,00,80,00,00,01,00
8247371300,000007EC,false,1,8,06,41,00,80,00,00,01,AA
8247521800,000007DF,false,1,8,02,01,00,00,00,00,00,00
8247528200,000007EB,false,1,8,06,41,00,80,00,00,01,00
8247531300,000007EC,false,1,8,06,41,00,80,00,00,01,AA
8248034100,000007DF,false,1,8,02,01,00,00,00,00,00,00
8248052000,000007EB,false,1,8,06,41,00,80,00,00,01,00
8248052400,000007EC,false,1,8,06,41,00,80,00,00,01,AA
8248151400,000007DF,false,1,8,02,01,00,00,00,00,00,00
8248161300,000007EB,false,1,8,06,41,00,80,00,00,01,00
8248164500,000007EC,false,1,8,06,41,00,80,00,00,01,AA
8248383700,000007DF,false,1,8,02,01,00,00,00,00,00,00
8248387100,000007EB,false,1,8,06,41,00,80,00,00,01,00
8248394200,000007EC,false,1,8,06,41,00,80,00,00,01,AA
8248622100,000007DF,false,1,8,02,01,00,00,00,00,00,00
8248626800,000007EB,false,1,8,06,41,00,80,00,00,01,00
8248630700,000007EC,false,1,8,06,41,00,80,00,00,01,AA
8248803099,000007DF,false,1,8,02,01,00,00,00,00,00,00
8248806600,000007EB,false,1,8,06,41,00,80,00,00,01,00
8248813700,000007EC,false,1,8,06,41,00,80,00,00,01,AA
8249041600,000007DF,false,1,8,02,01,00,00,00,00,00,00
8249060500,000007EB,false,1,8,06,41,00,80,00,00,01,00
8249060799,000007EC,false,1,8,06,41,00,80,00,00,01,AA
8249273700,000007DF,false,1,8,02,01,00,00,00,00,00,00
8249276000,000007EB,false,1,8,06,41,00,80,00,00,01,00
8249283200,000007EC,false,1,8,06,41,00,80,00,00,01,AA
8249519800,000007DF,false,1,8,02,01,00,00,00,00,00,00
8249525700,000007EB,false,1,8,06,41,00,80,00,00,01,00
8249528800,000007EC,false,1,8,06,41,00,80,00,00,01,AA
8249733200,000007DF,false,1,8,02,01,00,00,00,00,00,00
8249751600,000007EB,false,1,8,06,41,00,80,00,00,01,00
8249752100,000007EC,false,1,8,06,41,00,80,00,00,01,AA
8249961700,000007DF,false,1,8,02,01,00,00,00,00,00,00
8249965200,000007EB,false,1,8,06,41,00,80,00,00,01,00
8249972200,000007EC,false,1,8,06,41,00,80,00,00,01,AA
8250206399,000007DF,false,1,8,02,01,00,00,00,00,00,00
8250214800,000007EB,false,1,8,06,41,00,80,00,00,01,00
8250218000,000007EC,false,1,8,06,41,00,80,00,00,01,AA
8250463599,000007DF,false,1,8,02,01,00,00,00,00,00,00
8250464599,000007EB,false,1,8,06,41,00,80,00,00,01,00
8250471600,000007EC,false,1,8,06,41,00,80,00,00,01,AA
8250677100,000007DF,false,1,8,02,01,00,00,00,00,00,00
8250684300,000007EB,false,1,8,06,41,00,80,00,00,01,00
8250687700,000007EC,false,1,8,06,41,00,80,00,00,01,AA
8250855600,000007DF,false,1,8,02,01,00,00,00,00,00,00
8250864000,000007EB,false,1,8,06,41,00,80,00,00,01,00
8250867000,000007EC,false,1,8,06,41,00,80,00,00,01,AA
8251086600,000007DF,false,1,8,02,01,00,00,00,00,00,00
8251093800,000007EB,false,1,8,06,41,00,80,00,00,01,00
8251096900,000007EC,false,1,8,06,41,00,80,00,00,01,AA
8251318700,000007DF,false,1,8,02,01,00,00,00,00,00,00
8251323500,000007EB,false,1,8,06,41,00,80,00,00,01,00
8251326600,000007EC,false,1,8,06,41,00,80,00,00,01,AA
8251539800,000007DF,false,1,8,02,01,00,00,00,00,00,00
8251556600,000007EB,false,1,8,06,41,00,80,00,00,01,00
8251556900,000007EC,false,1,8,06,41,00,80,00,00,01,AA
8251769500,000007DF,false,1,8,02,01,00,00,00,00,00,00
8251772900,000007EB,false,1,8,06,41,00,80,00,00,01,00
8251780000,000007EC,false,1,8,06,41,00,80,00,00,01,AA
8252001700,000007DF,false,1,8,02,01,00,00,00,00,00,00
8252002600,000007EB,false,1,8,06,41,00,80,00,00,01,00
8252009700,000007EC,false,1,8,06,41,00,80,00,00,01,AA
8252215200,000007DF,false,1,8,02,01,00,00,00,00,00,00
8252222400,000007EB,false,1,8,06,41,00,80,00,00,01,00
8252225500,000007EC,false,1,8,06,41,00,80,00,00,01,AA
8252443600,000007DF,false,1,8,02,01,00,00,00,00,00,00
8252455599,000007EB,false,1,8,06,41,00,80,00,00,01,00
8252455900,000007EC,false,1,8,06,41,00,80,00,00,01,AA
8252676100,000007DF,false,1,8,02,01,00,00,00,00,00,00
8252681800,000007EB,false,1,8,06,41,00,80,00,00,01,00
8252685200,000007EC,false,1,8,06,41,00,80,00,00,01,AA
8252860600,000007DF,false,1,8,02,01,00,00,00,00,00,00
8252861500,000007EB,false,1,8,06,41,00,80,00,00,01,00
8252868700,000007EC,false,1,8,06,41,00,80,00,00,01,AA
8253074199,000007DF,false,1,8,02,01,00,00,00,00,00,00
8253081300,000007EB,false,1,8,06,41,00,80,00,00,01,00
8253084699,000007EC,false,1,8,06,41,00,80,00,00,01,AA
8253306300,000007DF,false,1,8,02,01,00,00,00,00,00,00
8253311100,000007EB,false,1,8,06,41,00,80,00,00,01,00
8253314200,000007EC,false,1,8,06,41,00,80,00,00,01,AA
8253512300,000007DF,false,1,8,02,01,00,00,00,00,00,00
8253520800,000007EB,false,1,8,06,41,00,80,00,00,01,00
8253523900,000007EC,false,1,8,06,41,00,80,00,00,01,AA
8253743300,000007DF,false,1,8,02,01,00,00,00,00,00,00
8253753800,000007EB,false,1,8,06,41,00,80,00,00,01,00
8253757600,000007EC,false,1,8,06,41,00,80,00,00,01,AA
8253964300,000007DF,false,1,8,02,01,00,00,00,00,00,00
8253970200,000007EB,false,1,8,06,41,00,80,00,00,01,00
8253973400,000007EC,false,1,8,06,41,00,80,00,00,01,AA
8266541400,000007DF,false,1,8,02,01,00,00,00,00,00,00
8266544700,000007EB,false,1,8,06,41,00,80,00,00,01,00
8266551900,000007EC,false,1,8,06,41,00,80,00,00,01,AA
8266702200,000007DF,false,1,8,02,01,00,00,00,00,00,00
8266704500,000007EB,false,1,8,06,41,00,80,00,00,01,00
8266718699,000007EC,false,1,8,06,41,00,80,00,00,01,AA
8267168100,000007DF,false,1,8,02,01,00,00,00,00,00,00
8267173900,000007EB,false,1,8,06,41,00,80,00,00,01,00
8267177200,000007EC,false,1,8,06,41,00,80,00,00,01,AA
8267288100,000007DF,false,1,8,02,01,00,00,00,00,00,00
8267293799,000007EB,false,1,8,06,41,00,80,00,00,01,00
8267297100,000007EC,false,1,8,06,41,00,80,00,00,01,AA
8267456500,000007DF,false,1,8,02,01,00,00,00,00,00,00
8267463599,000007EB,false,1,8,06,41,00,80,00,00,01,00
8267467000,000007EC,false,1,8,06,41,00,80,00,00,01,AA
8267707600,000007DF,false,1,8,02,01,00,00,00,00,00,00
8267717500,000007EB,false,1,8,06,41,00,80,00,00,01,00
8267717800,000007EC,false,1,8,06,41,00,80,00,00,01,AA
8267939600,000007DF,false,1,8,02,01,00,00,00,00,00,00
8267942900,000007EB,false,1,8,06,41,00,80,00,00,01,00
8267950199,000007EC,false,1,8,06,41,00,80,00,00,01,AA
8268171700,000007DF,false,1,8,02,01,00,00,00,00,00,00
8268172699,000007EB,false,1,8,06,41,00,80,00,00,01,00
8268179899,000007EC,false,1,8,06,41,00,80,00,00,01,AA
8268392800,000007DF,false,1,8,02,01,00,00,00,00,00,00
8268399700,000007EC,false,1,8,06,41,00,80,00,00,01,AA
8268402400,000007EB,false,1,8,06,41,00,80,00,00,01,00
8268652500,000007DF,false,1,8,02,01,00,00,00,00,00,00
8268659299,000007EC,false,1,8,06,41,00,80,00,00,01,AA
8268662100,000007EB,false,1,8,06,41,00,80,00,00,01,00
8268871100,000007DF,false,1,8,02,01,00,00,00,00,00,00
8268879100,000007EC,false,1,8,06,41,00,80,00,00,01,AA
8268881799,000007EB,false,1,8,06,41,00,80,00,00,01,00
8269116900,000007DF,false,1,8,02,01,00,00,00,00,00,00
8269141500,000007EB,false,1,8,06,41,00,80,00,00,01,00
8269144600,000007EC,false,1,8,06,41,00,80,00,00,01,AA
8269355400,000007DF,false,1,8,02,01,00,00,00,00,00,00
8269361199,000007EB,false,1,8,06,41,00,80,00,00,01,00
8269364700,000007EC,false,1,8,06,41,00,80,00,00,01,AA
8269536400,000007DF,false,1,8,02,01,00,00,00,00,00,00
8269540999,000007EB,false,1,8,06,41,00,80,00,00,01,00
8269544099,000007EC,false,1,8,06,41,00,80,00,00,01,AA
8269774900,000007DF,false,1,8,02,01,00,00,00,00,00,00
8269780699,000007EB,false,1,8,06,41,00,80,00,00,01,00
8269784500,000007EC,false,1,8,06,41,00,80,00,00,01,AA
8269972000,000007DF,false,1,8,02,01,00,00,00,00,00,00
8269980400,000007EB,false,1,8,06,41,00,80,00,00,01,00
8269984300,000007EC,false,1,8,06,41,00,80,00,00,01,AA
8270193100,000007DF,false,1,8,02,01,00,00,00,00,00,00
8270200199,000007EB,false,1,8,06,41,00,80,00,00,01,00
8270203400,000007EC,false,1,8,06,41,00,80,00,00,01,AA
8270427799,000007DF,false,1,8,02,01,00,00,00,00,00,00
8270437200,000007EC,false,1,8,06,41,00,80,00,00,01,AA
8270439899,000007EB,false,1,8,06,41,00,80,00,00,01,00
8270653700,000007DF,false,1,8,02,01,00,00,00,00,00,00
8270659600,000007EB,false,1,8,06,41,00,80,00,00,01,00
8270663000,000007EC,false,1,8,06,41,00,80,00,00,01,AA
8270899700,000007DF,false,1,8,02,01,00,00,00,00,00,00
8270913600,000007EB,false,1,8,06,41,00,80,00,00,01,00
8270913900,000007EC,false,1,8,06,41,00,80,00,00,01,AA
8271063399,000007DF,false,1,8,02,01,00,00,00,00,00,00
8271069100,000007EB,false,1,8,06,41,00,80,00,00,01,00
8271072399,000007EC,false,1,8,06,41,00,80,00,00,01,AA
8271282900,000007DF,false,1,8,02,01,00,00,00,00,00,00
8271288900,000007EB,false,1,8,06,41,00,80,00,00,01,00
8271292200,000007EC,false,1,8,06,41,00,80,00,00,01,AA
8271528899,000007DF,false,1,8,02,01,00,00,00,00,00,00
8271538500,000007EB,false,1,8,06,41,00,80,00,00,01,00
8271541600,000007EC,false,1,8,06,41,00,80,00,00,01,AA
8271692600,000007DF,false,1,8,02,01,00,00,00,00,00,00
8271698300,000007EB,false,1,8,06,41,00,80,00,00,01,00
8271701600,000007EC,false,1,8,06,41,00,80,00,00,01,AA
8271912100,000007DF,false,1,8,02,01,00,00,00,00,00,00
8271918100,000007EB,false,1,8,06,41,00,80,00,00,01,00
8271931500,000007EC,false,1,8,06,41,00,80,00,00,01,AA
8272158200,000007DF,false,1,8,02,01,00,00,00,00,00,00
8272167799,000007EB,false,1,8,06,41,00,80,00,00,01,00
8272171100,000007EC,false,1,8,06,41,00,80,00,00,01,AA
8272396600,000007DF,false,1,8,02,01,00,00,00,00,00,00
8272411800,000007EB,false,1,8,06,41,00,80,00,00,01,00
8272412000,000007EC,false,1,8,06,41,00,80,00,00,01,AA
8272617600,000007DF,false,1,8,02,01,00,00,00,00,00,00
8272630499,000007EB,false,1,8,06,41,00,80,00,00,01,00
8272630800,000007EC,false,1,8,06,41,00,80,00,00,01,AA
8272849800,000007DF,false,1,8,02,01,00,00,00,00,00,00
8272856900,000007EB,false,1,8,06,41,00,80,00,00,01,00
8272860300,000007EC,false,1,8,06,41,00,80,00,00,01,AA
8273084500,000007DF,false,1,8,02,01,00,00,00,00,00,00
8273086600,000007EB,false,1,8,06,41,00,80,00,00,01,00
8273094100,000007EC,false,1,8,06,41,00,80,00,00,01,AA
8285815199,000007DF,false,1,8,02,01,00,00,00,00,00,00
8285820900,000007EB,false,1,8,06,41,00,80,00,00,01,00
8285824100,000007EC,false,1,8,06,41,00,80,00,00,01,AA
8285974500,000007DF,false,1,8,02,01,00,00,00,00,00,00
8285980700,000007EB,false,1,8,06,41,00,80,00,00,01,00
8285984100,000007EC,false,1,8,06,41,00,80,00,00,01,AA
8286516799,000007DF,false,1,8,02,01,00,00,00,00,00,00
8286520000,000007EB,false,1,8,06,41,00,80,00,00,01,00
8286527500,000007EC,false,1,8,06,41,00,80,00,00,01,AA
8286610300,000007DF,false,1,8,02,01,00,00,00,00,00,00
8286619900,000007EB,false,1,8,06,41,00,80,00,00,01,00
8286623100,000007EC,false,1,8,06,41,00,80,00,00,01,AA
8286817600,000007DF,false,1,8,02,01,00,00,00,00,00,00
8286819600,000007EB,false,1,8,06,41,00,80,00,00,01,00
8286827100,000007EC,false,1,8,06,41,00,80,00,00,01,AA
8287052299,000007DF,false,1,8,02,01,00,00,00,00,00,00
8287059300,000007EB,false,1,8,06,41,00,80,00,00,01,00
8287062800,000007EC,false,1,8,06,41,00,80,00,00,01,AA
8287265799,000007DF,false,1,8,02,01,00,00,00,00,00,00
8287269100,000007EB,false,1,8,06,41,00,80,00,00,01,00
8287276500,000007EC,false,1,8,06,41,00,80,00,00,01,AA
8287470400,000007DF,false,1,8,02,01,00,00,00,00,00,00
8287478900,000007EB,false,1,8,06,41,00,80,00,00,01,00
8287482200,000007EC,false,1,8,06,41,00,80,00,00,01,AA
8287691500,000007DF,false,1,8,02,01,00,00,00,00,00,00
8287706899,000007EB,false,1,8,06,41,00,80,00,00,01,00
8287707100,000007EC,false,1,8,06,41,00,80,00,00,01,AA
8287921200,000007DF,false,1,8,02,01,00,00,00,00,00,00
8287928300,000007EB,false,1,8,06,41,00,80,00,00,01,00
8287931800,000007EC,false,1,8,06,41,00,80,00,00,01,AA
8288173400,000007DF,false,1,8,02,01,00,00,00,00,00,00
8288178000,000007EB,false,1,8,06,41,00,80,00,00,01,00
8288181399,000007EC,false,1,8,06,41,00,80,00,00,01,AA
8288337000,000007DF,false,1,8,02,01,00,00,00,00,00,00
8288345200,000007EC,false,1,8,06,41,00,80,00,00,01,AA
8288347800,000007EB,false,1,8,06,41,00,80,00,00,01,00
8288542900,000007DF,false,1,8,02,01,00,00,00,00,00,00
8288547500,000007EB,false,1,8,06,41,00,80,00,00,01,00
8288550999,000007EC,false,1,8,06,41,00,80,00,00,01,AA
8288775200,000007DF,false,1,8,02,01,00,00,00,00,00,00
8288777200,000007EB,false,1,8,06,41,00,80,00,00,01,00
8288791700,000007EC,false,1,8,06,41,00,80,00,00,01,AA
8289029900,000007DF,false,1,8,02,01,00,00,00,00,00,00
8289037000,000007EB,false,1,8,06,41,00,80,00,00,01,00
8289040300,000007EC,false,1,8,06,41,00,80,00,00,01,AA
8289243500,000007DF,false,1,8,02,01,00,00,00,00,00,00
8289246600,000007EB,false,1,8,06,41,00,80,00,00,01,00
8289254100,000007EC,false,1,8,06,41,00,80,00,00,01,AA
8289475600,000007DF,false,1,8,02,01,00,00,00,00,00,00
8289490900,000007EB,false,1,8,06,41,00,80,00,00,01,00
8289491200,000007EC,false,1,8,06,41,00,80,00,00,01,AA
8289696500,000007DF,false,1,8,02,01,00,00,00,00,00,00
8289709600,000007EB,false,1,8,06,41,00,80,00,00,01,00
8289713599,000007EC,false,1,8,06,41,00,80,00,00,01,AA
8289928700,000007DF,false,1,8,02,01,00,00,00,00,00,00
8289935799,000007EB,false,1,8,06,41,00,80,00,00,01,00
8289939300,000007EC,false,1,8,06,41,00,80,00,00,01,AA
8290133500,000007DF,false,1,8,02,01,00,00,00,00,00,00
8290135600,000007EB,false,1,8,06,41,00,80,00,00,01,00
8290143000,000007EC,false,1,8,06,41,00,80,00,00,01,AA
8290354400,000007DF,false,1,8,02,01,00,00,00,00,00,00
8290362800,000007EC,false,1,8,06,41,00,80,00,00,01,AA
8290365299,000007EB,false,1,8,06,41,00,80,00,00,01,00
8290600399,000007DF,false,1,8,02,01,00,00,00,00,00,00
8290608500,000007EB,false,1,8,06,41,00,80,00,00,01,00
8290612499,000007EC,false,1,8,06,41,00,80,00,00,01,AA
8290838900,000007DF,false,1,8,02,01,00,00,00,00,00,00
8290844700,000007EB,false,1,8,06,41,00,80,00,00,01,00
8290848200,000007EC,false,1,8,06,41,00,80,00,00,01,AA
8291059800,000007DF,false,1,8,02,01,00,00,00,00,00,00
8291064399,000007EB,false,1,8,06,41,00,80,00,00,01,00
8291067900,000007EC,false,1,8,06,41,00,80,00,00,01,AA
8291267099,000007DF,false,1,8,02,01,00,00,00,00,00,00
8291274100,000007EB,false,1,8,06,41,00,80,00,00,01,00
8291277599,000007EC,false,1,8,06,41,00,80,00,00,01,AA
8291479300,000007DF,false,1,8,02,01,00,00,00,00,00,00
8291502300,000007EB,false,1,8,06,41,00,80,00,00,01,00
8291502500,000007EC,false,1,8,06,41,00,80,00,00,01,AA
8291686600,000007DF,false,1,8,02,01,00,00,00,00,00,00
8291701999,000007EB,false,1,8,06,41,00,80,00,00,01,00
8291702300,000007EC,false,1,8,06,41,00,80,00,00,01,AA
8291948700,000007DF,false,1,8,02,01,00,00,00,00,00,00
8291953299,000007EB,false,1,8,06,41,00,80,00,00,01,00
8291957100,000007EC,false,1,8,06,41,00,80,00,00,01,AA
8292161000,000007DF,false,1,8,02,01,00,00,00,00,00,00
8292163000,000007EB,false,1,8,06,41,00,80,00,00,01,00
8292170500,000007EC,false,1,8,06,41,00,80,00,00,01,AA
8292381900,000007DF,false,1,8,02,01,00,00,00,00,00,00
8292399900,000007EB,false,1,8,06,41,00,80,00,00,01,00
8292400100,000007EC,false,1,8,06,41,00,80,00,00,01,AA
8304992600,000007DF,false,1,8,02,01,00,00,00,00,00,00
8304997300,000007EB,false,1,8,06,41,00,80,00,00,01,00
8305000599,000007EC,false,1,8,06,41,00,80,00,00,01,AA
8305150900,000007DF,false,1,8,02,01,00,00,00,00,00,00
8305157100,000007EB,false,1,8,06,41,00,80,00,00,01,00
8305160599,000007EC,false,1,8,06,41,00,80,00,00,01,AA
8305654200,000007DF,false,1,8,02,01,00,00,00,00,00,00
8305656499,000007EB,false,1,8,06,41,00,80,00,00,01,00
8305671000,000007EC,false,1,8,06,41,00,80,00,00,01,AA
8305770300,000007DF,false,1,8,02,01,00,00,00,00,00,00
8305777500,000007EB,false,1,8,06,41,00,80,00,00,01,00
8305782700,000007EC,false,1,8,06,41,00,80,00,00,01,AA
8305977600,000007DF,false,1,8,02,01,00,00,00,00,00,00
8305989700,000007EB,false,1,8,06,41,00,80,00,00,01,00
8305990000,000007EC,false,1,8,06,41,00,80,00,00,01,AA
8306207300,000007DF,false,1,8,02,01,00,00,00,00,00,00
8306213299,000007EC,false,1,8,06,41,00,80,00,00,01,AA
8306215800,000007EB,false,1,8,06,41,00,80,00,00,01,00
8306464500,000007DF,false,1,8,02,01,00,00,00,00,00,00
8306476600,000007EB,false,1,8,06,41,00,80,00,00,01,00
8306482700,000007EC,false,1,8,06,41,00,80,00,00,01,AA
8306720400,000007DF,false,1,8,02,01,00,00,00,00,00,00
8306725200,000007EB,false,1,8,06,41,00,80,00,00,01,00
8306728900,000007EC,false,1,8,06,41,00,80,00,00,01,AA
8306958900,000007DF,false,1,8,02,01,00,00,00,00,00,00
8306969300,000007EB,false,1,8,06,41,00,80,00,00,01,00
8306969499,000007EC,false,1,8,06,41,00,80,00,00,01,AA
8307141100,000007DF,false,1,8,02,01,00,00,00,00,00,00
8307144600,000007EB,false,1,8,06,41,00,80,00,00,01,00
8307148200,000007EC,false,1,8,06,41,00,80,00,00,01,AA
8307381900,000007DF,false,1,8,02,01,00,00,00,00,00,00
8307388000,000007EB,false,1,8,06,41,00,80,00,00,01,00
8307391900,000007EC,false,1,8,06,41,00,80,00,00,01,AA
8307553099,000007DF,false,1,8,02,01,00,00,00,00,00,00
8307572599,000007EB,false,1,8,06,41,00,80,00,00,01,00
8307580500,000007EC,false,1,8,06,41,00,80,00,00,01,AA
8307783900,000007DF,false,1,8,02,01,00,00,00,00,00,00
8307793799,000007EB,false,1,8,06,41,00,80,00,00,01,00
8307797200,000007EC,false,1,8,06,41,00,80,00,00,01,AA
8307980100,000007DF,false,1,8,02,01,00,00,00,00,00,00
8307987300,000007EB,false,1,8,06,41,00,80,00,00,01,00
8307987499,000007EC,false,1,8,06,41,00,80,00,00,01,AA
8308220799,000007DF,false,1,8,02,01,00,00,00,00,00,00
8308224099,000007EB,false,1,8,06,41,00,80,00,00,01,00
8308230900,000007EC,false,1,8,06,41,00,80,00,00,01,AA
8308441999,000007DF,false,1,8,02,01,00,00,00,00,00,00
8308450699,000007EC,false,1,8,06,41,00,80,00,00,01,AA
8308452999,000007EB,false,1,8,06,41,00,80,00,00,01,00
8308696700,000007DF,false,1,8,02,01,00,00,00,00,00,00
8308703500,000007EB,false,1,8,06,41,00,80,00,00,01,00
8308706300,000007EC,false,1,8,06,41,00,80,00,00,01,AA
8308860300,000007DF,false,1,8,02,01,00,00,00,00,00,00
8308873700,000007EB,false,1,8,06,41,00,80,00,00,01,00
8308879600,000007EC,false,1,8,06,41,00,80,00,00,01,AA
8309116200,000007DF,false,1,8,02,01,00,00,00,00,00,00
8309122200,000007EB,false,1,8,06,41,00,80,00,00,01,00
8309126000,000007EC,false,1,8,06,41,00,80,00,00,01,AA
