Time Stamp,ID,Extended,Bus,LEN,D1,D2,D3,D4,D5,D6,D7,D8
8598117300,000007DF,false,1,8,02,01,00,00,00,00,00,00
8598136600,000007EB,false,1,8,06,41,00,80,00,00,01,00
8598137000,000007EC,false,1,8,06,41,00,80,00,00,01,AA
8598349400,000007DF,false,1,8,02,01,00,00,00,00,00,00
8598357300,000007EB,false,1,8,06,41,00,80,00,00,01,00
8598361000,000007EC,false,1,8,06,41,00,80,00,00,01,AA
8598559200,000007DF,false,1,8,02,01,00,00,00,00,00,00
8598564800,000007EB,false,1,8,06,41,00,80,00,00,01,00
8598571100,000007EC,false,1,8,06,41,00,80,00,00,01,AA
8598730300,000007DF,false,1,8,02,01,00,00,00,00,00,00
8598735900,000007EB,false,1,8,06,41,00,80,00,00,01,00
8598740500,000007EC,false,1,8,06,41,00,80,00,00,01,AA
8598957500,000007DF,false,1,8,02,01,00,00,00,00,00,00
8598964300,000007EB,false,1,8,06,41,00,80,00,00,01,00
8598965200,000007EC,false,1,8,06,41,00,80,00,00,01,AA
8599214700,000007DF,false,1,8,02,01,00,00,00,00,00,00
8599223900,000007EB,false,1,8,06,41,00,80,00,00,01,00
8599230400,000007EC,false,1,8,06,41,00,80,00,00,01,AA
8599295900,000007DF,false,1,8,02,01,00,00,00,00,00,00
8599311300,000007EB,false,1,8,06,41,00,80,00,00,01,00
8599311600,000007EC,false,1,8,06,41,00,80,00,00,01,AA
8599517000,000007DF,false,1,8,02,01,00,00,00,00,00,00
8599534900,000007EB,false,1,8,06,41,00,80,00,00,01,00
8599535300,000007EC,false,1,8,06,41,00,80,00,00,01,AA
8626083300,000007DF,false,1,8,02,01,00,00,00,00,00,00
8626100800,000007EB,false,1,8,06,41,00,80,00,00,01,00
8626102300,000007EC,false,1,8,06,41,00,80,00,00,01,AA
8626252600,000007DF,false,1,8,02,01,00,00,00,00,00,00
8626260600,000007EB,false,1,8,06,41,00,80,00,00,01,00
8626262100,000007EC,false,1,8,06,41,00,80,00,00,01,AA
8626720000,000007DF,false,1,8,02,01,00,00,00,00,00,00
8626730000,000007EB,false,1,8,06,41,00,80,00,00,01,00
8626730900,000007EC,false,1,8,06,41,00,80,00,00,01,AA
8626823400,000007DF,false,1,8,01,03,00,00,00,00,00,00
8626824500,000007ED,false,1,8,02,43,00,00,00,00,00,00
8626829900,000007EB,false,1,8,02,43,00,00,00,00,00,00
8626830800,000007EC,false,1,8,02,43,00,AA,AA,AA,AA,AA
8626834000,000007EA,false,1,8,02,43,00,00,00,00,00,00
8626895800,000007DF,false,1,8,01,03,00,00,00,00,00,00
8626899800,000007EB,false,1,8,02,43,00,00,00,00,00,00
8626903900,000007EA,false,1,8,02,43,00,00,00,00,00,00
8626904400,000007ED,false,1,8,02,43,00,00,00,00,00,00
8626906000,000007EC,false,1,8,02,43,00,AA,AA,AA,AA,AA
8627020700,000007DF,false,1,8,01,07,00,00,00,00,00,00
8627023700,000007EA,false,1,8,02,47,00,00,00,00,00,00
8627024200,000007ED,false,1,8,02,47,00,00,00,00,00,00
8627029700,000007EB,false,1,8,02,47,00,00,00,00,00,00
8627030600,000007EC,false,1,8,02,47,00,AA,AA,AA,AA,AA
8627072600,000007DF,false,1,8,01,07,00,00,00,00,00,00
8627079700,000007EB,false,1,8,02,47,00,00,00,00,00,00
8627083900,000007EA,false,1,8,02,47,00,00,00,00,00,00
8627084400,000007ED,false,1,8,02,47,00,00,00,00,00,00
8627086100,000007EC,false,1,8,02,47,00,AA,AA,AA,AA,AA
8638916200,000007DF,false,1,8,02,01,00,00,00,00,00,00
8638925000,000007EB,false,1,8,06,41,00,80,00,00,01,00
8638926600,000007EC,false,1,8,06,41,00,80,00,00,01,AA
8639077000,000007DF,false,1,8,02,01,00,00,00,00,00,00
8639086100,000007EB,false,1,8,06,41,00,80,00,00,01,00
8639092000,000007EC,false,1,8,06,41,00,80,00,00,01,AA
8639634300,000007DF,false,1,8,02,01,00,00,00,00,00,00
8639645500,000007EB,false,1,8,06,41,00,80,00,00,01,00
8639645800,000007EC,false,1,8,06,41,00,80,00,00,01,AA
8639795100,000007DF,false,1,8,01,0A,00,00,00,00,00,00
8639798100,000007EA,false,1,8,02,4A,00,00,00,00,00,00
8639798600,000007ED,false,1,8,02,4A,00,00,00,00,00,00
8639806100,000007EB,false,1,8,02,4A,00,00,00,00,00,00
8639863800,000007DF,false,1,8,01,0A,00,00,00,00,00,00
8639880600,000007EA,false,1,8,02,4A,00,00,00,00,00,00
8639880800,000007ED,false,1,8,02,4A,00,00,00,00,00,00
8639883900,000007EB,false,1,8,02,4A,00,00,00,00,00,00
8639941300,000007DF,false,1,8,03,19,02,08,00,00,00,00
8639945100,000007EB,false,1,8,03,7F,19,11,00,00,00,00
8639945300,0000079E,false,1,8,03,59,02,08,AA,AA,AA,AA
8639947600,000007BF,false,1,8,07,59,02,FF,58,12,87,28
8639947900,000007DC,false,1,8,07,59,02,89,58,12,87,08
8639948100,000007EA,false,1,8,03,7F,19,12,00,00,00,00
8639948600,000007ED,false,1,8,03,7F,19,11,00,00,00,00
8639950200,000007EC,false,1,8,03,59,02,FF,AA,AA,AA,AA
8639950500,00000788,false,1,8,03,59,02,09,AA,AA,AA,AA
8639951400,000007CC,false,1,8,10,13,59,02,89,58,12,87
8639955500,0000072D,false,1,8,07,59,02,09,96,03,00,08
8639959500,000007AD,false,1,8,03,7F,19,78,AA,AA,AA,AA
8639959700,0000078B,false,1,8,03,7F,19,22,AA,AA,AA,AA
8639961000,000007CE,false,1,8,07,59,02,09,90,01,52,09
8639961500,0000073B,false,1,8,03,59,02,09,AA,AA,AA,AA
8639961800,000007BB,false,1,8,07,59,02,09,92,38,13,09
8639962700,00000778,false,1,8,10,17,59,02,09,96,03,00
8639965800,000007A8,false,1,8,03,7F,19,78,AA,AA,AA,AA
8639997400,000007DF,false,1,8,03,19,02,AC,00,00,00,00
8640005000,0000079E,false,1,8,03,59,02,08,AA,AA,AA,AA
8640005900,000007EB,false,1,8,03,7F,19,11,00,00,00,00
8640006100,000007EC,false,1,8,03,59,02,FF,AA,AA,AA,AA
8640007500,000007BF,false,1,8,07,59,02,FF,58,12,87,28
8640007900,000007DC,false,1,8,03,7F,19,31,AA,AA,AA,AA
8640008100,000007BB,false,1,8,07,59,02,09,92,38,13,09
8640008400,000007EA,false,1,8,03,7F,19,12,00,00,00,00
8640008600,000007ED,false,1,8,03,7F,19,11,00,00,00,00
8640011200,000007CE,false,1,8,07,59,02,09,90,01,52,09
8640018300,0000073B,false,1,8,03,59,02,09,AA,AA,AA,AA
8640058600,000007DF,false,1,8,03,19,02,AF,00,00,00,00
8640063500,000007EB,false,1,8,03,7F,19,11,00,00,00,00
8640064900,0000079E,false,1,8,03,59,02,08,AA,AA,AA,AA
8640067700,000007BF,false,1,8,07,59,02,FF,58,12,87,28
8640068000,000007EA,false,1,8,03,7F,19,12,00,00,00,00
8640068300,000007DC,false,1,8,03,7F,19,31,AA,AA,AA,AA
8640068500,000007ED,false,1,8,03,7F,19,11,00,00,00,00
8640070200,000007EC,false,1,8,03,59,02,FF,AA,AA,AA,AA
8640071900,000007CE,false,1,8,07,59,02,09,90,01,52,09
8640080500,0000073B,false,1,8,03,59,02,09,AA,AA,AA,AA
8640080700,000007BB,false,1,8,07,59,02,09,92,38,13,09
8640126100,000007DF,false,1,8,04,18,00,FF,00,00,00,00
8640128300,000007ED,false,1,8,02,58,00,00,00,00,00,00
8640133300,000007DC,false,1,8,03,7F,18,21,AA,AA,AA,AA
8640133700,000007EB,false,1,8,02,58,00,00,00,00,00,00
8640137500,000007BB,false,1,8,03,7F,18,11,00,00,00,00
8640137800,000007EA,false,1,8,02,58,00,00,00,00,00,00
8640209700,000007DF,false,1,8,04,18,00,FF,00,00,00,00
8640213400,000007EB,false,1,8,02,58,00,00,00,00,00,00
8640217500,000007DC,false,1,8,03,7F,18,21,AA,AA,AA,AA
8640217800,000007EA,false,1,8,02,58,00,00,00,00,00,00
8640218100,000007ED,false,1,8,02,58,00,00,00,00,00,00
8640227400,000007BB,false,1,8,03,7F,18,11,00,00,00,00
8640264700,000007DF,false,1,8,04,18,02,FF,00,00,00,00
8640277400,000007DC,false,1,8,03,7F,18,21,AA,AA,AA,AA
8640280500,000007EA,false,1,8,03,7F,18,12,00,00,00,00
8640280800,000007ED,false,1,8,03,7F,18,12,00,00,00,00
8640284700,000007EB,false,1,8,03,7F,18,12,00,00,00,00
8640287300,000007BB,false,1,8,03,7F,18,11,00,00,00,00
8640470600,000007DF,false,1,8,02,01,00,00,00,00,00,00
8640484400,000007EB,false,1,8,06,41,00,80,00,00,01,00
8640484700,000007EC,false,1,8,06,41,00,80,00,00,01,AA
8640628600,000007AD,false,1,8,07,59,02,08,96,03,00,08
8640741500,000007E2,false,1,8,02,10,03,00,00,00,00,00
8640746900,000007EA,false,1,8,03,7F,10,12,00,00,00,00
8640764000,000007E2,false,1,8,02,10,90,00,00,00,00,00
8640779300,000007EA,false,1,8,02,50,90,00,00,00,00,00
8640800100,000007E2,false,1,8,01,20,00,00,00,00,00,00
8640806900,000007EA,false,1,8,01,60,00,00,00,00,00,00
8640861300,000007E2,false,1,8,02,10,03,00,00,00,00,00
8640867000,000007EA,false,1,8,03,7F,10,12,00,00,00,00
8640912600,000007E2,false,1,8,03,19,02,08,00,00,00,00
8640916700,000007EA,false,1,8,03,7F,19,12,00,00,00,00
8640973700,000007E2,false,1,8,03,19,02,AC,00,00,00,00
8640979100,000007EA,false,1,8,03,7F,19,12,00,00,00,00
8641062400,000007E2,false,1,8,03,19,02,AF,00,00,00,00
8641079000,000007EA,false,1,8,03,7F,19,12,00,00,00,00
8641153600,000007E2,false,1,8,04,18,00,FF,00,00,00,00
8641166800,000007EA,false,1,8,02,58,00,00,00,00,00,00
8641238500,000007E2,false,1,8,04,18,02,FF,00,00,00,00
8641246300,000007EA,false,1,8,03,7F,18,12,00,00,00,00
8641304400,000007E2,false,1,8,04,18,00,80,00,00,00,00
8641316300,000007EA,false,1,8,02,58,00,00,00,00,00,00
8641375800,000007E2,false,1,8,04,18,02,80,00,00,00,00
8641388400,000007EA,false,1,8,03,7F,18,12,00,00,00,00
8641439400,000007E2,false,1,8,04,18,20,FF,00,00,00,00
8641446100,000007EA,false,1,8,02,58,00,00,00,00,00,00
8641510600,000007E2,false,1,8,04,18,60,FF,00,00,00,00
8641516100,000007EA,false,1,8,02,58,00,00,00,00,00,00
8641584100,000007E2,false,1,8,04,18,00,40,00,00,00,00
8641595900,000007EA,false,1,8,02,58,00,00,00,00,00,00
8641676600,000007E2,false,1,8,01,20,00,00,00,00,00,00
8641689200,000007EA,false,1,8,01,60,00,00,00,00,00,00
8641892600,000007DF,false,1,8,02,01,00,00,00,00,00,00
8641903500,000007EB,false,1,8,06,41,00,80,00,00,01,00
8641905400,000007EC,false,1,8,06,41,00,80,00,00,01,AA
8642073900,000007E3,false,1,8,02,10,03,00,00,00,00,00
8642081100,000007EB,false,1,8,03,7F,10,12,00,00,00,00
8642093600,000007E3,false,1,8,02,10,90,00,00,00,00,00
8642103500,000007EB,false,1,8,02,50,90,00,00,00,00,00
8642119800,000007E3,false,1,8,01,20,00,00,00,00,00,00
8642122200,000007EB,false,1,8,01,60,00,00,00,00,00,00
8642179700,000007E3,false,1,8,02,10,03,00,00,00,00,00
8642182400,000007EB,false,1,8,03,7F,10,12,00,00,00,00
8642230700,000007E3,false,1,8,03,19,02,08,00,00,00,00
8642242100,000007EB,false,1,8,03,7F,19,11,00,00,00,00
8642300800,000007E3,false,1,8,03,19,02,AC,00,00,00,00
8642310700,000007EB,false,1,8,03,7F,19,11,00,00,00,00
8642372000,000007E3,false,1,8,03,19,02,AF,00,00,00,00
8642382100,000007EB,false,1,8,03,7F,19,11,00,00,00,00
8642435700,000007E3,false,1,8,04,18,00,FF,00,00,00,00
8642442100,000007EB,false,1,8,02,58,00,00,00,00,00,00
8642462700,000007A8,false,1,8,03,7F,19,78,AA,AA,AA,AA
8642506900,000007E3,false,1,8,04,18,02,FF,00,00,00,00
8642510500,000007EB,false,1,8,03,7F,18,12,00,00,00,00
8642555600,000007E3,false,1,8,04,18,00,80,00,00,00,00
8642560500,000007EB,false,1,8,02,58,00,00,00,00,00,00
8642615700,000007E3,false,1,8,04,18,02,80,00,00,00,00
8642620400,000007EB,false,1,8,03,7F,18,12,00,00,00,00
8642681700,000007E3,false,1,8,04,18,20,FF,00,00,00,00
8642690400,000007EB,false,1,8,02,58,00,00,00,00,00,00
8642747800,000007E3,false,1,8,04,18,60,FF,00,00,00,00
8642758100,000007EB,false,1,8,02,58,00,00,00,00,00,00
8642837700,000007E3,false,1,8,04,18,00,40,00,00,00,00
8642840200,000007EB,false,1,8,02,58,00,00,00,00,00,00
8642887600,000007E3,false,1,8,01,20,00,00,00,00,00,00
8642890000,000007EB,false,1,8,01,60,00,00,00,00,00,00
8643025100,000007DF,false,1,8,02,01,00,00,00,00,00,00
8643029900,000007EB,false,1,8,06,41,00,80,00,00,01,00
8643036500,000007EC,false,1,8,06,41,00,80,00,00,01,AA
8643258400,000007E4,false,1,8,02,10,03,00,00,00,00,00
8643266400,000007EC,false,1,8,06,50,03,00,32,01,F4,AA
8643285900,000007E4,false,1,8,02,10,90,00,00,00,00,00
8643735300,000007E4,false,1,8,01,20,00,00,00,00,00,00
8643745500,000007EC,false,1,8,01,60,AA,AA,AA,AA,AA,AA
8643795200,000007E4,false,1,8,02,10,03,00,00,00,00,00
8643805400,000007EC,false,1,8,06,50,03,00,32,01,F4,AA
8643875200,000007E4,false,1,8,03,19,02,08,00,00,00,00
8643885700,000007EC,false,1,8,03,59,02,FF,AA,AA,AA,AA
8644013700,000007E4,false,1,8,03,19,02,AC,00,00,00,00
8644025000,000007EC,false,1,8,03,59,02,FF,AA,AA,AA,AA
8644084900,000007E4,false,1,8,03,19,02,AF,00,00,00,00
8644095200,000007EC,false,1,8,03,59,02,FF,AA,AA,AA,AA
8644148600,000007E4,false,1,8,04,18,00,FF,00,00,00,00
8644165000,000007EC,false,1,8,03,7F,18,11,AA,AA,AA,AA
8644219800,000007E4,false,1,8,04,18,02,FF,00,00,00,00
8644229200,000007EC,false,1,8,03,7F,18,11,AA,AA,AA,AA
8644294700,000007E4,false,1,8,04,18,00,80,00,00,00,00
8644304700,000007EC,false,1,8,03,7F,18,11,AA,AA,AA,AA
8644358400,000007E4,false,1,8,04,18,02,80,00,00,00,00
8644369000,000007EC,false,1,8,03,7F,18,11,AA,AA,AA,AA
8644425800,000007E4,false,1,8,04,18,20,FF,00,00,00,00
8644434800,000007EC,false,1,8,03,7F,18,11,AA,AA,AA,AA
8644499400,000007E4,false,1,8,04,18,60,FF,00,00,00,00
8644508900,000007EC,false,1,8,03,7F,18,11,AA,AA,AA,AA
8644576800,000007E4,false,1,8,04,18,00,40,00,00,00,00
8644584400,000007EC,false,1,8,03,7F,18,11,AA,AA,AA,AA
8644630400,000007E4,false,1,8,01,20,00,00,00,00,00,00
8644639100,000007EC,false,1,8,01,60,AA,AA,AA,AA,AA,AA
8644838900,000007DF,false,1,8,02,01,00,00,00,00,00,00
8644855500,000007EB,false,1,8,06,41,00,80,00,00,01,00
8644855900,000007EC,false,1,8,06,41,00,80,00,00,01,AA
8644933800,000007DF,false,1,8,02,01,00,00,00,00,00,00
8644937600,000007EB,false,1,8,06,41,00,80,00,00,01,00
8644944100,000007EC,false,1,8,06,41,00,80,00,00,01,AA
8644959500,000007A8,false,1,8,03,7F,19,78,AA,AA,AA,AA
8645212200,000007DF,false,1,8,02,01,00,00,00,00,00,00
8645218400,000007EB,false,1,8,06,41,00,80,00,00,01,00
8645223600,000007EC,false,1,8,06,41,00,80,00,00,01,AA
8645394400,000007DF,false,1,8,02,01,00,00,00,00,00,00
8645399200,000007EB,false,1,8,06,41,00,80,00,00,01,00
8645403400,000007EC,false,1,8,06,41,00,80,00,00,01,AA
8645598000,000007DF,false,1,8,02,01,00,00,00,00,00,00
8645606700,000007EB,false,1,8,06,41,00,80,00,00,01,00
8645607600,000007EC,false,1,8,06,41,00,80,00,00,01,AA
8647456400,000007A8,false,1,8,03,7F,19,78,AA,AA,AA,AA
8670883100,000007DF,false,1,8,02,01,00,00,00,00,00,00
8670885500,000007EB,false,1,8,06,41,00,80,00,00,01,00
8670892100,000007EC,false,1,8,06,41,00,80,00,00,01,AA
8671042400,000007DF,false,1,8,02,01,00,00,00,00,00,00
8671045200,000007EB,false,1,8,06,41,00,80,00,00,01,00
8671051900,000007EC,false,1,8,06,41,00,80,00,00,01,AA
8671579700,000007DF,false,1,8,02,01,00,00,00,00,00,00
8671584600,000007EB,false,1,8,06,41,00,80,00,00,01,00
8671591300,000007EC,false,1,8,06,41,00,80,00,00,01,AA
8671695900,000007DF,false,1,8,02,01,00,00,00,00,00,00
8671704400,000007EB,false,1,8,06,41,00,80,00,00,01,00
8671706400,000007EC,false,1,8,06,41,00,80,00,00,01,AA
8683826900,000007DF,false,1,8,02,01,00,00,00,00,00,00
8683829400,000007EB,false,1,8,06,41,00,80,00,00,01,00
8683836300,000007EC,false,1,8,06,41,00,80,00,00,01,AA
8683986700,000007DF,false,1,8,02,01,00,00,00,00,00,00
8683989300,000007EB,false,1,8,06,41,00,80,00,00,01,00
8683996500,000007EC,false,1,8,06,41,00,80,00,00,01,AA
8684466300,000007DF,false,1,8,02,01,00,00,00,00,00,00
8684468600,000007EB,false,1,8,06,41,00,80,00,00,01,00
8684475500,000007EC,false,1,8,06,41,00,80,00,00,01,AA
8684592400,000007DF,false,1,8,02,01,00,00,00,00,00,00
8684606500,000007EB,false,1,8,06,41,00,80,00,00,01,00
8684606800,000007EC,false,1,8,06,41,00,80,00,00,01,AA
8684770800,000007DF,false,1,8,02,01,00,00,00,00,00,00
8684778400,000007EB,false,1,8,06,41,00,80,00,00,01,00
8684779600,000007EC,false,1,8,06,41,00,80,00,00,01,AA
8685005700,000007DF,false,1,8,02,01,00,00,00,00,00,00
8685008000,000007EB,false,1,8,06,41,00,80,00,00,01,00
8685015300,000007EC,false,1,8,06,41,00,80,00,00,01,AA
8685225200,000007DF,false,1,8,02,01,00,00,00,00,00,00
8685227700,000007EB,false,1,8,06,41,00,80,00,00,01,00
8685234500,000007EC,false,1,8,06,41,00,80,00,00,01,AA
8685446300,000007DF,false,1,8,02,01,00,00,00,00,00,00
8685450200,000007EB,false,1,8,06,41,00,80,00,00,01,00
8685454300,000007EC,false,1,8,06,41,00,80,00,00,01,AA
8685706000,000007DF,false,1,8,02,01,00,00,00,00,00,00
8685707100,000007EB,false,1,8,06,41,00,80,00,00,01,00
8685716400,000007EC,false,1,8,06,41,00,80,00,00,01,AA
8685986900,000007DF,false,1,8,02,01,00,00,00,00,00,00
8686004900,000007EB,false,1,8,06,41,00,80,00,00,01,00
8686005100,000007EC,false,1,8,06,41,00,80,00,00,01,AA
8686169100,000007DF,false,1,8,02,01,00,00,00,00,00,00
8686176600,000007EB,false,1,8,06,41,00,80,00,00,01,00
8686177900,000007EC,false,1,8,06,41,00,80,00,00,01,AA
8686390200,000007DF,false,1,8,02,01,00,00,00,00,00,00
8686404400,000007EB,false,1,8,06,41,00,80,00,00,01,00
8686404600,000007EC,false,1,8,06,41,00,80,00,00,01,AA
8686619900,000007DF,false,1,8,02,01,00,00,00,00,00,00
8686632800,000007EC,false,1,8,06,41,00,80,00,00,01,AA
8686636100,000007EB,false,1,8,06,41,00,80,00,00,01,00
8686852100,000007DF,false,1,8,02,01,00,00,00,00,00,00
8686855800,000007EB,false,1,8,06,41,00,80,00,00,01,00
8686862800,000007EC,false,1,8,06,41,00,80,00,00,01,AA
8687115500,000007DF,false,1,8,02,01,00,00,00,00,00,00
8687125400,000007EB,false,1,8,06,41,00,80,00,00,01,00
8687127100,000007EC,false,1,8,06,41,00,80,00,00,01,AA
8687279000,000007DF,false,1,8,02,01,00,00,00,00,00,00
8687285200,000007EB,false,1,8,06,41,00,80,00,00,01,00
8687287000,000007EC,false,1,8,06,41,00,80,00,00,01,AA
8687497400,000007DF,false,1,8,02,01,00,00,00,00,00,00
8687504900,000007EB,false,1,8,06,41,00,80,00,00,01,00
8687514200,000007EC,false,1,8,06,41,00,80,00,00,01,AA
8687726000,000007DF,false,1,8,02,01,00,00,00,00,00,00
8687734800,000007EB,false,1,8,06,41,00,80,00,00,01,00
8687736000,000007EC,false,1,8,06,41,00,80,00,00,01,AA
8687939500,000007DF,false,1,8,02,01,00,00,00,00,00,00
8687946700,000007EB,false,1,8,06,41,00,80,00,00,01,00
8687951200,000007EC,false,1,8,06,41,00,80,00,00,01,AA
8688192900,000007DF,false,1,8,02,01,00,00,00,00,00,00
8688202300,000007EB,false,1,8,06,41,00,80,00,00,01,00
8688202700,000007EC,false,1,8,06,41,00,80,00,00,01,AA
8688420100,000007DF,false,1,8,02,01,00,00,00,00,00,00
8688423800,000007EB,false,1,8,06,41,00,80,00,00,01,00
8688430600,000007EC,false,1,8,06,41,00,80,00,00,01,AA
8688672300,000007DF,false,1,8,02,01,00,00,00,00,00,00
8688674500,000007EB,false,1,8,06,41,00,80,00,00,01,00
8688680600,000007EC,false,1,8,06,41,00,80,00,00,01,AA
8688835900,000007DF,false,1,8,02,01,00,00,00,00,00,00
8688845800,000007EB,false,1,8,06,41,00,80,00,00,01,00
8688846100,000007EC,false,1,8,06,41,00,80,00,00,01,AA
8689091800,000007DF,false,1,8,02,01,00,00,00,00,00,00
8689101900,000007EB,false,1,8,06,41,00,80,00,00,01,00
8689102200,000007EC,false,1,8,06,41,00,80,00,00,01,AA
8689264100,000007DF,false,1,8,02,01,00,00,00,00,00,00
8689272800,000007EB,false,1,8,06,41,00,80,00,00,01,00
8689274200,000007EC,false,1,8,06,41,00,80,00,00,01,AA
8689477600,000007DF,false,1,8,02,01,00,00,00,00,00,00
8689482500,000007EB,false,1,8,06,41,00,80,00,00,01,00
8689484300,000007EC,false,1,8,06,41,00,80,00,00,01,AA
8689706100,000007DF,false,1,8,02,01,00,00,00,00,00,00
8689713300,000007EB,false,1,8,06,41,00,80,00,00,01,00
8689713500,000007EC,false,1,8,06,41,00,80,00,00,01,AA
8689913300,000007DF,false,1,8,02,01,00,00,00,00,00,00
8689922000,000007EB,false,1,8,06,41,00,80,00,00,01,00
8689923800,000007EC,false,1,8,06,41,00,80,00,00,01,AA
8690126900,000007DF,false,1,8,02,01,00,00,00,00,00,00
8690131700,000007EB,false,1,8,06,41,00,80,00,00,01,00
8690138800,000007EC,false,1,8,06,41,00,80,00,00,01,AA
8702768600,000007DF,false,1,8,02,01,00,00,00,00,00,00
8702784300,000007EB,false,1,8,06,41,00,80,00,00,01,00
8702784600,000007EC,false,1,8,06,41,00,80,00,00,01,AA
8702934900,000007DF,false,1,8,02,01,00,00,00,00,00,00
8702935900,000007EB,false,1,8,06,41,00,80,00,00,01,00
8702943100,000007EC,false,1,8,06,41,00,80,00,00,01,AA
8703472900,000007DF,false,1,8,02,01,00,00,00,00,00,00
8703483400,000007EB,false,1,8,06,41,00,80,00,00,01,00
8703483700,000007EC,false,1,8,06,41,00,80,00,00,01,AA
8703574000,000007DF,false,1,8,02,01,00,00,00,00,00,00
8703583300,000007EB,false,1,8,06,41,00,80,00,00,01,00
8703583600,000007EC,false,1,8,06,41,00,80,00,00,01,AA
8703787500,000007DF,false,1,8,02,01,00,00,00,00,00,00
8703804800,000007EB,false,1,8,06,41,00,80,00,00,01,00
8703811800,000007EC,false,1,8,06,41,00,80,00,00,01,AA
8703991100,000007DF,false,1,8,02,01,00,00,00,00,00,00
8704004500,000007EB,false,1,8,06,41,00,80,00,00,01,00
8704011500,000007EC,false,1,8,06,41,00,80,00,00,01,AA
8704223200,000007DF,false,1,8,02,01,00,00,00,00,00,00
8704227000,000007EB,false,1,8,06,41,00,80,00,00,01,00
8704231300,000007EC,false,1,8,06,41,00,80,00,00,01,AA
8704479100,000007DF,false,1,8,02,01,00,00,00,00,00,00
8704483900,000007EB,false,1,8,06,41,00,80,00,00,01,00
8704493700,000007EC,false,1,8,06,41,00,80,00,00,01,AA
8704661400,000007DF,false,1,8,02,01,00,00,00,00,00,00
8704663700,000007EB,false,1,8,06,41,00,80,00,00,01,00
8704671200,000007EC,false,1,8,06,41,00,80,00,00,01,AA
8704913600,000007DF,false,1,8,02,01,00,00,00,00,00,00
8704920700,000007EC,false,1,8,06,41,00,80,00,00,01,AA
8704925300,000007EB,false,1,8,06,41,00,80,00,00,01,00
8705085900,000007DF,false,1,8,02,01,00,00,00,00,00,00
8705095500,000007EB,false,1,8,06,41,00,80,00,00,01,00
8705100600,000007EC,false,1,8,06,41,00,80,00,00,01,AA
8705311800,000007DF,false,1,8,02,01,00,00,00,00,00,00
8705312900,000007EB,false,1,8,06,41,00,80,00,00,01,00
8705320200,000007EC,false,1,8,06,41,00,80,00,00,01,AA
8705557800,000007DF,false,1,8,02,01,00,00,00,00,00,00
8705563700,000007EB,false,1,8,06,41,00,80,00,00,01,00
8705564100,000007EC,false,1,8,06,41,00,80,00,00,01,AA
8705771300,000007DF,false,1,8,02,01,00,00,00,00,00,00
8705780600,000007EB,false,1,8,06,41,00,80,00,00,01,00
8705780900,000007EC,false,1,8,06,41,00,80,00,00,01,AA
8705976000,000007DF,false,1,8,02,01,00,00,00,00,00,00
8705983300,000007EB,false,1,8,06,41,00,80,00,00,01,00
8706000300,000007EC,false,1,8,06,41,00,80,00,00,01,AA
8706247000,000007DF,false,1,8,02,01,00,00,00,00,00,00
8706251800,000007EB,false,1,8,06,41,00,80,00,00,01,00
8706253300,000007EC,false,1,8,06,41,00,80,00,00,01,AA
8706465400,000007DF,false,1,8,02,01,00,00,00,00,00,00
8706479800,000007EB,false,1,8,06,41,00,80,00,00,01,00
8706480000,000007EC,false,1,8,06,41,00,80,00,00,01,AA
8706711400,000007DF,false,1,8,02,01,00,00,00,00,00,00
8706718500,000007EC,false,1,8,06,41,00,80,00,00,01,AA
8706723100,000007EB,false,1,8,06,41,00,80,00,00,01,00
8706949800,000007DF,false,1,8,02,01,00,00,00,00,00,00
8706950900,000007EB,false,1,8,06,41,00,80,00,00,01,00
8706958200,000007EC,false,1,8,06,41,00,80,00,00,01,AA
8707170800,000007DF,false,1,8,02,01,00,00,00,00,00,00
8707181700,000007EB,false,1,8,06,41,00,80,00,00,01,00
8707198800,000007EC,false,1,8,06,41,00,80,00,00,01,AA
8707461600,000007DF,false,1,8,02,01,00,00,00,00,00,00
8707478600,000007EB,false,1,8,06,41,00,80,00,00,01,00
8707478800,000007EC,false,1,8,06,41,00,80,00,00,01,AA
8707640200,000007DF,false,1,8,02,01,00,00,00,00,00,00
8707647100,000007EC,false,1,8,06,41,00,80,00,00,01,AA
8707651000,000007EB,false,1,8,06,41,00,80,00,00,01,00
8707863700,000007DF,false,1,8,02,01,00,00,00,00,00,00
8707878100,000007EB,false,1,8,06,41,00,80,00,00,01,00
8707878300,000007EC,false,1,8,06,41,00,80,00,00,01,AA
8708084900,000007DF,false,1,8,02,01,00,00,00,00,00,00
8708091600,000007EB,false,1,8,06,41,00,80,00,00,01,00
8708097000,000007EC,false,1,8,06,41,00,80,00,00,01,AA
8708339400,000007DF,false,1,8,02,01,00,00,00,00,00,00
8708346300,000007EC,false,1,8,06,41,00,80,00,00,01,AA
8708350300,000007EB,false,1,8,06,41,00,80,00,00,01,00
8708551600,000007DF,false,1,8,02,01,00,00,00,00,00,00
8708559000,000007EB,false,1,8,06,41,00,80,00,00,01,00
8708560400,000007EC,false,1,8,06,41,00,80,00,00,01,AA
8708772500,000007DF,false,1,8,02,01,00,00,00,00,00,00
8708778700,000007EB,false,1,8,06,41,00,80,00,00,01,00
8708796900,000007EC,false,1,8,06,41,00,80,00,00,01,AA
8709018500,000007DF,false,1,8,02,01,00,00,00,00,00,00
8709029400,000007EB,false,1,8,06,41,00,80,00,00,01,00
8709029900,000007EC,false,1,8,06,41,00,80,00,00,01,AA
8709182200,000007DF,false,1,8,02,01,00,00,00,00,00,00
8709198200,000007EB,false,1,8,06,41,00,80,00,00,01,00
8709205200,000007EC,false,1,8,06,41,00,80,00,00,01,AA
8709430400,000007DF,false,1,8,02,01,00,00,00,00,00,00
8709437900,000007EB,false,1,8,06,41,00,80,00,00,01,00
8709439400,000007EC,false,1,8,06,41,00,80,00,00,01,AA
8736043400,000007DF,false,1,8,02,01,00,00,00,00,00,00
8736045000,000007EB,false,1,8,06,41,00,80,00,00,01,00
8736057000,000007EC,false,1,8,06,41,00,80,00,00,01,AA
8736207200,000007DF,false,1,8,02,01,00,00,00,00,00,00
8736214800,000007EB,false,1,8,06,41,00,80,00,00,01,00
8736216600,000007EC,false,1,8,06,41,00,80,00,00,01,AA
8736686600,000007DF,false,1,8,02,01,00,00,00,00,00,00
8736694200,000007EB,false,1,8,06,41,00,80,00,00,01,00
8736696000,000007EC,false,1,8,06,41,00,80,00,00,01,AA
8736806500,000007DF,false,1,8,02,01,00,00,00,00,00,00
8736814000,000007EB,false,1,8,06,41,00,80,00,00,01,00
8736815900,000007EC,false,1,8,06,41,00,80,00,00,01,AA
8736885100,000007DF,false,1,8,02,01,00,00,00,00,00,00
8736894000,000007EB,false,1,8,06,41,00,80,00,00,01,00
8736895800,000007EC,false,1,8,06,41,00,80,00,00,01,AA
8736974000,000007DF,false,1,8,02,01,00,00,00,00,00,00
8736981400,000007EC,false,1,8,06,41,00,80,00,00,01,AA
8736985300,000007EB,false,1,8,06,41,00,80,00,00,01,00
8748839400,000007DF,false,1,8,02,01,00,00,00,00,00,00
