Time Stamp,ID,Extended,Bus,LEN,D1,D2,D3,D4,D5,D6,D7,D8
1953613500,00000109,false,0,8,00,01,00,FF,FF,FF,0F,3D
1953613800,00000200,false,0,8,00,80,66,00,00,C0,D0,00
1953614000,00000201,false,0,8,D1,00,00,00,00,00,00,D1
1953614200,00000202,false,0,8,60,00,00,00,00,80,32,D2
1953614500,00000333,false,0,8,00,00,00,00,00,00,00,00
1953615700,00000291,false,0,8,00,00,00,00,FF,00,00,0A
1953616000,00000523,false,0,8,08,38,4C,4C,4B,4A,00,00
1953616200,00000524,false,0,8,86,00,00,00,00,00,00,00
1953616900,00000450,false,0,3,00,C2,05
1953617200,00000462,false,0,8,FE,3F,FF,2F,F0,1F,00,00
1953617500,00000471,false,0,6,15,54,10,00,00,40
1953617700,00000354,false,0,8,AA,0A,55,05,00,01,00,7B
1953618000,000002A1,false,0,8,00,00,00,00,00,00,00,00
1953618200,00000540,false,0,8,D9,33,00,00,7A,00,00,00
1953620000,0000010C,false,0,8,04,00,55,54,15,40,01,24
1953620400,000002A2,false,0,8,04,00,00,F4,05,00,00,3E
1953620600,00000153,false,0,8,A0,A9,20,FF,00,FF,10,77
1953620800,00000331,false,0,8,3E,00,00,00,00,00,00,00
1953623500,00000109,false,0,8,00,01,00,FF,FF,FF,0F,0A
1953623700,00000200,false,0,8,00,80,66,00,00,00,D0,00
1953624000,00000201,false,0,8,11,00,00,00,00,00,00,11
1953624200,00000202,false,0,8,00,00,00,00,00,80,32,B2
1953624500,00000333,false,0,8,00,00,00,00,00,00,00,00
1953625700,00000291,false,0,8,00,00,00,00,FF,00,00,0A
1953626000,00000523,false,0,8,08,38,4C,4C,4B,4A,00,00
1953626200,00000524,false,0,8,86,00,00,00,00,00,00,00
1953627700,00000354,false,0,8,AA,0A,55,05,00,01,00,6C
1953630100,0000010C,false,0,8,04,00,55,54,15,40,01,35
1953630400,000002A2,false,0,8,05,00,00,F4,05,00,00,3E
1953630600,00000153,false,0,8,A0,A9,20,FF,00,FF,20,87
1953630800,00000331,false,0,8,3E,00,00,00,00,00,00,00
1953631100,00000386,false,0,8,00,80,00,80,00,40,00,80
1953631300,00000387,false,0,8,15,15,16,15,00,56,01,00
1953633500,00000109,false,0,8,00,01,00,FF,FF,FF,0F,1B
1953633700,00000200,false,0,8,00,80,66,00,00,40,D0,00
1953634000,00000201,false,0,8,51,00,00,00,00,00,00,51
1953634200,00000202,false,0,8,20,00,00,00,00,80,32,92
1953634500,00000333,false,0,8,00,00,00,00,00,00,00,00
1953635700,00000291,false,0,8,00,00,00,00,FF,00,00,0A
1953616500,00000371,false,1,8,3E,10,00,00,00,00,00,10
1953616800,00000372,false,1,8,00,00,00,00,00,00,00,00
1953617000,00000470,false,1,8,15,44,40,55,55,40,14,00
1953620400,00000160,false,1,8,20,3C,01,12,00,00,00,0F
1953620600,00000153,false,1,8,A0,A9,20,FF,00,FF,10,77
1953626600,00000371,false,1,8,3E,10,00,00,00,00,00,10
1953626900,00000372,false,1,8,00,00,00,00,00,00,00,00
1953627100,00000436,false,1,4,00,00,00,08
1953630400,00000160,false,1,8,20,3C,01,12,00,00,00,0F
1953630600,00000153,false,1,8,A0,A9,20,FF,00,FF,20,87
1953630800,00000386,false,1,8,00,80,00,80,00,40,00,80
1953631100,00000387,false,1,8,15,15,16,15,00,56,01,00
1953636600,00000371,false,1,8,3E,10,00,00,00,00,00,10
1953636800,00000372,false,1,8,00,00,00,00,00,00,00,00
1953637100,00000470,false,1,8,15,00,00,55,55,44,00,00
1953636000,00000523,false,0,8,08,38,4C,4C,4B,4A,00,00
1953636200,00000524,false,0,8,86,00,00,00,00,00,00,00
1953636900,00000450,false,0,3,00,C2,05
1953637200,00000462,false,0,8,FE,3F,FF,2F,F0,1F,00,00
1953637400,00000471,false,0,6,15,50,10,00,00,44
1953637700,00000354,false,0,8,AA,0A,55,05,00,01,00,5D
1953640000,0000010C,false,0,8,04,00,55,54,15,40,01,02
1953640400,00000160,false,1,8,20,3D,01,12,00,00,00,0E
1953640600,00000153,false,1,8,A0,A9,20,FF,00,FF,30,97
1953640400,000002A2,false,0,8,04,00,00,F4,05,00,00,3E
1953640600,00000153,false,0,8,A0,A9,20,FF,00,FF,30,97
1953640800,00000331,false,0,8,3E,00,00,00,00,00,00,00
1953643500,00000109,false,0,8,00,01,00,FF,FF,FF,0F,2C
1953643700,00000200,false,0,8,00,80,66,00,00,80,D0,00
1953644000,00000201,false,0,8,91,00,00,00,00,00,00,91
1953644200,00000202,false,0,8,40,00,00,00,00,80,32,F2
1953644500,00000333,false,0,8,00,00,00,00,00,00,00,00
1953645700,00000291,false,0,8,00,00,00,00,FF,00,00,0A
1953645900,00000523,false,0,8,08,38,4C,4C,4B,4A,00,00
1953646200,00000524,false,0,8,86,00,00,00,00,00,00,00
1953647600,00000354,false,0,8,AA,0A,55,05,00,01,00,4E
1953650100,0000010C,false,0,8,04,00,55,54,15,40,01,13
1953650300,000002A2,false,0,8,05,00,00,F4,05,00,00,3E
1953650600,00000153,false,0,8,A0,A9,20,FF,00,FF,40,A7
1953650800,00000331,false,0,8,3E,00,00,00,00,00,00,00
1953651100,00000386,false,0,8,00,C0,00,80,00,40,00,80
1953651300,00000387,false,0,8,15,15,16,15,00,57,02,00
1953651500,00000490,false,0,7,00,00,08,21,00,00,00
1953653500,00000109,false,0,8,00,01,00,FF,FF,FF,0F,3D
1953653700,00000200,false,0,8,00,80,66,00,00,C0,D0,00
1953654000,00000201,false,0,8,D1,00,00,00,00,00,00,D1
1953654200,00000202,false,0,8,60,00,00,00,00,80,32,D2
1953654400,00000333,false,0,8,00,00,00,00,00,00,00,00
1953655700,00000291,false,0,8,00,00,00,00,FF,00,00,0A
1953656000,00000523,false,0,8,08,38,4C,4C,4B,4A,00,00
1953656200,00000524,false,0,8,86,00,00,00,00,00,00,00
1953656900,00000450,false,0,3,00,C2,05
1953657200,00000462,false,0,8,FE,3F,FF,2F,F0,1F,00,00
1953657500,00000471,false,0,6,15,54,10,00,00,48
1953657700,00000354,false,0,8,AA,0A,55,05,00,01,00,3F
1953660000,0000010C,false,0,8,04,00,55,54,15,40,01,24
1953660300,000002A2,false,0,8,04,00,00,F4,05,00,00,3E
1953660500,00000153,false,0,8,A0,A9,20,FF,00,FF,50,B7
1953660800,00000331,false,0,8,3E,00,00,00,00,00,00,00
1953663500,00000109,false,0,8,00,01,00,FF,FF,FF,0F,0A
1953646500,00000371,false,1,8,3E,10,00,00,00,00,00,10
1953646800,00000372,false,1,8,00,00,00,00,00,00,00,00
1953650300,00000160,false,1,8,20,3C,01,12,00,00,00,0F
1953650600,00000153,false,1,8,A0,A9,20,FF,00,FF,40,A7
1953650800,00000386,false,1,8,00,C0,00,80,00,40,00,80
1953651000,00000387,false,1,8,15,15,16,15,00,57,02,00
1953651300,00000490,false,1,7,00,00,08,21,00,00,3C
1953656500,00000371,false,1,8,3E,10,00,00,00,00,00,10
1953656700,00000372,false,1,8,00,00,00,00,00,00,00,00
1953657000,00000470,false,1,8,15,44,40,55,55,48,14,00
1953660300,00000160,false,1,8,20,3C,01,12,00,00,00,0F
1953660500,00000153,false,1,8,A0,A9,20,FF,00,FF,50,B7
1953663700,00000200,false,0,8,00,80,66,00,00,00,D0,00
1953663900,00000201,false,0,8,11,00,00,00,00,00,00,11
1953664200,00000202,false,0,8,00,00,00,00,00,80,32,B2
1953664400,00000333,false,0,8,00,00,00,00,00,00,00,00
1953665700,00000291,false,0,8,00,00,00,00,FF,00,00,0A
1953665900,00000523,false,0,8,08,38,4C,4C,4B,4A,00,00
1953666600,00000371,false,1,8,3E,10,00,00,00,00,00,10
1953666900,00000372,false,1,8,00,00,00,00,00,00,00,00
1953666200,00000524,false,0,8,86,00,00,00,00,00,00,00
1953667600,00000354,false,0,8,AA,0A,55,05,00,01,00,20
1953669900,0000010C,false,0,8,04,00,55,54,15,40,01,35
1953670300,000002A2,false,0,8,05,00,00,F4,05,00,00,3E
1953670500,00000153,false,0,8,A0,A9,20,FF,00,FF,60,C7
1953670800,00000331,false,0,8,3E,00,00,00,00,00,00,00
1953671000,00000386,false,0,8,00,00,00,C0,00,40,00,80
1953671300,00000387,false,0,8,15,15,16,15,00,58,03,00
1953673400,00000109,false,0,8,00,01,00,FF,FF,FF,0F,1B
1953673700,00000200,false,0,8,00,80,66,00,00,40,D0,00
1953673900,00000201,false,0,8,51,00,00,00,00,00,00,51
1953674200,00000202,false,0,8,20,00,00,00,00,80,32,92
1953674400,00000333,false,0,8,00,00,00,00,00,00,00,00
1953675700,00000291,false,0,8,00,00,00,00,FF,00,00,0A
1953675900,00000523,false,0,8,08,38,4C,4C,4B,4A,00,00
1953676100,00000524,false,0,8,86,00,00,00,00,00,00,00
1953677300,00000450,false,0,3,00,C2,05
1953677600,00000462,false,0,8,FE,3F,FF,2F,F0,1F,00,00
1953677800,00000354,false,0,8,AA,0A,55,05,00,01,00,11
1953678000,00000471,false,0,6,15,50,10,00,00,8C
1953678300,00000520,false,0,8,00,00,00,00,00,00,00,00
1953678600,00000541,false,0,8,00,00,40,08,00,00,00,00
1953678800,0000055C,false,0,8,07,1F,14,FF,01,00,00,00
1953679100,0000055F,false,0,8,00,00,00,00,00,00,00,00
1953679400,00000561,false,0,8,00,00,00,00,00,00,00,00
1953679700,00000567,false,0,8,04,08,2E,34,00,00,00,00
1953680000,0000010C,false,0,8,04,00,55,54,15,40,01,02
1953680200,00000578,false,0,6,00,00,00,00,0F,00
1953680400,00000153,false,0,8,A0,A9,20,FF,00,FF,70,D7
1953680600,000002A2,false,0,8,04,00,00,F4,05,00,00,3E
1953680900,00000331,false,0,8,3E,00,00,00,00,00,00,00
1953681100,00000588,false,0,8,5B,1E,00,00,00,00,00,00
1953681500,000005EC,false,0,8,00,00,00,00,00,00,00,00
1953683400,00000109,false,0,8,00,01,00,FF,FF,FF,0F,2C
1953683700,00000200,false,0,8,00,80,66,00,00,80,D0,00
1953683900,00000201,false,0,8,91,00,00,00,00,00,00,91
1953684200,00000202,false,0,8,40,00,00,00,00,80,32,F2
1953684400,00000333,false,0,8,00,00,00,00,00,00,00,00
1953685700,00000291,false,0,8,00,00,00,00,FF,00,00,0A
1953685900,00000523,false,0,8,08,38,4C,4C,4B,4A,00,00
1953686200,00000524,false,0,8,86,00,00,00,00,00,00,00
1953687600,00000354,false,0,8,AA,0A,55,05,00,01,00,02
1953690000,0000010C,false,0,8,04,00,55,54,15,40,01,13
1953690300,000002A2,false,0,8,05,00,00,F4,05,00,00,3E
1953670300,00000160,false,1,8,20,3C,01,12,00,00,00,0F
1953670500,00000153,false,1,8,A0,A9,20,FF,00,FF,60,C7
1953670800,00000386,false,1,8,00,00,00,C0,00,40,00,80
1953671000,00000387,false,1,8,15,15,16,15,00,58,03,00
1953676500,00000371,false,1,8,3E,10,00,00,00,00,00,10
1953676800,00000372,false,1,8,00,00,00,00,00,00,00,00
1953677000,00000436,false,1,4,00,00,00,08
1953677300,00000470,false,1,8,15,44,40,55,55,8C,14,00
1953677500,0000050B,false,1,8,00,00,FF,00,FE,00,00,02
1953677800,00000520,false,1,8,00,00,00,00,9A,01,00,00
1953678100,00000541,false,1,8,00,00,41,08,00,08,00,01
1953678300,0000054B,false,1,8,00,00,00,00,00,CD,00,00
1953678600,00000595,false,1,8,00,00,00,00,00,00,00,00
1953678900,00000596,false,1,8,80,00,00,00,00,00,FE,FF
1953679100,000005C1,false,1,8,01,01,00,00,57,0D,00,09
1953679400,000005FF,false,1,8,FF,00,00,00,00,00,00,00
1953680300,00000160,false,1,8,20,3C,01,12,00,00,00,0F
1953680500,00000153,false,1,8,A0,A9,20,FF,00,FF,70,D7
1953686500,00000371,false,1,8,3E,10,00,00,00,00,00,10
1953686800,00000372,false,1,8,00,00,00,00,00,00,00,00
1953690300,00000160,false,1,8,20,3D,01,12,00,00,00,0E
1953690500,00000153,false,1,8,A0,A9,20,FF,00,FF,80,E7
1953690700,00000386,false,1,8,00,40,00,C0,00,40,00,80
1953691000,00000387,false,1,8,15,15,16,15,00,59,04,00
1953690500,00000153,false,0,8,A0,A9,20,FF,00,FF,80,E7
1953690800,00000331,false,0,8,3E,00,00,00,00,00,00,00
1953691000,00000386,false,0,8,00,40,00,C0,00,40,00,80
1953691200,00000387,false,0,8,15,15,16,15,00,59,04,00
1953693400,00000109,false,0,8,00,01,00,FF,FF,FF,0F,3D
1953693700,00000200,false,0,8,00,80,66,00,00,C0,D0,00
1953693900,00000201,false,0,8,D1,00,00,00,00,00,00,D1
1953694100,00000202,false,0,8,60,00,00,00,00,80,32,D2
1953694400,00000333,false,0,8,00,00,00,00,00,00,00,00
1953695600,00000291,false,0,8,00,00,00,00,FF,00,00,0A
1953695900,00000523,false,0,8,08,38,4C,4C,4B,4A,00,00
1953696100,00000524,false,0,8,86,00,00,00,00,00,00,00
1953696900,00000450,false,0,3,00,C2,05
1953696400,00000371,false,1,8,3E,10,00,00,00,00,00,10
1953696700,00000372,false,1,8,00,00,00,00,00,00,00,00
1953696900,00000470,false,1,8,15,44,40,55,55,50,14,00
1953697100,00000462,false,0,8,FE,3F,FF,2F,F0,1F,00,00
1953697400,00000471,false,0,6,15,54,10,00,00,50
1953697600,00000354,false,0,8,AA,0A,55,05,00,01,00,F3
1953699900,0000010C,false,0,8,04,00,55,54,15,40,01,24
1953700300,000002A2,false,0,8,04,00,00,F4,05,00,00,3E
1953700500,00000153,false,0,8,A0,A9,20,FF,00,FF,90,F7
1953700700,00000331,false,0,8,3E,00,00,00,00,00,00,00
1953701000,00000490,false,0,7,00,00,08,21,00,00,00
1953701100,00000507,false,0,4,09,00,00,05
1953703400,00000109,false,0,8,00,01,00,FF,FF,FF,0F,0A
1953703600,00000200,false,0,8,00,80,66,00,00,00,D0,00
1953703900,00000201,false,0,8,11,00,00,00,00,00,00,11
1953704100,00000202,false,0,8,00,00,00,00,00,80,32,B2
1953704400,00000333,false,0,8,00,00,00,00,00,00,00,00
1953704800,00000590,false,0,8,41,00,00,00,00,00,00,64
1953705000,0000045B,false,0,8,CD,10,00,AC,B4,12,4E,0D
1953705300,00000529,false,0,8,00,00,00,EC,01,5A,1C,00
1953705500,00000549,false,0,8,8D,81,FF,85,1C,A7,7F,7F
1953705700,00000291,false,0,8,00,00,00,00,FF,00,00,0A
1953706000,00000523,false,0,8,08,38,4C,4C,4B,4A,00,00
1953706200,00000524,false,0,8,86,00,00,00,00,00,00,00
1953706500,00000579,false,0,8,5B,1E,00,A0,04,09,00,FE
1953706700,0000057A,false,0,8,07,1F,14,FF,01,FE,FF,07
1953706900,0000057B,false,0,8,01,01,08,00,00,46,64,A0
1953707200,0000058F,false,0,8,07,00,00,0A,00,00,00,00
1953707400,00000592,false,0,8,40,00,00,00,00,00,00,45
1953707700,00000354,false,0,8,AA,0A,55,05,00,01,00,E4
1953707900,000005D9,false,0,8,01,00,00,80,5C,1B,00,00
1953710000,0000010C,false,0,8,04,00,55,54,15,40,01,35
1953710300,000002A2,false,0,8,05,00,00,F4,05,00,00,3E
1953710500,00000153,false,0,8,A0,A9,20,FF,00,FF,A0,07
1953710700,00000331,false,0,8,3E,00,00,00,00,00,00,00
1953711000,00000386,false,0,8,00,80,00,C0,00,40,00,80
1953711200,00000387,false,0,8,15,15,16,15,00,5A,05,00
1953713400,00000109,false,0,8,00,01,00,FF,FF,FF,0F,1B
1953713600,00000200,false,0,8,00,80,66,00,00,40,D0,00
1953713900,00000201,false,0,8,51,00,00,00,00,00,00,51
1953714100,00000202,false,0,8,20,00,00,00,00,80,32,92
1953714400,00000333,false,0,8,00,00,00,00,00,00,00,00
1953715600,00000291,false,0,8,00,00,00,00,FF,00,00,0A
1953715900,00000523,false,0,8,08,38,4C,4C,4B,4A,00,00
1953716100,00000524,false,0,8,86,00,00,00,00,00,00,00
1953716800,00000450,false,0,3,00,C2,05
1953717100,00000462,false,0,8,FE,3F,FF,2F,F0,1F,00,00
1953717300,00000471,false,0,6,15,54,10,00,00,54
1953717600,00000354,false,0,8,AA,0A,55,05,00,01,00,D5
1953717800,000002A1,false,0,8,00,00,00,00,00,00,00,00
1953719900,0000010C,false,0,8,04,00,55,54,15,40,01,02
1953700300,00000160,false,1,8,20,3D,01,12,00,00,00,0E
1953700500,00000153,false,1,8,A0,A9,20,FF,00,FF,90,F7
1953700700,00000490,false,1,7,00,00,08,21,00,00,3C
1953700900,00000507,false,1,4,09,00,00,05
1953706600,00000371,false,1,8,3E,10,00,00,00,00,00,10
1953706800,00000372,false,1,8,00,00,00,00,00,00,00,00
1953707700,00000592,false,1,8,40,00,00,00,00,00,00,45
1953710200,00000160,false,1,8,20,3D,01,12,00,00,00,0E
1953710500,00000153,false,1,8,A0,A9,20,FF,00,FF,A0,07
1953710700,00000386,false,1,8,00,80,00,C0,00,40,00,80
1953711000,00000387,false,1,8,15,15,16,15,00,5A,05,00
1953716500,00000371,false,1,8,3E,10,00,00,00,00,00,10
1953716700,00000372,false,1,8,00,00,00,00,00,00,00,00
1953717000,00000470,false,1,8,15,44,40,55,55,54,14,00
1953720200,00000160,false,1,8,20,3C,01,12,00,00,00,0F
1953720500,00000153,false,1,8,A0,A9,20,FF,00,FF,B0,17
1953720300,000002A2,false,0,8,04,00,00,F4,05,00,00,3E
1953720500,00000153,false,0,8,A0,A9,20,FF,00,FF,B0,17
1953720700,00000331,false,0,8,3E,00,00,00,00,00,00,00
1953723400,00000109,false,0,8,00,01,00,FF,FF,FF,0F,2C
1953723600,00000200,false,0,8,00,80,66,00,00,80,D0,00
1953723900,00000201,false,0,8,91,00,00,00,00,00,00,91
1953724100,00000202,false,0,8,40,00,00,00,00,80,32,F2
1953724400,00000333,false,0,8,00,00,00,00,00,00,00,00
1953725600,00000291,false,0,8,00,00,00,00,FF,00,00,0A
1953725800,00000523,false,0,8,08,38,4C,4C,4B,4A,00,00
1953726100,00000524,false,0,8,86,00,00,00,00,00,00,00
1953727500,00000354,false,0,8,AA,0A,55,05,00,01,00,C6
1953730000,0000010C,false,0,8,04,00,55,54,15,40,01,13
1953730200,000002A2,false,0,8,05,00,00,F4,05,00,00,3E
1953730500,00000153,false,0,8,A0,A9,20,FF,00,FF,C0,27
1953730700,00000331,false,0,8,3E,00,00,00,00,00,00,00
1953731000,00000386,false,0,8,00,C0,00,C0,00,40,00,80
1953731200,00000387,false,0,8,15,15,16,15,00,5B,06,00
1953732000,00000593,false,0,6,01,08,FF,FF,FF,FF
1953733400,00000109,false,0,8,00,01,00,FF,FF,FF,0F,3D
1953733600,00000200,false,0,8,00,80,66,00,00,C0,D0,00
1953733900,00000201,false,0,8,D1,00,00,00,00,00,00,D1
1953734100,00000202,false,0,8,60,00,00,00,00,80,32,D2
1953734300,00000333,false,0,8,00,00,00,00,00,00,00,00
1953735600,00000291,false,0,8,00,00,00,00,FF,00,00,0A
1953735800,00000523,false,0,8,08,38,4C,4C,4B,4A,00,00
1953736100,00000524,false,0,8,86,00,00,00,00,00,00,00
1953736800,00000450,false,0,3,00,C2,05
1953737100,00000462,false,0,8,FE,3F,FF,2F,F0,1F,00,00
1953737400,00000471,false,0,6,15,50,10,00,00,58
1953737600,00000354,false,0,8,AA,0A,55,05,00,01,00,B7
1953739900,0000010C,false,0,8,04,00,55,54,15,40,01,24
1953740200,000002A2,false,0,8,04,00,00,F4,05,00,00,3E
1953740500,00000153,false,0,8,A0,A9,20,FF,00,FF,D0,37
1953740700,00000331,false,0,8,3E,00,00,00,00,00,00,00
1953743400,00000109,false,0,8,00,01,00,FF,FF,FF,0F,0A
1953743600,00000200,false,0,8,00,80,66,00,00,00,D0,00
1953743800,00000201,false,0,8,11,00,00,00,00,00,00,11
1953744100,00000202,false,0,8,00,00,00,00,00,80,32,B2
1953744300,00000333,false,0,8,00,00,00,00,00,00,00,00
1953745600,00000291,false,0,8,00,00,00,00,FF,00,00,0A
1953745800,00000523,false,0,8,08,38,4C,4C,4B,4A,00,00
1953746100,00000524,false,0,8,86,00,00,00,00,00,00,00
1953726400,00000371,false,1,8,3E,10,00,00,00,00,00,10
1953726700,00000372,false,1,8,00,00,00,00,00,00,00,00
1953726900,00000436,false,1,4,00,00,00,08
1953730200,00000160,false,1,8,20,3C,01,12,00,00,00,0F
1953730500,00000153,false,1,8,A0,A9,20,FF,00,FF,C0,27
1953730700,00000386,false,1,8,00,C0,00,C0,00,40,00,80
1953730900,00000387,false,1,8,15,15,16,15,00,5B,06,00
1953732300,00000593,false,1,6,01,08,FF,FF,FF,FF
1953736400,00000371,false,1,8,3E,10,00,00,00,00,00,10
1953736700,00000372,false,1,8,00,00,00,00,00,00,00,00
1953736900,00000470,false,1,8,15,00,00,55,55,58,00,00
1953740200,00000160,false,1,8,20,3C,01,12,00,00,00,0F
1953740400,00000153,false,1,8,A0,A9,20,FF,00,FF,D0,37
1953746500,00000371,false,1,8,3E,10,00,00,00,00,00,10
1953746800,00000372,false,1,8,00,00,00,00,00,00,00,00
1953747500,00000354,false,0,8,AA,0A,55,05,00,01,00,A8
1953749800,0000010C,false,0,8,04,00,55,54,15,40,01,35
1953750200,000002A2,false,0,8,05,00,00,F4,05,00,00,3E
1953750200,00000160,false,1,8,20,3C,01,12,00,00,00,0F
1953750400,00000490,false,1,7,00,00,08,21,00,00,3C
1953750700,00000153,false,1,8,A0,A9,20,FF,00,FF,E0,47
1953750500,00000153,false,0,8,A0,A9,20,FF,00,FF,E0,47
1953750700,00000331,false,0,8,3E,00,00,00,00,00,00,00
1953750900,00000386,false,0,8,00,00,00,00,00,40,00,80
1953750900,00000386,false,1,8,00,00,00,00,00,40,00,80
1953751100,00000387,false,1,8,15,15,16,15,00,5C,07,00
1953751200,00000387,false,0,8,15,15,16,15,00,5C,07,00
1953751400,00000490,false,0,7,00,00,08,21,00,00,00
1953753300,00000109,false,0,8,00,01,00,FF,FF,FF,0F,1B
1953753600,00000200,false,0,8,00,80,66,00,00,40,D0,00
1953753800,00000201,false,0,8,51,00,00,00,00,00,00,51
1953754100,00000202,false,0,8,20,00,00,00,00,80,32,92
1953754300,00000333,false,0,8,00,00,00,00,00,00,00,00
1953755600,00000291,false,0,8,00,00,00,00,FF,00,00,0A
1953755800,00000523,false,0,8,08,38,4C,4C,4B,4A,00,00
1953756100,00000524,false,0,8,85,00,00,00,00,00,00,00
1953756900,00000450,false,0,3,00,C2,05
1953757200,00000462,false,0,8,FE,3F,FF,2F,F0,1F,00,00
1953757400,00000471,false,0,6,15,54,10,00,00,9C
1953757600,00000354,false,0,8,AA,0A,55,05,00,01,00,99
1953759900,0000010C,false,0,8,04,00,55,54,15,40,01,02
1953760200,000002A2,false,0,8,04,00,00,F4,05,00,00,3E
1953760400,00000153,false,0,8,A0,A9,20,FF,00,FF,00,67
1953760700,00000331,false,0,8,3E,00,00,00,00,00,00,00
1953763300,00000109,false,0,8,00,01,00,FF,FF,FF,0F,2C
1953763600,00000200,false,0,8,00,80,66,00,00,80,D0,00
1953763800,00000201,false,0,8,91,00,00,00,00,00,00,91
1953764100,00000202,false,0,8,40,00,00,00,00,80,32,F2
1953764300,00000333,false,0,8,00,00,00,00,00,00,00,00
1953765600,00000291,false,0,8,00,00,00,00,FF,00,00,0A
1953765800,00000523,false,0,8,08,38,4C,4C,4B,4A,00,00
1953766000,00000524,false,0,8,85,00,00,00,00,00,00,00
1953767500,00000354,false,0,8,AA,0A,55,05,00,01,00,8A
1953769900,0000010C,false,0,8,04,00,55,54,15,40,01,13
1953770200,000002A2,false,0,8,05,00,00,F4,05,00,00,3E
1953770400,00000153,false,0,8,A0,A9,20,FF,00,FF,10,77
1953770700,00000331,false,0,8,3E,00,00,00,00,00,00,00
1953770900,00000386,false,0,8,00,40,00,00,00,40,00,80
1953771100,00000387,false,0,8,15,15,16,15,00,5D,08,00
1953773300,00000109,false,0,8,00,01,00,FF,FF,FF,0F,3D
1953773600,00000200,false,0,8,00,80,66,00,00,C0,D0,00
1953756400,00000371,false,1,8,3E,10,00,00,00,00,00,10
1953756700,00000372,false,1,8,00,00,00,00,00,00,00,00
1953757000,00000470,false,1,8,15,44,40,55,55,9C,14,00
1953760200,00000160,false,1,8,20,3C,01,12,00,00,00,0F
1953760400,00000153,false,1,8,A0,A9,20,FF,00,FF,00,67
1953766400,00000371,false,1,8,3E,10,00,00,00,00,00,10
1953766700,00000372,false,1,8,00,00,00,00,00,00,00,00
1953770200,00000160,false,1,8,20,3C,01,12,00,00,00,0F
1953770400,00000153,false,1,8,A0,A9,20,FF,00,FF,10,77
1953770600,00000386,false,1,8,00,40,00,00,00,40,00,80
1953770900,00000387,false,1,8,15,15,16,15,00,5D,08,00
1953773800,00000201,false,0,8,D1,00,00,00,00,00,00,D1
1953774100,00000202,false,0,8,60,00,00,00,00,80,32,D2
1953774300,00000333,false,0,8,00,00,00,00,00,00,00,00
1953775500,00000291,false,0,8,00,00,00,00,FF,00,00,0A
1953775800,00000523,false,0,8,08,38,4C,4C,4B,4A,00,00
1953776000,00000524,false,0,8,85,00,00,00,00,00,00,00
1953777100,00000414,false,0,8,01,00,00,00,00,00,00,00
1953777300,00000450,false,0,3,00,C2,05
1953777500,00000354,false,0,8,AA,0A,55,05,00,01,00,7B
1953776300,00000371,false,1,8,3E,10,00,00,00,00,00,10
1953776600,00000372,false,1,8,00,00,00,00,00,00,00,00
1953776900,00000410,false,1,8,E0,12,61,18,80,02,00,20
1953777100,00000412,false,1,8,00,00,00,00,00,00,00,00
1953777300,00000436,false,1,4,00,00,00,08
1953777600,00000470,false,1,8,15,44,40,55,55,60,14,00
1953777800,0000049F,false,1,8,00,00,00,00,00,00,00,00
1953778100,000004C9,false,1,8,00,00,00,00,00,00,00,00
1953778300,0000050B,false,1,8,00,00,FF,00,FE,00,00,02
1953777800,0000045D,false,0,8,FF,FF,FF,FF,FF,FF,FF,0F
1953778000,0000045E,false,0,8,FF,FF,FF,FF,FF,00,00,00
1953778300,00000462,false,0,8,FE,3F,FF,2F,F0,1F,00,00
1953778500,00000471,false,0,6,15,50,10,00,00,60
1953778800,000004FE,false,0,8,FF,FF,7F,FF,FF,00,FF,FF
1953779100,00000520,false,0,8,00,00,00,00,00,00,00,00
1953778600,0000050E,false,1,8,00,00,00,40,00,00,00,00
1953778900,00000520,false,1,8,00,00,00,00,9C,01,00,00
1953779200,00000541,false,1,8,00,00,41,08,00,08,00,01
1953779500,00000544,false,1,8,FF,77,FF,FF,00,00,00,00
1953779700,0000054B,false,1,8,00,00,00,00,00,CD,00,00
1953780000,00000553,false,1,8,00,00,00,0C,01,00,80,00
1953779300,00000541,false,0,8,00,00,40,08,00,00,00,00
1953779600,00000553,false,0,8,04,00,00,00,00,00,80,00
1953779900,0000010C,false,0,8,04,00,55,54,15,40,01,24
1953780100,0000055C,false,0,8,07,1F,14,FF,01,00,00,00
1953780300,00000153,false,0,8,A0,A9,20,FF,00,FF,20,87
1953780600,000002A2,false,0,8,04,00,00,F4,05,00,00,3E
1953780800,00000331,false,0,8,3E,00,00,00,00,00,00,00
1953781100,0000055F,false,0,8,00,00,00,00,00,00,00,00
1953781300,00000561,false,0,8,00,00,00,00,00,00,00,00
1953780200,00000153,false,1,8,A0,A9,20,FF,00,FF,20,87
1953780500,00000160,false,1,8,20,3C,01,12,00,00,00,0F
1953780700,00000559,false,1,8,00,00,04,00,00,00,00,00
1953781000,00000595,false,1,8,00,00,00,00,00,00,00,00
1953781300,00000596,false,1,8,80,00,00,00,00,00,FE,FF
1953781500,000005C1,false,1,8,01,01,00,00,57,0D,00,09
1953781800,000005FF,false,1,8,FF,00,00,00,00,00,00,00
1953781600,00000567,false,0,8,04,08,2E,34,00,00,00,00
1953781800,00000578,false,0,6,00,00,00,00,0F,00
1953782100,00000588,false,0,8,5B,1E,00,00,00,00,00,00
1953782300,000005B3,false,0,8,40,10,FE,30,00,00,00,00
1953782700,000005DF,false,0,8,05,1A,02,00,00,00,00,00
1953783000,000005EC,false,0,8,00,00,00,00,00,00,00,00
1953783300,00000109,false,0,8,00,01,00,FF,FF,FF,0F,0A
1953783500,00000200,false,0,8,00,80,66,00,00,00,D0,00
1953783800,00000201,false,0,8,11,00,00,00,00,00,00,11
1953784000,00000202,false,0,8,00,00,00,00,00,80,32,B2
1953784300,00000333,false,0,8,00,00,00,00,00,00,00,00
1953785500,00000291,false,0,8,00,00,00,00,FF,00,00,0A
1953785700,00000523,false,0,8,08,38,4C,4C,4B,4A,00,00
1953786000,00000524,false,0,8,85,00,00,00,00,00,00,00
1953787500,00000354,false,0,8,AA,0A,55,05,00,01,00,6C
1953789900,0000010C,false,0,8,04,00,55,54,15,40,01,35
1953790200,000002A2,false,0,8,05,00,00,F4,05,00,00,3E
1953790400,00000153,false,0,8,A0,A9,20,FF,00,FF,30,97
1953790600,00000331,false,0,8,3E,00,00,00,00,00,00,00
1953790900,00000386,false,0,8,00,80,00,00,00,40,00,80
1953791100,00000387,false,0,8,15,15,16,15,00,5E,09,00
1953793300,00000109,false,0,8,00,01,00,FF,FF,FF,0F,1B
1953793500,00000200,false,0,8,00,80,66,00,00,40,D0,00
1953793800,00000201,false,0,8,51,00,00,00,00,00,00,51
1953794000,00000202,false,0,8,20,00,00,00,00,80,32,92
1953794300,00000333,false,0,8,00,00,00,00,00,00,00,00
1953795500,00000291,false,0,8,00,00,00,00,FF,00,00,0A
1953795800,00000523,false,0,8,08,38,4C,4C,4B,4A,00,00
1953796000,00000524,false,0,8,85,00,00,00,00,00,00,00
1953796800,00000450,false,0,3,00,C2,05
1953797000,00000462,false,0,8,FE,3F,FF,2F,F0,1F,00,00
1953797200,00000471,false,0,6,15,54,10,00,00,64
1953797500,00000354,false,0,8,AA,0A,55,05,00,01,00,5D
1953799800,0000010C,false,0,8,04,00,55,54,15,40,01,02
1953800200,000002A2,false,0,8,04,00,00,F4,05,00,00,3E
1953800400,00000153,false,0,8,A0,A9,20,FF,00,FF,40,A7
1953800600,00000331,false,0,8,3E,00,00,00,00,00,00,00
1953800900,00000490,false,0,7,00,00,08,21,00,00,00
1953801000,00000507,false,0,4,09,00,00,05
1953803300,00000109,false,0,8,00,01,00,FF,FF,FF,0F,2C
1953803500,00000200,false,0,8,00,80,66,00,00,80,D0,00
1953803800,00000201,false,0,8,91,00,00,00,00,00,00,91
1953804000,00000202,false,0,8,40,00,00,00,00,80,32,F2
1953804300,00000333,false,0,8,00,00,00,00,00,00,00,00
1953804700,00000590,false,0,8,41,00,00,00,00,00,00,64
1953804900,0000045B,false,0,8,CD,10,00,AC,B4,12,4E,0D
1953805100,00000549,false,0,8,8D,81,FF,85,1C,A7,7F,7F
1953805400,00000579,false,0,8,5B,1E,00,A0,04,09,00,FE
1953805600,00000291,false,0,8,00,00,00,00,FF,00,00,0A
1953805900,00000523,false,0,8,08,38,4C,4C,4B,4A,00,00
1953786500,00000371,false,1,8,3E,10,00,00,00,00,00,10
1953786700,00000372,false,1,8,00,00,00,00,00,00,00,00
1953790200,00000160,false,1,8,20,3C,01,12,00,00,00,0F
1953790400,00000153,false,1,8,A0,A9,20,FF,00,FF,30,97
1953790600,00000386,false,1,8,00,80,00,00,00,40,00,80
1953790800,00000387,false,1,8,15,15,16,15,00,5E,09,00
1953796400,00000371,false,1,8,3E,10,00,00,00,00,00,10
1953796700,00000372,false,1,8,00,00,00,00,00,00,00,00
1953796900,00000470,false,1,8,15,44,40,55,55,64,14,00
1953800100,00000160,false,1,8,20,3C,01,12,00,00,00,0F
1953800400,00000153,false,1,8,A0,A9,20,FF,00,FF,40,A7
1953800600,00000490,false,1,7,00,00,08,21,00,00,3C
1953800800,00000507,false,1,4,09,00,00,05
1953806300,00000371,false,1,8,3E,10,00,00,00,00,00,10
1953806600,00000372,false,1,8,00,00,00,00,00,00,00,00
1953807300,00000592,false,1,8,40,00,00,00,00,00,00,85
1953806100,00000524,false,0,8,85,00,00,00,00,00,00,00
1953806300,0000057A,false,0,8,07,1F,14,FF,01,FE,FF,07
1953806600,0000057B,false,0,8,01,01,08,00,00,46,64,A0
1953806800,0000058F,false,0,8,07,00,00,0A,00,00,00,00
1953807100,00000592,false,0,8,40,00,00,00,00,00,00,85
1953807300,000005D9,false,0,8,01,00,00,80,5C,1B,00,00
1953807500,00000354,false,0,8,AA,0A,55,05,00,01,00,4E
1953809900,0000010C,false,0,8,04,00,55,54,15,40,01,13
1953810100,000002A2,false,0,8,05,00,00,F4,05,00,00,3E
1953810400,00000153,false,0,8,A0,A9,20,FF,00,FF,50,B7
1953810600,00000331,false,0,8,3E,00,00,00,00,00,00,00
1953810800,00000386,false,0,8,00,C0,00,00,00,40,00,80
1953811100,00000387,false,0,8,15,15,16,15,00,5F,0A,00
1953810100,00000160,false,1,8,20,3D,01,12,00,00,00,0E
1953810300,00000153,false,1,8,A0,A9,20,FF,00,FF,50,B7
1953810600,00000386,false,1,8,00,C0,00,00,00,40,00,80
1953810800,00000387,false,1,8,15,15,16,15,00,5F,0A,00
1953813300,00000109,false,0,8,00,01,00,FF,FF,FF,0F,3D
1953813500,00000200,false,0,8,00,80,66,00,00,C0,D0,00
1953813800,00000201,false,0,8,D1,00,00,00,00,00,00,D1
1953814000,00000202,false,0,8,60,00,00,00,00,80,32,D2
1953814200,00000333,false,0,8,00,00,00,00,00,00,00,00
1953815500,00000291,false,0,8,00,00,00,00,FF,00,00,0A
1953815700,00000523,false,0,8,08,38,4C,4C,4B,4A,00,00
1953816000,00000524,false,0,8,85,00,00,00,00,00,00,00
1953816700,00000450,false,0,3,00,C2,05
1953817000,00000462,false,0,8,FE,3F,FF,2F,F0,1F,00,00
1953817300,00000471,false,0,6,15,54,10,00,00,68
1953817500,00000354,false,0,8,AA,0A,55,05,00,01,00,3F
1953817700,000002A1,false,0,8,00,00,00,00,00,00,00,00
1953818000,00000540,false,0,8,F3,33,00,00,7A,00,00,00
1953819800,0000010C,false,0,8,04,00,55,54,15,40,01,24
1953820100,000002A2,false,0,8,04,00,00,F4,05,00,00,3E
1953820300,00000153,false,0,8,A0,A9,20,FF,00,FF,60,C7
1953820600,00000331,false,0,8,3E,00,00,00,00,00,00,00
1953823300,00000109,false,0,8,00,01,00,FF,FF,FF,0F,0A
1953823500,00000200,false,0,8,00,80,66,00,00,00,D0,00
1953823800,00000201,false,0,8,11,00,00,00,00,00,00,11
1953824000,00000202,false,0,8,00,00,00,00,00,80,32,B2
1953824200,00000333,false,0,8,00,00,00,00,00,00,00,00
1953825500,00000291,false,0,8,00,00,00,00,FF,00,00,0A
1953825700,00000523,false,0,8,08,38,4C,4C,4B,4A,00,00
1953826000,00000524,false,0,8,85,00,00,00,00,00,00,00
1953827400,00000354,false,0,8,AA,0A,55,05,00,01,00,20
1953829700,0000010C,false,0,8,04,00,55,54,15,40,01,35
1953830100,000002A2,false,0,8,05,00,00,F4,05,00,00,3E
1953830300,00000153,false,0,8,A0,A9,20,FF,00,FF,70,D7
1953830600,00000331,false,0,8,3E,00,00,00,00,00,00,00
1953830800,00000386,false,0,8,00,00,00,40,00,40,00,80
1953831100,00000387,false,0,8,15,15,16,15,00,60,0B,00
1953833200,00000109,false,0,8,00,01,00,FF,FF,FF,0F,1B
1953833500,00000200,false,0,8,00,80,66,00,00,40,D0,00
1953833700,00000201,false,0,8,51,00,00,00,00,00,00,51
1953816300,00000371,false,1,8,3E,10,00,00,00,00,00,10
1953816500,00000372,false,1,8,00,00,00,00,00,00,00,00
1953816800,00000470,false,1,8,15,44,40,55,55,68,14,00
1953820100,00000160,false,1,8,20,3D,01,12,00,00,00,0E
1953820400,00000153,false,1,8,A0,A9,20,FF,00,FF,60,C7
1953826400,00000371,false,1,8,3E,10,00,00,00,00,00,10
1953826700,00000372,false,1,8,00,00,00,00,00,00,00,00
1953826800,00000436,false,1,4,00,00,00,08
1953830100,00000160,false,1,8,20,3D,01,12,00,00,00,0E
1953830300,00000153,false,1,8,A0,A9,20,FF,00,FF,70,D7
1953830600,00000386,false,1,8,00,00,00,40,00,40,00,80
1953830800,00000387,false,1,8,15,15,16,15,00,60,0B,00
1953834000,00000202,false,0,8,20,00,00,00,00,80,32,92
1953834200,00000333,false,0,8,00,00,00,00,00,00,00,00
1953835500,00000291,false,0,8,00,00,00,00,FF,00,00,0A
1953835700,00000523,false,0,8,08,38,4C,4C,4B,4A,00,00
1953836000,00000524,false,0,8,85,00,00,00,00,00,00,00
1953836700,00000450,false,0,3,00,C2,05
1953836900,00000462,false,0,8,FE,3F,FF,2F,F0,1F,00,00
1953837200,00000471,false,0,6,15,50,10,00,00,AC
1953837400,00000354,false,0,8,AA,0A,55,05,00,01,00,11
1953836300,00000371,false,1,8,3E,10,00,00,00,00,00,10
1953836600,00000372,false,1,8,00,00,00,00,00,00,00,00
1953836900,00000470,false,1,8,15,00,00,55,55,AC,00,00
1953839800,0000010C,false,0,8,04,00,55,54,15,40,01,02
1953840100,000002A2,false,0,8,04,00,00,F4,05,00,00,3E
1953840300,00000153,false,0,8,A0,A9,20,FF,00,FF,80,E7
1953840600,00000331,false,0,8,3E,00,00,00,00,00,00,00
1953843200,00000109,false,0,8,00,01,00,FF,FF,FF,0F,2C
1953843500,00000200,false,0,8,00,80,66,00,00,80,D0,00
1953843700,00000201,false,0,8,91,00,00,00,00,00,00,91
1953844000,00000202,false,0,8,40,00,00,00,00,80,32,F2
1953844200,00000333,false,0,8,00,00,00,00,00,00,00,00
1953845500,00000291,false,0,8,00,00,00,00,FF,00,00,0A
1953845700,00000523,false,0,8,08,38,4C,4C,4B,4A,00,00
1953846000,00000524,false,0,8,85,00,00,00,00,00,00,00
1953847400,00000354,false,0,8,AA,0A,55,05,00,01,00,02
1953849800,0000010C,false,0,8,04,00,55,54,15,40,01,13
1953850100,000002A2,false,0,8,05,00,00,F4,05,00,00,3E
1953850300,00000153,false,0,8,A0,A9,20,FF,00,FF,90,F7
1953850600,00000331,false,0,8,3E,00,00,00,00,00,00,00
1953850800,00000386,false,0,8,00,40,00,40,00,40,00,80
1953851000,00000387,false,0,8,15,15,16,15,00,61,0C,00
1953851300,00000490,false,0,7,00,00,08,21,00,00,00
1953853200,00000109,false,0,8,00,01,00,FF,FF,FF,0F,3D
1953853500,00000200,false,0,8,00,80,66,00,00,C0,D0,00
1953853700,00000201,false,0,8,D1,00,00,00,00,00,00,D1
1953854000,00000202,false,0,8,60,00,00,00,00,80,32,D2
1953854200,00000333,false,0,8,00,00,00,00,00,00,00,00
1953855500,00000291,false,0,8,00,00,00,00,FF,00,00,0A
1953855700,00000523,false,0,8,08,38,4C,4C,4B,4A,00,00
1953855900,00000524,false,0,8,85,00,00,00,00,00,00,00
1953856600,00000450,false,0,3,00,C2,05
1953856900,00000462,false,0,8,FE,3F,FF,2F,F0,1F,00,00
1953857200,00000471,false,0,6,15,54,10,00,00,B0
1953857400,00000354,false,0,8,AA,0A,55,05,00,01,00,F3
1953859700,0000010C,false,0,8,04,00,55,54,15,40,01,24
1953840100,00000160,false,1,8,20,3D,01,12,00,00,00,0E
1953840300,00000153,false,1,8,A0,A9,20,FF,00,FF,80,E7
1953846300,00000371,false,1,8,3E,10,00,00,00,00,00,10
1953846500,00000372,false,1,8,00,00,00,00,00,00,00,00
1953850100,00000160,false,1,8,20,3D,01,12,00,00,00,0E
1953850300,00000153,false,1,8,A0,A9,20,FF,00,FF,90,F7
1953850500,00000386,false,1,8,00,40,00,40,00,40,00,80
1953850800,00000387,false,1,8,15,15,16,15,00,61,0C,00
1953851000,00000490,false,1,7,00,00,08,21,00,00,3C
1953856300,00000371,false,1,8,3E,10,00,00,00,00,00,10
1953856500,00000372,false,1,8,00,00,00,00,00,00,00,00
1953856800,00000470,false,1,8,15,44,40,55,55,B0,14,00
1953860100,00000160,false,1,8,20,3C,01,12,00,00,00,0F
1953860300,00000153,false,1,8,A0,A9,20,FF,00,FF,A0,07
1953860100,000002A2,false,0,8,04,00,00,F4,05,00,00,3E
1953860300,00000153,false,0,8,A0,A9,20,FF,00,FF,A0,07
1953860600,00000331,false,0,8,3E,00,00,00,00,00,00,00
1953863200,00000109,false,0,8,00,01,00,FF,FF,FF,0F,0A
1953863500,00000200,false,0,8,00,80,66,00,00,00,D0,00
1953863700,00000201,false,0,8,11,00,00,00,00,00,00,11
1953864000,00000202,false,0,8,00,00,00,00,00,80,32,B2
1953864200,00000333,false,0,8,00,00,00,00,00,00,00,00
1953865400,00000291,false,0,8,00,00,00,00,FF,00,00,0A
1953865700,00000523,false,0,8,08,38,4C,4C,4B,4A,00,00
1953865900,00000524,false,0,8,85,00,00,00,00,00,00,00
1953867400,00000354,false,0,8,AA,0A,55,05,00,01,00,E4
1953869800,0000010C,false,0,8,04,00,55,54,15,40,01,35
1953870000,000002A2,false,0,8,05,00,00,F4,05,00,00,3E
1953870300,00000153,false,0,8,A0,A9,20,FF,00,FF,B0,17
1953870500,00000331,false,0,8,3E,00,00,00,00,00,00,00
1953870800,00000386,false,0,8,00,80,00,40,00,40,00,80
1953871000,00000387,false,0,8,15,15,16,15,00,62,0D,00
1953873200,00000109,false,0,8,00,01,00,FF,FF,FF,0F,1B
1953873400,00000200,false,0,8,00,80,66,00,00,40,D0,00
1953873700,00000201,false,0,8,51,00,00,00,00,00,00,51
1953873900,00000202,false,0,8,20,00,00,00,00,80,32,92
1953874200,00000333,false,0,8,00,00,00,00,00,00,00,00
1953875400,00000291,false,0,8,00,00,00,00,FF,00,00,0A
1953875600,00000523,false,0,8,08,38,4C,4C,4B,4A,00,00
1953875900,00000524,false,0,8,85,00,00,00,00,00,00,00
1953877000,00000450,false,0,3,00,C2,05
1953877300,00000462,false,0,8,FE,3F,FF,2F,F0,1F,00,00
1953877500,00000354,false,0,8,AA,0A,55,05,00,01,00,D5
1953877700,00000471,false,0,6,15,50,10,00,00,B4
1953878000,00000520,false,0,8,00,00,00,00,00,00,00,00
1953878300,00000541,false,0,8,00,00,40,08,00,00,00,00
1953878500,0000055C,false,0,8,07,1F,14,FF,01,00,00,00
1953878900,0000055F,false,0,8,00,00,00,00,00,00,00,00
1953879200,00000561,false,0,8,00,00,00,00,00,00,00,00
1953879500,00000567,false,0,8,04,08,2E,34,00,00,00,00
1953879700,0000010C,false,0,8,04,00,55,54,15,40,01,02
1953879900,00000578,false,0,6,00,00,00,00,0F,00
1953880100,00000153,false,0,8,A0,A9,20,FF,00,FF,C0,27
1953880400,000002A2,false,0,8,04,00,00,F4,05,00,00,3E
1953880600,00000331,false,0,8,3E,00,00,00,00,00,00,00
1953880900,00000588,false,0,8,5B,1E,00,00,00,00,00,00
1953881200,000005EC,false,0,8,00,00,00,00,00,00,00,00
1953883200,00000109,false,0,8,00,01,00,FF,FF,FF,0F,2C
1953883400,00000200,false,0,8,00,80,66,00,00,80,D0,00
1953883700,00000201,false,0,8,91,00,00,00,00,00,00,91
1953883900,00000202,false,0,8,40,00,00,00,00,80,32,F2
1953884200,00000333,false,0,8,00,00,00,00,00,00,00,00
1953885400,00000291,false,0,8,00,00,00,00,FF,00,00,0A
1953885600,00000523,false,0,8,08,38,4C,4C,4B,4A,00,00
1953866300,00000371,false,1,8,3E,10,00,00,00,00,00,10
1953866600,00000372,false,1,8,00,00,00,00,00,00,00,00
1953870100,00000160,false,1,8,20,3C,01,12,00,00,00,0F
1953870300,00000153,false,1,8,A0,A9,20,FF,00,FF,B0,17
1953870500,00000386,false,1,8,00,80,00,40,00,40,00,80
1953870700,00000387,false,1,8,15,15,16,15,00,62,0D,00
1953876300,00000371,false,1,8,3E,10,00,00,00,00,00,10
1953876600,00000372,false,1,8,00,00,00,00,00,00,00,00
1953876700,00000436,false,1,4,00,00,00,08
1953877000,00000470,false,1,8,15,44,40,55,55,B4,14,00
1953877300,0000050B,false,1,8,00,00,FF,00,FE,00,00,02
1953877500,00000520,false,1,8,00,00,00,00,9B,01,00,00
1953877800,00000541,false,1,8,00,00,41,08,00,08,00,01
1953878000,0000054B,false,1,8,00,00,00,00,00,CD,00,00
1953878300,00000595,false,1,8,00,00,00,00,00,00,00,00
1953878600,00000596,false,1,8,80,00,00,00,00,00,FE,FF
1953878800,000005C1,false,1,8,01,01,00,00,57,0D,00,09
1953879100,000005FF,false,1,8,FF,00,00,00,00,00,00,00
1953880100,00000160,false,1,8,20,3C,01,12,00,00,00,0F
1953880300,00000153,false,1,8,A0,A9,20,FF,00,FF,C0,27
1953886200,00000371,false,1,8,3E,10,00,00,00,00,00,10
1953886500,00000372,false,1,8,00,00,00,00,00,00,00,00
1953885900,00000524,false,0,8,85,00,00,00,00,00,00,00
1953887300,00000354,false,0,8,AA,0A,55,05,00,01,00,C6
1953889800,0000010C,false,0,8,04,00,55,54,15,40,01,13
1953890000,000002A2,false,0,8,05,00,00,F4,05,00,00,3E
1953890300,00000153,false,0,8,A0,A9,20,FF,00,FF,D0,37
1953890500,00000331,false,0,8,3E,00,00,00,00,00,00,00
1953890800,00000386,false,0,8,00,C0,00,40,00,40,00,80
1953890000,00000160,false,1,8,20,3D,01,12,00,00,00,0E
1953890200,00000153,false,1,8,A0,A9,20,FF,00,FF,D0,37
1953890500,00000386,false,1,8,00,C0,00,40,00,40,00,80
1953890700,00000387,false,1,8,15,15,16,15,00,63,0E,00
1953891000,00000387,false,0,8,15,15,16,15,00,63,0E,00
1953893200,00000109,false,0,8,00,01,00,FF,FF,FF,0F,3D
1953893400,00000200,false,0,8,00,80,66,00,00,C0,D0,00
1953893700,00000201,false,0,8,D1,00,00,00,00,00,00,D1
1953893900,00000202,false,0,8,60,00,00,00,00,80,32,D2
1953894200,00000333,false,0,8,00,00,00,00,00,00,00,00
1953895400,00000291,false,0,8,00,00,00,00,FF,00,00,0A
1953895600,00000523,false,0,8,08,38,4C,4C,4B,4A,00,00
1953895900,00000524,false,0,8,85,00,00,00,00,00,00,00
1953896600,00000450,false,0,3,00,C2,05
1953896900,00000462,false,0,8,FE,3F,FF,2F,F0,1F,00,00
1953897200,00000471,false,0,6,15,54,10,00,00,B8
1953897400,00000354,false,0,8,AA,0A,55,05,00,01,00,B7
1953899700,0000010C,false,0,8,04,00,55,54,15,40,01,24
1953900000,000002A2,false,0,8,04,00,00,F4,05,00,00,3E
1953900300,00000153,false,0,8,A0,A9,20,FF,00,FF,E0,47
1953900500,00000331,false,0,8,3E,00,00,00,00,00,00,00
1953900700,00000490,false,0,7,00,00,08,21,00,00,00
1953900900,00000507,false,0,4,09,00,00,05
1953903200,00000109,false,0,8,00,01,00,FF,FF,FF,0F,0A
1953903400,00000200,false,0,8,00,80,66,00,00,00,D0,00
1953903700,00000201,false,0,8,11,00,00,00,00,00,00,11
1953903900,00000202,false,0,8,00,00,00,00,00,80,32,B2
1953904100,00000333,false,0,8,00,00,00,00,00,00,00,00
1953904500,00000590,false,0,8,41,00,00,00,00,00,00,64
1953904800,0000045B,false,0,8,CD,10,00,AC,B4,12,4E,0D
1953905000,00000529,false,0,8,00,00,00,EC,01,5A,1C,00
1953905300,00000549,false,0,8,8D,81,FF,85,1C,A7,7F,7F
1953905500,00000291,false,0,8,00,00,00,00,FF,00,00,0A
1953905700,00000523,false,0,8,08,38,4C,4C,4B,4A,00,00
1953906000,00000524,false,0,8,85,00,00,00,00,00,00,00
1953906200,00000579,false,0,8,5B,1E,00,A0,04,09,00,FE
1953906500,0000057A,false,0,8,07,1F,14,FF,01,FE,FF,07
1953906700,0000057B,false,0,8,01,01,08,00,00,46,64,A0
1953906900,0000058F,false,0,8,07,00,00,0A,00,00,00,00
1953907200,00000592,false,0,8,40,00,00,00,00,00,00,C5
1953907400,00000354,false,0,8,AA,0A,55,05,00,01,00,A8
1953907700,000005D9,false,0,8,01,00,00,80,5C,1B,00,00
1953909600,0000010C,false,0,8,04,00,55,54,15,40,01,35
1953910000,000002A2,false,0,8,05,00,00,F4,05,00,00,3E
1953910300,00000153,false,0,8,A0,A9,20,FF,00,FF,00,67
1953910500,00000331,false,0,8,3E,00,00,00,00,00,00,00
1953910700,00000386,false,0,8,00,00,00,80,00,40,00,80
1953911000,00000387,false,0,8,15,15,16,15,00,55,00,00
1953913100,00000109,false,0,8,00,01,00,FF,FF,FF,0F,1B
1953913400,00000200,false,0,8,00,80,66,00,00,40,D0,00
1953896200,00000371,false,1,8,3E,10,00,00,00,00,00,10
1953896500,00000372,false,1,8,00,00,00,00,00,00,00,00
1953896700,00000470,false,1,8,15,44,40,55,55,B8,14,00
1953900000,00000160,false,1,8,20,3C,01,12,00,00,00,0F
1953900200,00000490,false,1,7,00,00,08,21,00,00,3C
1953900500,00000153,false,1,8,A0,A9,20,FF,00,FF,E0,47
1953900600,00000507,false,1,4,09,00,00,05
1953906300,00000371,false,1,8,3E,10,00,00,00,00,00,10
1953906600,00000372,false,1,8,00,00,00,00,00,00,00,00
1953907400,00000592,false,1,8,40,00,00,00,00,00,00,C5
1953910000,00000160,false,1,8,20,3C,01,12,00,00,00,0F
1953910200,00000153,false,1,8,A0,A9,20,FF,00,FF,00,67
1953910500,00000386,false,1,8,00,00,00,80,00,40,00,80
1953910700,00000387,false,1,8,15,15,16,15,00,55,00,00
1953913600,00000201,false,0,8,51,00,00,00,00,00,00,51
1953913900,00000202,false,0,8,20,00,00,00,00,80,32,92
1953914100,00000333,false,0,8,00,00,00,00,00,00,00,00
1953915400,00000291,false,0,8,00,00,00,00,FF,00,00,0A
1953915600,00000523,false,0,8,08,38,4C,4C,4B,4A,00,00
1953915800,00000524,false,0,8,85,00,00,00,00,00,00,00
1953916600,00000450,false,0,3,00,C2,05
1953916900,00000462,false,0,8,FE,3F,FF,2F,F0,1F,00,00
1953917100,00000471,false,0,6,15,54,10,00,00,FC
1953917300,00000354,false,0,8,AA,0A,55,05,00,01,00,99
1953917600,000002A1,false,0,8,00,00,00,00,00,00,00,00
1953916200,00000371,false,1,8,3E,10,00,00,00,00,00,10
1953916500,00000372,false,1,8,00,00,00,00,00,00,00,00
1953916700,00000470,false,1,8,15,44,40,55,55,FC,14,00
1953919600,0000010C,false,0,8,04,00,55,54,15,40,01,02
1953920000,00000160,false,1,8,20,3D,01,12,00,00,00,0E
1953920200,00000153,false,1,8,A0,A9,20,FF,00,FF,10,77
1953920000,000002A2,false,0,8,04,00,00,F4,05,00,00,3E
1953920200,00000153,false,0,8,A0,A9,20,FF,00,FF,10,77
1953920500,00000331,false,0,8,3E,00,00,00,00,00,00,00
1953923100,00000109,false,0,8,00,01,00,FF,FF,FF,0F,2C
1953923400,00000200,false,0,8,00,80,66,00,00,80,D0,00
1953923600,00000201,false,0,8,91,00,00,00,00,00,00,91
1953923900,00000202,false,0,8,40,00,00,00,00,80,32,F2
1953924100,00000333,false,0,8,00,00,00,00,00,00,00,00
1953925400,00000291,false,0,8,00,00,00,00,FF,00,00,0A
1953925600,00000523,false,0,8,08,38,4C,4C,4B,4A,00,00
1953925800,00000524,false,0,8,85,00,00,00,00,00,00,00
1953927300,00000354,false,0,8,AA,0A,55,05,00,01,00,8A
1953929700,0000010C,false,0,8,04,00,55,54,15,40,01,13
1953930000,000002A2,false,0,8,05,00,00,F4,05,00,00,3E
1953930200,00000153,false,0,8,A0,A9,20,FF,00,FF,20,87
1953930500,00000331,false,0,8,3E,00,00,00,00,00,00,00
1953930700,00000386,false,0,8,00,40,00,80,00,40,00,80
1953930900,00000387,false,0,8,15,15,16,15,00,56,01,00
1953931800,00000593,false,0,6,01,08,FF,FF,FF,FF
1953933100,00000109,false,0,8,00,01,00,FF,FF,FF,0F,3D
1953933400,00000200,false,0,8,00,80,66,00,00,C0,D0,00
1953933600,00000201,false,0,8,D1,00,00,00,00,00,00,D1
1953933900,00000202,false,0,8,60,00,00,00,00,80,32,D2
1953934100,00000333,false,0,8,00,00,00,00,00,00,00,00
1953935400,00000291,false,0,8,00,00,00,00,FF,00,00,0A
1953935600,00000523,false,0,8,08,38,4C,4C,4B,4A,00,00
1953935800,00000524,false,0,8,85,00,00,00,00,00,00,00
1953936600,00000450,false,0,3,00,C2,05
1953936800,00000462,false,0,8,FE,3F,FF,2F,F0,1F,00,00
1953937100,00000471,false,0,6,15,50,10,00,00,40
1953937400,00000354,false,0,8,AA,0A,55,05,00,01,00,7B
1953939600,0000010C,false,0,8,04,00,55,54,15,40,01,24
1953940000,000002A2,false,0,8,04,00,00,F4,05,00,00,3E
1953940200,00000153,false,0,8,A0,A9,20,FF,00,FF,30,97
1953940500,00000331,false,0,8,3E,00,00,00,00,00,00,00
1953943100,00000109,false,0,8,00,01,00,FF,FF,FF,0F,0A
1953926200,00000371,false,1,8,3E,10,00,00,00,00,00,10
1953926500,00000372,false,1,8,00,00,00,00,00,00,00,00
1953926700,00000436,false,1,4,00,00,00,08
1953930000,00000160,false,1,8,20,3C,01,12,00,00,00,0F
1953930200,00000153,false,1,8,A0,A9,20,FF,00,FF,20,87
1953930500,00000386,false,1,8,00,40,00,80,00,40,00,80
1953930700,00000387,false,1,8,15,15,16,15,00,56,01,00
1953932000,00000593,false,1,6,01,08,FF,FF,FF,FF
1953936100,00000371,false,1,8,3E,10,00,00,00,00,00,10
1953936400,00000372,false,1,8,00,00,00,00,00,00,00,00
1953936700,00000470,false,1,8,15,00,00,55,55,40,00,00
1953940000,00000160,false,1,8,20,3C,01,12,00,00,00,0F
1953940200,00000153,false,1,8,A0,A9,20,FF,00,FF,30,97
1953943400,00000200,false,0,8,00,80,66,00,00,00,D0,00
1953943600,00000201,false,0,8,11,00,00,00,00,00,00,11
1953943800,00000202,false,0,8,00,00,00,00,00,80,32,B2
1953944100,00000333,false,0,8,00,00,00,00,00,00,00,00
1953945300,00000291,false,0,8,00,00,00,00,FF,00,00,0A
1953945600,00000523,false,0,8,08,38,4C,4C,4B,4A,00,00
1953945800,00000524,false,0,8,84,00,00,00,00,00,00,00
1953946200,00000371,false,1,8,3E,10,00,00,00,00,00,10
1953946500,00000372,false,1,8,00,00,00,00,00,00,00,00
1953947300,00000354,false,0,8,AA,0A,55,05,00,01,00,6C
1953949700,0000010C,false,0,8,04,00,55,54,15,40,01,35
1953950000,000002A2,false,0,8,05,00,00,F4,05,00,00,3E
1953950200,00000153,false,0,8,A0,A9,20,FF,00,FF,40,A7
1953950400,00000331,false,0,8,3E,00,00,00,00,00,00,00
1953950700,00000386,false,0,8,00,80,00,80,00,40,00,80
1953950900,00000387,false,0,8,15,15,16,15,00,57,02,00
1953951200,00000490,false,0,7,00,00,08,21,00,00,00
1953953100,00000109,false,0,8,00,01,00,FF,FF,FF,0F,1B
1953953300,00000200,false,0,8,00,80,66,00,00,40,D0,00
1953953600,00000201,false,0,8,51,00,00,00,00,00,00,51
1953953800,00000202,false,0,8,20,00,00,00,00,80,32,92
1953954100,00000333,false,0,8,00,00,00,00,00,00,00,00
1953955300,00000291,false,0,8,00,00,00,00,FF,00,00,0A
1953955600,00000523,false,0,8,08,38,4C,4C,4B,4A,00,00
1953955800,00000524,false,0,8,84,00,00,00,00,00,00,00
1953956600,00000450,false,0,3,00,C2,05
1953956800,00000462,false,0,8,FE,3F,FF,2F,F0,1F,00,00
1953957100,00000471,false,0,6,15,54,10,00,00,44
1953957300,00000354,false,0,8,AA,0A,55,05,00,01,00,5D
1953959600,0000010C,false,0,8,04,00,55,54,15,40,01,02
1953960000,000002A2,false,0,8,04,00,00,F4,05,00,00,3E
1953960200,00000153,false,0,8,A0,A9,20,FF,00,FF,50,B7
1953960400,00000331,false,0,8,3E,00,00,00,00,00,00,00
1953963100,00000109,false,0,8,00,01,00,FF,FF,FF,0F,2C
1953963300,00000200,false,0,8,00,80,66,00,00,80,D0,00
1953963600,00000201,false,0,8,91,00,00,00,00,00,00,91
1953963800,00000202,false,0,8,40,00,00,00,00,80,32,F2
1953964100,00000333,false,0,8,00,00,00,00,00,00,00,00
1953965300,00000291,false,0,8,00,00,00,00,FF,00,00,0A
1953965500,00000523,false,0,8,08,38,4C,4C,4B,4A,00,00
1953965800,00000524,false,0,8,84,00,00,00,00,00,00,00
1953967200,00000354,false,0,8,AA,0A,55,05,00,01,00,4E
1953969700,0000010C,false,0,8,04,00,55,54,15,40,01,13
1953950000,00000160,false,1,8,20,3C,01,12,00,00,00,0F
1953950200,00000153,false,1,8,A0,A9,20,FF,00,FF,40,A7
1953950500,00000386,false,1,8,00,80,00,80,00,40,00,80
1953950700,00000387,false,1,8,15,15,16,15,00,57,02,00
1953950900,00000490,false,1,7,00,00,08,21,00,00,3C
1953956200,00000371,false,1,8,3E,10,00,00,00,00,00,10
1953956500,00000372,false,1,8,00,00,00,00,00,00,00,00
1953956700,00000470,false,1,8,15,44,40,55,55,44,14,00
1953959900,00000160,false,1,8,20,3C,01,12,00,00,00,0F
1953960200,00000153,false,1,8,A0,A9,20,FF,00,FF,50,B7
1953966100,00000371,false,1,8,3E,10,00,00,00,00,00,10
1953966400,00000372,false,1,8,00,00,00,00,00,00,00,00
1953969900,00000160,false,1,8,20,3C,01,12,00,00,00,0F
1953970200,00000153,false,1,8,A0,A9,20,FF,00,FF,60,C7
1953970400,00000386,false,1,8,00,C0,00,80,00,40,00,80
1953970600,00000387,false,1,8,15,15,16,15,00,58,03,00
1953969900,000002A2,false,0,8,05,00,00,F4,05,00,00,3E
1953970200,00000153,false,0,8,A0,A9,20,FF,00,FF,60,C7
1953970400,00000331,false,0,8,3E,00,00,00,00,00,00,00
1953970700,00000386,false,0,8,00,C0,00,80,00,40,00,80
1953970900,00000387,false,0,8,15,15,16,15,00,58,03,00
1953973100,00000109,false,0,8,00,01,00,FF,FF,FF,0F,3D
1953973300,00000200,false,0,8,00,80,66,00,00,C0,D0,00
1953973600,00000201,false,0,8,D1,00,00,00,00,00,00,D1
1953973800,00000202,false,0,8,60,00,00,00,00,80,32,D2
1953974100,00000333,false,0,8,00,00,00,00,00,00,00,00
1953975300,00000291,false,0,8,00,00,00,00,FF,00,00,0A
1953975500,00000523,false,0,8,08,38,4C,4C,4B,4A,00,00
1953975800,00000524,false,0,8,84,00,00,00,00,00,00,00
1953976800,00000414,false,0,8,01,00,00,00,00,00,00,00
1953977000,00000450,false,0,3,00,C2,05
1953977300,00000354,false,0,8,AA,0A,55,05,00,01,00,3F
1953977500,0000045D,false,0,8,FF,FF,FF,FF,FF,FF,FF,0F
1953977800,0000045E,false,0,8,FF,FF,FF,FF,FF,00,00,00
1953978000,00000462,false,0,8,FE,3F,FF,2F,F0,1F,00,00
1953978300,00000471,false,0,6,15,50,10,00,00,48
1953978600,000004FE,false,0,8,FF,FF,7F,FF,FF,00,FF,FF
1953978800,00000520,false,0,8,00,00,00,00,00,00,00,00
1953979100,00000541,false,0,8,00,00,40,08,00,00,00,00
1953979400,00000553,false,0,8,04,00,00,00,00,00,80,00
1953979600,0000010C,false,0,8,04,00,55,54,15,40,01,24
1953979800,0000055C,false,0,8,07,1F,14,FF,01,00,00,00
1953980100,00000153,false,0,8,A0,A9,20,FF,00,FF,70,D7
1953980300,000002A2,false,0,8,04,00,00,F4,05,00,00,3E
1953980600,00000331,false,0,8,3E,00,00,00,00,00,00,00
1953980800,0000055F,false,0,8,00,00,00,00,00,00,00,00
1953981100,00000561,false,0,8,00,00,00,00,00,00,00,00
1953981300,00000567,false,0,8,04,08,2E,34,00,00,00,00
1953981600,00000578,false,0,6,00,00,00,00,0F,00
1953981800,00000588,false,0,8,5B,1E,00,00,00,00,00,00
1953982100,000005B3,false,0,8,40,10,FE,30,00,00,00,00
1953982400,000005DF,false,0,8,05,1A,02,00,00,00,00,00
1953982700,000005EC,false,0,8,00,00,00,00,00,00,00,00
1953983100,00000109,false,0,8,00,01,00,FF,FF,FF,0F,0A
1953983300,00000200,false,0,8,00,80,66,00,00,00,D0,00
1953983600,00000201,false,0,8,11,00,00,00,00,00,00,11
1953983800,00000202,false,0,8,00,00,00,00,00,80,32,B2
1953984000,00000333,false,0,8,00,00,00,00,00,00,00,00
1953985300,00000291,false,0,8,00,00,00,00,FF,00,00,0A
1953985500,00000523,false,0,8,08,38,4C,4C,4B,4A,00,00
1953985800,00000524,false,0,8,84,00,00,00,00,00,00,00
1953987200,00000354,false,0,8,AA,0A,55,05,00,01,00,20
1953989500,0000010C,false,0,8,04,00,55,54,15,40,01,35
1953989900,000002A2,false,0,8,05,00,00,F4,05,00,00,3E
1953990200,00000153,false,0,8,A0,A9,20,FF,00,FF,80,E7
1953990400,00000331,false,0,8,3E,00,00,00,00,00,00,00
1953990600,00000386,false,0,8,00,00,00,C0,00,40,00,80
1953990900,00000387,false,0,8,15,15,16,15,00,59,04,00
1953993000,00000109,false,0,8,00,01,00,FF,FF,FF,0F,1B
1953993300,00000200,false,0,8,00,80,66,00,00,40,D0,00
1953993500,00000201,false,0,8,51,00,00,00,00,00,00,51
1953993800,00000202,false,0,8,20,00,00,00,00,80,32,92
1953994000,00000333,false,0,8,00,00,00,00,00,00,00,00
1953995300,00000291,false,0,8,00,00,00,00,FF,00,00,0A
1953995500,00000523,false,0,8,08,38,4C,4C,4B,4A,00,00
1953995800,00000524,false,0,8,84,00,00,00,00,00,00,00
1953996500,00000450,false,0,3,00,C2,05
1953976100,00000371,false,1,8,3E,10,00,00,00,00,00,10
1953976400,00000372,false,1,8,00,00,00,00,00,00,00,00
1953976600,00000410,false,1,8,E0,12,61,18,80,02,00,20
1953976900,00000412,false,1,8,00,00,00,00,00,00,00,00
1953977100,00000436,false,1,4,00,00,00,08
1953977300,00000470,false,1,8,15,44,40,55,55,48,14,00
1953977600,0000049F,false,1,8,00,00,00,00,00,00,00,00
1953977800,000004C9,false,1,8,00,00,00,00,00,00,00,00
1953978100,0000050B,false,1,8,00,00,FF,00,FE,00,00,02
1953978400,0000050E,false,1,8,00,00,00,40,00,00,00,00
1953978600,00000520,false,1,8,00,00,00,00,9D,01,00,00
1953978900,00000541,false,1,8,00,00,41,08,00,08,00,01
1953979200,00000544,false,1,8,FF,77,FF,FF,00,00,00,00
1953979500,0000054B,false,1,8,00,00,00,00,00,CD,00,00
1953979800,00000553,false,1,8,00,00,00,0C,01,00,80,00
1953980000,00000153,false,1,8,A0,A9,20,FF,00,FF,70,D7
1953980200,00000160,false,1,8,20,3C,01,12,00,00,00,0F
1953980500,00000559,false,1,8,00,00,04,00,00,00,00,00
1953980800,00000595,false,1,8,00,00,00,00,00,00,00,00
1953981000,00000596,false,1,8,80,00,00,00,00,00,FE,FF
1953981300,000005C1,false,1,8,01,01,00,00,57,0D,00,09
1953981500,000005FF,false,1,8,FF,00,00,00,00,00,00,00
1953986200,00000371,false,1,8,3E,10,00,00,00,00,00,10
1953986500,00000372,false,1,8,00,00,00,00,00,00,00,00
1953989900,00000160,false,1,8,20,3C,01,12,00,00,00,0F
1953990100,00000153,false,1,8,A0,A9,20,FF,00,FF,80,E7
1953990400,00000386,false,1,8,00,00,00,C0,00,40,00,80
1953990600,00000387,false,1,8,15,15,16,15,00,59,04,00
1953996100,00000371,false,1,8,3E,10,00,00,00,00,00,10
1953996400,00000372,false,1,8,00,00,00,00,00,00,00,00
1953996700,00000470,false,1,8,15,44,40,55,55,8C,14,00
1953996800,00000462,false,0,8,FE,3F,FF,2F,F0,1F,00,00
1953997000,00000471,false,0,6,15,54,10,00,00,8C
1953997200,00000354,false,0,8,AA,0A,55,05,00,01,00,11
1953999600,0000010C,false,0,8,04,00,55,54,15,40,01,02
1953999900,000002A2,false,0,8,04,00,00,F4,05,00,00,3E
1954000100,00000153,false,0,8,A0,A9,20,FF,00,FF,90,F7
1954000400,00000331,false,0,8,3E,00,00,00,00,00,00,00
1954000600,00000490,false,0,7,00,00,08,21,00,00,00
1954000800,00000507,false,0,4,09,00,00,05
1953999900,00000160,false,1,8,20,3C,01,12,00,00,00,0F
1954000100,00000153,false,1,8,A0,A9,20,FF,00,FF,90,F7
1954000300,00000490,false,1,7,00,00,08,21,00,00,3C
1954000500,00000507,false,1,4,09,00,00,05
1954003000,00000109,false,0,8,00,01,00,FF,FF,FF,0F,2C
1954003300,00000200,false,0,8,00,80,66,00,00,80,D0,00
1954003500,00000201,false,0,8,91,00,00,00,00,00,00,91
1954003800,00000202,false,0,8,40,00,00,00,00,80,32,F2
1954004000,00000333,false,0,8,00,00,00,00,00,00,00,00
1954004400,00000590,false,0,8,41,00,00,00,00,00,00,64
1954004700,0000045B,false,0,8,CD,10,00,AC,B4,12,4E,0D
1954004900,00000549,false,0,8,8D,81,FF,85,1C,A7,7F,7F
1954005100,00000579,false,0,8,5B,1E,00,A0,04,09,00,FE
1954005400,00000291,false,0,8,00,00,00,00,FF,00,00,0A
1954005600,00000523,false,0,8,08,38,4C,4C,4B,4A,00,00
1954005900,00000524,false,0,8,84,00,00,00,00,00,00,00
1954006100,0000057A,false,0,8,07,1F,14,FF,01,FE,FF,07
1954006300,0000057B,false,0,8,01,01,08,00,00,46,64,A0
1954006600,0000058F,false,0,8,07,00,00,0A,00,00,00,00
1954006100,00000371,false,1,8,3E,10,00,00,00,00,00,10
1954006400,00000372,false,1,8,00,00,00,00,00,00,00,00
1954007100,00000592,false,1,8,40,00,00,00,00,00,00,05
1954006800,00000592,false,0,8,40,00,00,00,00,00,00,05
1954007100,000005D9,false,0,8,01,00,00,80,5C,1B,00,00
1954007300,00000354,false,0,8,AA,0A,55,05,00,01,00,02
1954009600,0000010C,false,0,8,04,00,55,54,15,40,01,13
1954009900,000002A2,false,0,8,05,00,00,F4,05,00,00,3E
1954010100,00000153,false,0,8,A0,A9,20,FF,00,FF,A0,07
1954010400,00000331,false,0,8,3E,00,00,00,00,00,00,00
1954010600,00000386,false,0,8,00,40,00,C0,00,40,00,80
1954010800,00000387,false,0,8,15,15,16,15,00,5A,05,00
1954013000,00000109,false,0,8,00,01,00,FF,FF,FF,0F,3D
1954013300,00000200,false,0,8,00,80,66,00,00,C0,D0,00
1954013500,00000201,false,0,8,D1,00,00,00,00,00,00,D1
1954013800,00000202,false,0,8,60,00,00,00,00,80,32,D2
1954014000,00000333,false,0,8,00,00,00,00,00,00,00,00
1954015300,00000291,false,0,8,00,00,00,00,FF,00,00,0A
1954015500,00000523,false,0,8,08,38,4C,4C,4B,4A,00,00
1954015700,00000524,false,0,8,84,00,00,00,00,00,00,00
1954016400,00000450,false,0,3,00,C2,05
1954016800,00000462,false,0,8,FE,3F,FF,2F,F0,1F,00,00
1954017000,00000471,false,0,6,15,54,10,00,00,50
1954017200,00000354,false,0,8,AA,0A,55,05,00,01,00,F3
1954017500,000002A1,false,0,8,00,00,00,00,00,00,00,00
1954017700,00000540,false,0,8,D0,33,00,00,7A,00,00,00
1954019500,0000010C,false,0,8,04,00,55,54,15,40,01,24
1954019900,000002A2,false,0,8,04,00,00,F4,05,00,00,3E
1954020100,00000153,false,0,8,A0,A9,20,FF,00,FF,B0,17
1954020300,00000331,false,0,8,3E,00,00,00,00,00,00,00
1954023000,00000109,false,0,8,00,01,00,FF,FF,FF,0F,0A
1954023300,00000200,false,0,8,00,80,66,00,00,00,D0,00
1954023500,00000201,false,0,8,11,00,00,00,00,00,00,11
1954023700,00000202,false,0,8,00,00,00,00,00,80,32,B2
1954024000,00000333,false,0,8,00,00,00,00,00,00,00,00
1954025200,00000291,false,0,8,00,00,00,00,FF,00,00,0A
1954025500,00000523,false,0,8,08,38,4C,4C,4B,4A,00,00
1954025700,00000524,false,0,8,84,00,00,00,00,00,00,00
1954027200,00000354,false,0,8,AA,0A,55,05,00,01,00,E4
1954029600,0000010C,false,0,8,04,00,55,54,15,40,01,35
1954029900,000002A2,false,0,8,05,00,00,F4,05,00,00,3E
1954030100,00000153,false,0,8,A0,A9,20,FF,00,FF,C0,27
1954009900,00000160,false,1,8,20,3C,01,12,00,00,00,0F
1954010100,00000153,false,1,8,A0,A9,20,FF,00,FF,A0,07
1954010400,00000386,false,1,8,00,40,00,C0,00,40,00,80
1954010600,00000387,false,1,8,15,15,16,15,00,5A,05,00
1954016000,00000371,false,1,8,3E,10,00,00,00,00,00,10
1954016300,00000372,false,1,8,00,00,00,00,00,00,00,00
1954016500,00000470,false,1,8,15,44,40,55,55,50,14,00
1954019900,00000160,false,1,8,20,3D,01,12,00,00,00,0E
1954020100,00000153,false,1,8,A0,A9,20,FF,00,FF,B0,17
1954026200,00000371,false,1,8,3E,10,00,00,00,00,00,10
1954026400,00000372,false,1,8,00,00,00,00,00,00,00,00
1954026600,00000436,false,1,4,00,00,00,08
1954029800,00000160,false,1,8,20,3C,01,12,00,00,00,0F
1954030100,00000153,false,1,8,A0,A9,20,FF,00,FF,C0,27
1954030300,00000386,false,1,8,00,80,00,C0,00,40,00,80
1954030600,00000387,false,1,8,15,15,16,15,00,5B,06,00
1954030400,00000331,false,0,8,3E,00,00,00,00,00,00,00
1954030600,00000386,false,0,8,00,80,00,C0,00,40,00,80
1954030800,00000387,false,0,8,15,15,16,15,00,5B,06,00
1954033000,00000109,false,0,8,00,01,00,FF,FF,FF,0F,1B
1954033200,00000200,false,0,8,00,80,66,00,00,40,D0,00
1954033500,00000201,false,0,8,51,00,00,00,00,00,00,51
1954033700,00000202,false,0,8,20,00,00,00,00,80,32,92
1954034000,00000333,false,0,8,00,00,00,00,00,00,00,00
1954035300,00000291,false,0,8,00,00,00,00,FF,00,00,0A
1954035500,00000523,false,0,8,08,38,4C,4C,4B,4A,00,00
1954035700,00000524,false,0,8,84,00,00,00,00,00,00,00
1954036500,00000450,false,0,3,00,C2,05
1954036800,00000462,false,0,8,FE,3F,FF,2F,F0,1F,00,00
1954037000,00000471,false,0,6,15,50,10,00,00,54
1954037300,00000354,false,0,8,AA,0A,55,05,00,01,00,D5
1954039500,0000010C,false,0,8,04,00,55,54,15,40,01,02
1954039900,000002A2,false,0,8,04,00,00,F4,05,00,00,3E
1954040100,00000153,false,0,8,A0,A9,20,FF,00,FF,D0,37
1954040300,00000331,false,0,8,3E,00,00,00,00,00,00,00
1954043000,00000109,false,0,8,00,01,00,FF,FF,FF,0F,2C
1954043200,00000200,false,0,8,00,80,66,00,00,80,D0,00
1954043500,00000201,false,0,8,91,00,00,00,00,00,00,91
1954043700,00000202,false,0,8,40,00,00,00,00,80,32,F2
1954044000,00000333,false,0,8,00,00,00,00,00,00,00,00
1954045200,00000291,false,0,8,00,00,00,00,FF,00,00,0A
1954045500,00000523,false,0,8,08,38,4C,4C,4B,4A,00,00
1954045700,00000524,false,0,8,84,00,00,00,00,00,00,00
1954047100,00000354,false,0,8,AA,0A,55,05,00,01,00,C6
1954049600,0000010C,false,0,8,04,00,55,54,15,40,01,13
1954049800,000002A2,false,0,8,05,00,00,F4,05,00,00,3E
1954050100,00000153,false,0,8,A0,A9,20,FF,00,FF,E0,47
1954050300,00000331,false,0,8,3E,00,00,00,00,00,00,00
1954050600,00000386,false,0,8,00,C0,00,C0,00,40,00,80
1954050800,00000387,false,0,8,15,15,16,15,00,5C,07,00
1954051000,00000490,false,0,7,00,00,08,21,00,00,00
1954053000,00000109,false,0,8,00,01,00,FF,FF,FF,0F,3D
1954053200,00000200,false,0,8,00,80,66,00,00,C0,D0,00
1954053500,00000201,false,0,8,D1,00,00,00,00,00,00,D1
1954053700,00000202,false,0,8,60,00,00,00,00,80,32,D2
1954054000,00000333,false,0,8,00,00,00,00,00,00,00,00
1954055200,00000291,false,0,8,00,00,00,00,FF,00,00,0A
1954055400,00000523,false,0,8,08,38,4C,4C,4B,4A,00,00
1954055700,00000524,false,0,8,84,00,00,00,00,00,00,00
1954056400,00000450,false,0,3,00,C2,05
1954036100,00000371,false,1,8,3E,10,00,00,00,00,00,10
1954036400,00000372,false,1,8,00,00,00,00,00,00,00,00
1954036600,00000470,false,1,8,15,00,00,55,55,54,00,00
1954039800,00000160,false,1,8,20,3C,01,12,00,00,00,0F
1954040100,00000153,false,1,8,A0,A9,20,FF,00,FF,D0,37
1954046000,00000371,false,1,8,3E,10,00,00,00,00,00,10
1954046300,00000372,false,1,8,00,00,00,00,00,00,00,00
1954049800,00000160,false,1,8,20,3C,01,12,00,00,00,0F
1954050100,00000153,false,1,8,A0,A9,20,FF,00,FF,E0,47
1954050300,00000386,false,1,8,00,C0,00,C0,00,40,00,80
1954050500,00000387,false,1,8,15,15,16,15,00,5C,07,00
1954050800,00000490,false,1,7,00,00,08,21,00,00,3C
1954056000,00000371,false,1,8,3E,10,00,00,00,00,00,10
1954056300,00000372,false,1,8,00,00,00,00,00,00,00,00
1954056500,00000470,false,1,8,15,44,40,55,55,58,14,00
1954056600,00000462,false,0,8,FE,3F,FF,2F,F0,1F,00,00
1954056800,00000471,false,0,6,15,54,10,00,00,58
1954057100,00000354,false,0,8,AA,0A,55,05,00,01,00,B7
1954059500,0000010C,false,0,8,04,00,55,54,15,40,01,24
1954059800,000002A2,false,0,8,04,00,00,F4,05,00,00,3E
1954059800,00000160,false,1,8,20,3C,01,12,00,00,00,0F
1954060000,00000153,false,1,8,A0,A9,20,FF,00,FF,00,67
1954060100,00000153,false,0,8,A0,A9,20,FF,00,FF,00,67
1954060300,00000331,false,0,8,3E,00,00,00,00,00,00,00
1954063000,00000109,false,0,8,00,01,00,FF,FF,FF,0F,0A
1954063200,00000200,false,0,8,00,80,66,00,00,00,D0,00
1954063500,00000201,false,0,8,11,00,00,00,00,00,00,11
1954063700,00000202,false,0,8,00,00,00,00,00,80,32,B2
1954064000,00000333,false,0,8,00,00,00,00,00,00,00,00
1954065200,00000291,false,0,8,00,00,00,00,FF,00,00,0A
1954065400,00000523,false,0,8,08,38,4C,4C,4B,4A,00,00
1954065700,00000524,false,0,8,84,00,00,00,00,00,00,00
1954067100,00000354,false,0,8,AA,0A,55,05,00,01,00,A8
1954069400,0000010C,false,0,8,04,00,55,54,15,40,01,35
1954069800,000002A2,false,0,8,05,00,00,F4,05,00,00,3E
1954070100,00000153,false,0,8,A0,A9,20,FF,00,FF,10,77
1954070300,00000331,false,0,8,3E,00,00,00,00,00,00,00
1954070500,00000386,false,0,8,00,00,00,00,00,40,00,80
1954070800,00000387,false,0,8,15,15,16,15,00,5D,08,00
1954073000,00000109,false,0,8,00,01,00,FF,FF,FF,0F,1B
1954073200,00000200,false,0,8,00,80,66,00,00,40,D0,00
1954073400,00000201,false,0,8,51,00,00,00,00,00,00,51
1954073700,00000202,false,0,8,20,00,00,00,00,80,32,92
1954073900,00000333,false,0,8,00,00,00,00,00,00,00,00
1954075200,00000291,false,0,8,00,00,00,00,FF,00,00,0A
1954075400,00000523,false,0,8,08,38,4C,4C,4B,4A,00,00
1954075700,00000524,false,0,8,84,00,00,00,00,00,00,00
1954076700,00000450,false,0,3,00,C2,05
1954076900,00000462,false,0,8,FE,3F,FF,2F,F0,1F,00,00
1954077200,00000354,false,0,8,AA,0A,55,05,00,01,00,99
1954077400,00000471,false,0,6,15,50,10,00,00,9C
1954077600,00000520,false,0,8,00,00,00,00,00,00,00,00
1954077900,00000541,false,0,8,00,00,40,08,00,00,00,00
1954078100,0000055C,false,0,8,07,1F,14,FF,01,00,00,00
1954078400,0000055F,false,0,8,00,00,00,00,00,00,00,00
1954078700,00000561,false,0,8,00,00,00,00,00,00,00,00
1954078900,00000567,false,0,8,04,08,2E,35,00,00,00,00
1954079200,00000578,false,0,6,00,00,00,00,0F,00
1954079500,0000010C,false,0,8,04,00,55,54,15,40,01,02
1954079700,00000588,false,0,8,5B,1E,00,00,00,00,00,00
1954079900,00000153,false,0,8,A0,A9,20,FF,00,FF,20,87
1954080200,000002A2,false,0,8,04,00,00,F4,05,00,00,3E
1954080400,00000331,false,0,8,3E,00,00,00,00,00,00,00
1954080700,000005EC,false,0,8,00,00,00,00,00,00,00,00
1954082900,00000109,false,0,8,00,01,00,FF,FF,FF,0F,2C
1954083200,00000200,false,0,8,00,80,66,00,00,80,D0,00
1954066100,00000371,false,1,8,3E,10,00,00,00,00,00,10
1954066400,00000372,false,1,8,00,00,00,00,00,00,00,00
1954069800,00000160,false,1,8,20,3C,01,12,00,00,00,0F
1954070000,00000153,false,1,8,A0,A9,20,FF,00,FF,10,77
1954070300,00000386,false,1,8,00,00,00,00,00,40,00,80
1954070500,00000387,false,1,8,15,15,16,15,00,5D,08,00
1954076100,00000371,false,1,8,3E,10,00,00,00,00,00,10
1954076300,00000372,false,1,8,00,00,00,00,00,00,00,00
1954076500,00000436,false,1,4,00,00,00,08
1954076800,00000470,false,1,8,15,44,40,55,55,9C,14,00
1954077000,0000050B,false,1,8,00,00,FF,00,FE,00,00,02
1954077300,00000520,false,1,8,00,00,00,00,9D,01,00,00
1954077600,00000541,false,1,8,00,00,41,08,00,08,00,01
1954077800,0000054B,false,1,8,00,00,00,00,00,CD,00,00
1954078100,00000595,false,1,8,00,00,00,00,00,00,00,00
1954078300,00000596,false,1,8,80,00,00,00,00,00,FE,FF
1954078600,000005C1,false,1,8,01,01,00,00,57,0D,00,09
1954078900,000005FF,false,1,8,FF,00,00,00,00,00,00,00
1954079800,00000160,false,1,8,20,3C,01,12,00,00,00,0F
1954080100,00000153,false,1,8,A0,A9,20,FF,00,FF,20,87
1954083400,00000201,false,0,8,91,00,00,00,00,00,00,91
1954083700,00000202,false,0,8,40,00,00,00,00,80,32,F2
1954083900,00000333,false,0,8,00,00,00,00,00,00,00,00
1954085200,00000291,false,0,8,00,00,00,00,FF,00,00,0A
1954085400,00000523,false,0,8,08,38,4C,4C,4B,4A,00,00
1954085600,00000524,false,0,8,84,00,00,00,00,00,00,00
1954087100,00000354,false,0,8,AA,0A,55,05,00,01,00,8A
1954086000,00000371,false,1,8,3E,10,00,00,00,00,00,10
1954086300,00000372,false,1,8,00,00,00,00,00,00,00,00
1954089500,0000010C,false,0,8,04,00,55,54,15,40,01,13
1954089800,000002A2,false,0,8,05,00,00,F4,05,00,00,3E
1954090000,00000153,false,0,8,A0,A9,20,FF,00,FF,30,97
1954090300,00000331,false,0,8,3E,00,00,00,00,00,00,00
1954090500,00000386,false,0,8,00,40,00,00,00,40,00,80
1954090800,00000387,false,0,8,15,15,16,15,00,5E,09,00
1954092900,00000109,false,0,8,00,01,00,FF,FF,FF,0F,3D
1954093200,00000200,false,0,8,00,80,66,00,00,C0,D0,00
1954093400,00000201,false,0,8,D1,00,00,00,00,00,00,D1
1954093700,00000202,false,0,8,60,00,00,00,00,80,32,D2
1954093900,00000333,false,0,8,00,00,00,00,00,00,00,00
1954095200,00000291,false,0,8,00,00,00,00,FF,00,00,0A
1954095400,00000523,false,0,8,08,38,4C,4C,4B,4A,00,00
1954095600,00000524,false,0,8,84,00,00,00,00,00,00,00
1954096400,00000450,false,0,3,00,C2,05
1954096600,00000462,false,0,8,FE,3F,FF,2F,F0,1F,00,00
1954096900,00000471,false,0,6,15,54,10,00,00,60
1954097200,00000354,false,0,8,AA,0A,55,05,00,01,00,7B
1954099400,0000010C,false,0,8,04,00,55,54,15,40,01,24
1954099800,000002A2,false,0,8,04,00,00,F4,05,00,00,3E
1954100000,00000153,false,0,8,A0,A9,20,FF,00,FF,40,A7
1954100300,00000331,false,0,8,3E,00,00,00,00,00,00,00
1954100500,00000490,false,0,7,00,00,08,21,00,00,00
1954100700,00000507,false,0,4,09,00,00,05
1954102900,00000109,false,0,8,00,01,00,FF,FF,FF,0F,0A
1954103200,00000200,false,0,8,00,80,66,00,00,00,D0,00
1954103400,00000201,false,0,8,11,00,00,00,00,00,00,11
1954103700,00000202,false,0,8,00,00,00,00,00,80,32,B2
1954103900,00000333,false,0,8,00,00,00,00,00,00,00,00
1954104300,00000590,false,0,8,41,00,00,00,00,00,00,64
1954104500,0000045B,false,0,8,CD,10,00,AC,B4,12,4E,0D
1954104800,00000529,false,0,8,00,00,00,EC,01,5A,1C,00
1954105000,00000549,false,0,8,8D,81,FF,85,1C,A7,7F,7F
1954105300,00000291,false,0,8,00,00,00,00,FF,00,00,0A
1954105500,00000523,false,0,8,08,38,4C,4C,4B,4A,00,00
1954105700,00000524,false,0,8,84,00,00,00,00,00,00,00
1954106000,00000579,false,0,8,5B,1E,00,A0,04,09,00,FE
1954106200,0000057A,false,0,8,07,1F,14,FF,01,FE,FF,07
1954106500,0000057B,false,0,8,01,01,08,00,00,46,64,A0
1954106700,0000058F,false,0,8,07,00,00,0A,00,00,00,00
1954106900,00000592,false,0,8,40,00,00,00,00,00,00,45
1954107200,00000354,false,0,8,AA,0A,55,05,00,01,00,6C
1954107400,000005D9,false,0,8,01,00,00,80,5C,1B,00,00
1954109500,0000010C,false,0,8,04,00,55,54,15,40,01,35
1954109800,000002A2,false,0,8,05,00,00,F4,05,00,00,3E
1954089800,00000160,false,1,8,20,3C,01,12,00,00,00,0F
1954090000,00000153,false,1,8,A0,A9,20,FF,00,FF,30,97
1954090300,00000386,false,1,8,00,40,00,00,00,40,00,80
1954090500,00000387,false,1,8,15,15,16,15,00,5E,09,00
1954096000,00000371,false,1,8,3E,10,00,00,00,00,00,10
1954096200,00000372,false,1,8,00,00,00,00,00,00,00,00
1954096500,00000470,false,1,8,15,44,40,55,55,60,14,00
1954099800,00000160,false,1,8,20,3D,01,12,00,00,00,0E
1954100000,00000153,false,1,8,A0,A9,20,FF,00,FF,40,A7
1954100200,00000490,false,1,7,00,00,08,21,00,00,3C
1954100400,00000507,false,1,4,09,00,00,05
1954106200,00000371,false,1,8,3E,10,00,00,00,00,00,10
1954106400,00000372,false,1,8,00,00,00,00,00,00,00,00
1954107200,00000592,false,1,8,40,00,00,00,00,00,00,45
1954109800,00000160,false,1,8,20,3D,01,12,00,00,00,0E
1954110000,00000153,false,1,8,A0,A9,20,FF,00,FF,50,B7
1954110200,00000386,false,1,8,00,80,00,00,00,40,00,80
1954110500,00000387,false,1,8,15,15,16,15,00,5F,0A,00
1954110000,00000153,false,0,8,A0,A9,20,FF,00,FF,50,B7
1954110300,00000331,false,0,8,3E,00,00,00,00,00,00,00
1954110500,00000386,false,0,8,00,80,00,00,00,40,00,80
1954110700,00000387,false,0,8,15,15,16,15,00,5F,0A,00
1954112900,00000109,false,0,8,00,01,00,FF,FF,FF,0F,1B
1954113100,00000200,false,0,8,00,80,66,00,00,40,D0,00
1954113400,00000201,false,0,8,51,00,00,00,00,00,00,51
1954113600,00000202,false,0,8,20,00,00,00,00,80,32,92
1954113900,00000333,false,0,8,00,00,00,00,00,00,00,00
1954115100,00000291,false,0,8,00,00,00,00,FF,00,00,0A
1954115400,00000523,false,0,8,08,38,4C,4C,4B,4A,00,00
1954115600,00000524,false,0,8,84,00,00,00,00,00,00,00
1954116000,00000371,false,1,8,3E,10,00,00,00,00,00,10
1954116300,00000372,false,1,8,00,00,00,00,00,00,00,00
1954116500,00000470,false,1,8,15,44,40,55,55,64,14,00
1954116400,00000450,false,0,3,00,C2,05
1954116600,00000462,false,0,8,FE,3F,FF,2F,F0,1F,00,00
1954116800,00000471,false,0,6,15,54,10,00,00,64
1954117100,00000354,false,0,8,AA,0A,55,05,00,01,00,5D
1954117300,000002A1,false,0,8,00,00,00,00,00,00,00,00
1954119400,0000010C,false,0,8,04,00,55,54,15,40,01,02
1954119800,000002A2,false,0,8,04,00,00,F4,05,00,00,3E
1954120000,00000153,false,0,8,A0,A9,20,FF,00,FF,60,C7
1954120200,00000331,false,0,8,3E,00,00,00,00,00,00,00
1954122900,00000109,false,0,8,00,01,00,FF,FF,FF,0F,2C
1954123100,00000200,false,0,8,00,80,66,00,00,80,D0,00
1954123400,00000201,false,0,8,91,00,00,00,00,00,00,91
1954123600,00000202,false,0,8,40,00,00,00,00,80,32,F2
1954123900,00000333,false,0,8,00,00,00,00,00,00,00,00
1954125100,00000291,false,0,8,00,00,00,00,FF,00,00,0A
1954125400,00000523,false,0,8,08,38,4C,4C,4B,4A,00,00
1954125600,00000524,false,0,8,84,00,00,00,00,00,00,00
1954127000,00000354,false,0,8,AA,0A,55,05,00,01,00,4E
1954129500,0000010C,false,0,8,04,00,55,54,15,40,01,13
1954129700,000002A2,false,0,8,05,00,00,F4,05,00,00,3E
1954130000,00000153,false,0,8,A0,A9,20,FF,00,FF,70,D7
1954130200,00000331,false,0,8,3E,00,00,00,00,00,00,00
1954130500,00000386,false,0,8,00,C0,00,00,00,40,00,80
1954130700,00000387,false,0,8,15,15,16,15,00,60,0B,00
1954131600,00000593,false,0,6,01,08,FF,FF,FF,FF
1954132900,00000109,false,0,8,00,01,00,FF,FF,FF,0F,3D
1954133100,00000200,false,0,8,00,80,66,00,00,C0,D0,00
1954133400,00000201,false,0,8,D1,00,00,00,00,00,00,D1
1954133600,00000202,false,0,8,60,00,00,00,00,80,32,D2
1954133900,00000333,false,0,8,00,00,00,00,00,00,00,00
1954135100,00000291,false,0,8,00,00,00,00,FF,00,00,0A
1954135300,00000523,false,0,8,08,38,4C,4C,4B,4A,00,00
1954135600,00000524,false,0,8,83,00,00,00,00,00,00,00
1954136400,00000450,false,0,3,00,C2,05
1954136600,00000462,false,0,8,FE,3F,FF,2F,F0,1F,00,00
1954136900,00000471,false,0,6,15,50,10,00,00,68
1954137100,00000354,false,0,8,AA,0A,55,05,00,01,00,3F
1954139400,0000010C,false,0,8,04,00,55,54,15,40,01,24
1954119700,00000160,false,1,8,20,3D,01,12,00,00,00,0E
1954120000,00000153,false,1,8,A0,A9,20,FF,00,FF,60,C7
1954125900,00000371,false,1,8,3E,10,00,00,00,00,00,10
1954126200,00000372,false,1,8,00,00,00,00,00,00,00,00
1954126400,00000436,false,1,4,00,00,00,08
1954129700,00000160,false,1,8,20,3D,01,12,00,00,00,0E
1954129900,00000153,false,1,8,A0,A9,20,FF,00,FF,70,D7
1954130200,00000386,false,1,8,00,C0,00,00,00,40,00,80
1954130400,00000387,false,1,8,15,15,16,15,00,60,0B,00
1954131800,00000593,false,1,6,01,08,FF,FF,FF,FF
1954135900,00000371,false,1,8,3E,10,00,00,00,00,00,10
1954136200,00000372,false,1,8,00,00,00,00,00,00,00,00
1954136400,00000470,false,1,8,15,00,00,55,55,68,00,00
1954139700,00000160,false,1,8,20,3C,01,12,00,00,00,0F
1954140000,00000153,false,1,8,A0,A9,20,FF,00,FF,80,E7
1954139700,000002A2,false,0,8,04,00,00,F4,05,00,00,3E
1954140000,00000153,false,0,8,A0,A9,20,FF,00,FF,80,E7
1954140200,00000331,false,0,8,3E,00,00,00,00,00,00,00
1954142900,00000109,false,0,8,00,01,00,FF,FF,FF,0F,0A
1954143100,00000200,false,0,8,00,80,66,00,00,00,D0,00
1954143400,00000201,false,0,8,11,00,00,00,00,00,00,11
1954143600,00000202,false,0,8,00,00,00,00,00,80,32,B2
1954143900,00000333,false,0,8,00,00,00,00,00,00,00,00
1954145100,00000291,false,0,8,00,00,00,00,FF,00,00,0A
1954145300,00000523,false,0,8,08,38,4C,4C,4B,4A,00,00
1954145600,00000524,false,0,8,83,00,00,00,00,00,00,00
1954146000,00000371,false,1,8,3E,10,00,00,00,00,00,10
1954146300,00000372,false,1,8,00,00,00,00,00,00,00,00
1954147000,00000354,false,0,8,AA,0A,55,05,00,01,00,20
1954149300,0000010C,false,0,8,04,00,55,54,15,40,01,35
1954149700,000002A2,false,0,8,05,00,00,F4,05,00,00,3E
1954150000,00000153,false,0,8,A0,A9,20,FF,00,FF,90,F7
1954150200,00000331,false,0,8,3E,00,00,00,00,00,00,00
1954150400,00000386,false,0,8,00,00,00,40,00,40,00,80
1954150700,00000387,false,0,8,15,15,16,15,00,61,0C,00
1954150900,00000490,false,0,7,00,00,08,21,00,00,00
1954152900,00000109,false,0,8,00,01,00,FF,FF,FF,0F,1B
1954153100,00000200,false,0,8,00,80,66,00,00,40,D0,00
1954153300,00000201,false,0,8,51,00,00,00,00,00,00,51
1954153600,00000202,false,0,8,20,00,00,00,00,80,32,92
1954153800,00000333,false,0,8,00,00,00,00,00,00,00,00
1954155100,00000291,false,0,8,00,00,00,00,FF,00,00,0A
1954155300,00000523,false,0,8,08,38,4C,4C,4B,4A,00,00
1954155600,00000524,false,0,8,83,00,00,00,00,00,00,00
1954156400,00000450,false,0,3,00,C2,05
1954156700,00000462,false,0,8,FE,3F,FF,2F,F0,1F,00,00
1954156900,00000471,false,0,6,15,54,10,00,00,AC
1954157100,00000354,false,0,8,AA,0A,55,05,00,01,00,11
1954159300,0000010C,false,0,8,04,00,55,54,15,40,01,02
1954159700,000002A2,false,0,8,04,00,00,F4,05,00,00,3E
1954159900,00000153,false,0,8,A0,A9,20,FF,00,FF,A0,07
1954160200,00000331,false,0,8,3E,00,00,00,00,00,00,00
1954162800,00000109,false,0,8,00,01,00,FF,FF,FF,0F,2C
1954163100,00000200,false,0,8,00,80,66,00,00,80,D0,00
1954163300,00000201,false,0,8,91,00,00,00,00,00,00,91
1954163600,00000202,false,0,8,40,00,00,00,00,80,32,F2
1954163800,00000333,false,0,8,00,00,00,00,00,00,00,00
1954165100,00000291,false,0,8,00,00,00,00,FF,00,00,0A
1954165300,00000523,false,0,8,08,38,4C,4C,4B,4A,00,00
1954165500,00000524,false,0,8,83,00,00,00,00,00,00,00
1954167000,00000354,false,0,8,AA,0A,55,05,00,01,00,02
1954169400,0000010C,false,0,8,04,00,55,54,15,40,01,13
1954149700,00000160,false,1,8,20,3C,01,12,00,00,00,0F
1954149900,00000153,false,1,8,A0,A9,20,FF,00,FF,90,F7
1954150200,00000386,false,1,8,00,00,00,40,00,40,00,80
1954150400,00000387,false,1,8,15,15,16,15,00,61,0C,00
1954150600,00000490,false,1,7,00,00,08,21,00,00,3C
1954155900,00000371,false,1,8,3E,10,00,00,00,00,00,10
1954156200,00000372,false,1,8,00,00,00,00,00,00,00,00
1954156500,00000470,false,1,8,15,44,40,55,55,AC,14,00
1954159700,00000160,false,1,8,20,3C,01,12,00,00,00,0F
1954159900,00000153,false,1,8,A0,A9,20,FF,00,FF,A0,07
1954165900,00000371,false,1,8,3E,10,00,00,00,00,00,10
1954166200,00000372,false,1,8,00,00,00,00,00,00,00,00
1954169700,00000160,false,1,8,20,3C,01,12,00,00,00,0F
1954169900,00000153,false,1,8,A0,A9,20,FF,00,FF,B0,17
1954170200,00000386,false,1,8,00,40,00,40,00,40,00,80
1954169700,000002A2,false,0,8,05,00,00,F4,05,00,00,3E
1954169900,00000153,false,0,8,A0,A9,20,FF,00,FF,B0,17
1954170200,00000331,false,0,8,3E,00,00,00,00,00,00,00
1954170400,00000386,false,0,8,00,40,00,40,00,40,00,80
1954170600,00000387,false,0,8,15,15,16,15,00,62,0D,00
1954172800,00000109,false,0,8,00,01,00,FF,FF,FF,0F,3D
1954173100,00000200,false,0,8,00,80,66,00,00,C0,D0,00
1954170400,00000387,false,1,8,15,15,16,15,00,62,0D,00
1954173300,00000201,false,0,8,D1,00,00,00,00,00,00,D1
1954173600,00000202,false,0,8,60,00,00,00,00,80,32,D2
1954173800,00000333,false,0,8,00,00,00,00,00,00,00,00
1954175000,00000291,false,0,8,00,00,00,00,FF,00,00,0A
1954175300,00000523,false,0,8,08,38,4C,4C,4B,4A,00,00
1954175500,00000524,false,0,8,83,00,00,00,00,00,00,00
1954175900,0000007F,false,1,8,00,00,00,00,00,00,00,00
1954176100,00000371,false,1,8,3E,10,00,00,00,00,00,10
1954176400,00000372,false,1,8,00,00,00,00,00,00,00,00
1954176600,00000410,false,1,8,E0,12,61,18,80,02,00,20
1954176900,00000412,false,1,8,00,00,00,00,00,00,00,00
1954177100,00000436,false,1,4,00,00,00,08
1954176600,00000414,false,0,8,01,00,00,00,00,00,00,00
1954176800,00000450,false,0,3,00,C2,05
1954177000,00000354,false,0,8,AA,0A,55,05,00,01,00,F3
1954177300,0000045D,false,0,8,FF,FF,FF,FF,FF,FF,FF,0F
1954177500,0000045E,false,0,8,FF,FF,FF,FF,FF,00,00,00
1954177800,00000462,false,0,8,FE,3F,FF,2F,F0,1F,00,00
1954177300,00000470,false,1,8,15,44,40,55,55,B0,14,00
1954177600,0000049F,false,1,8,00,00,00,00,00,00,00,00
1954177900,000004C9,false,1,8,00,00,00,00,00,00,00,00
1954178100,0000050B,false,1,8,00,00,FF,00,FE,00,00,02
1954178400,0000050E,false,1,8,00,00,00,40,00,00,00,00
1954178000,00000471,false,0,6,15,50,10,00,00,B0
1954178300,000004FE,false,0,8,FF,FF,7F,FF,FF,00,FF,FF
1954178600,00000520,false,0,8,00,00,00,00,00,00,00,00
1954178800,00000541,false,0,8,00,00,40,08,00,00,00,00
1954179100,00000553,false,0,8,04,00,00,00,00,00,80,00
1954179300,0000010C,false,0,8,04,00,55,54,15,40,01,24
1954179600,0000055C,false,0,8,07,1F,14,FF,01,00,00,00
1954178700,00000520,false,1,8,00,00,00,00,9C,01,00,00
1954179000,00000541,false,1,8,00,00,41,08,00,08,00,01
1954179200,00000544,false,1,8,FF,77,FF,FF,00,00,00,00
1954179500,0000054B,false,1,8,00,00,00,00,00,CD,00,00
1954179700,00000153,false,1,8,A0,A9,20,FF,00,FF,C0,27
1954180000,00000160,false,1,8,20,3C,01,12,00,00,00,0F
1954180200,00000553,false,1,8,00,00,00,0C,01,00,80,00
1954179800,00000153,false,0,8,A0,A9,20,FF,00,FF,C0,27
1954180100,000002A2,false,0,8,04,00,00,F4,05,00,00,3E
1954180300,00000331,false,0,8,3E,00,00,00,00,00,00,00
1954180600,0000055F,false,0,8,00,00,00,00,00,00,00,00
1954180800,00000561,false,0,8,00,00,00,00,00,00,00,00
1954181100,00000567,false,0,8,04,08,2E,35,00,00,00,00
1954180500,00000559,false,1,8,00,00,04,00,00,00,00,00
1954180800,0000057F,false,1,8,68,00,00,08,00,00,00,00
1954181000,00000595,false,1,8,00,00,00,00,00,00,00,00
1954181300,00000596,false,1,8,80,00,00,00,00,00,FE,FF
1954181600,000005BE,false,1,8,04,00,00,18,00,00,00,00
1954181800,000005C1,false,1,8,01,01,00,00,57,0D,00,09
1954181300,00000578,false,0,6,00,00,00,00,0F,00
1954181600,00000588,false,0,8,5B,1E,00,00,00,00,00,00
1954181900,000005B3,false,0,8,40,10,FE,30,00,00,00,00
1954182100,000005D0,false,0,8,9D,13,04,00,00,00,00,00
1954182400,000005D3,false,0,8,0F,00,00,00,00,00,00,00
1954182600,000005DF,false,0,8,05,1A,02,00,00,00,00,00
1954182900,00000109,false,0,8,00,01,00,FF,FF,FF,0F,0A
1954182100,000005FF,false,1,8,FF,00,00,00,00,00,00,00
1954183100,00000200,false,0,8,00,80,66,00,00,00,D0,00
1954183400,00000201,false,0,8,11,00,00,00,00,00,00,11
1954183600,00000202,false,0,8,00,00,00,00,00,80,32,B2
1954183900,00000333,false,0,8,00,00,00,00,00,00,00,00
1954184100,000005EC,false,0,8,00,00,00,00,00,00,00,00
1954185000,00000291,false,0,8,00,00,00,00,FF,00,00,0A
1954185300,00000523,false,0,8,08,38,4C,4C,4B,4A,00,00
1954185500,00000524,false,0,8,83,00,00,00,00,00,00,00
1954186100,00000371,false,1,8,3E,10,00,00,00,00,00,10
1954186400,00000372,false,1,8,00,00,00,00,00,00,00,00
1954187000,00000354,false,0,8,AA,0A,55,05,00,01,00,E4
1954189400,0000010C,false,0,8,04,00,55,54,15,40,01,35
1954189700,000002A2,false,0,8,05,00,00,F4,05,00,00,3E
1954189900,00000153,false,0,8,A0,A9,20,FF,00,FF,D0,37
1954190200,00000331,false,0,8,3E,00,00,00,00,00,00,00
1954190400,00000386,false,0,8,00,80,00,40,00,40,00,80
1954190600,00000387,false,0,8,15,15,16,15,00,63,0E,00
1954192800,00000109,false,0,8,00,01,00,FF,FF,FF,0F,1B
1954193000,00000200,false,0,8,00,80,66,00,00,40,D0,00
1954193300,00000201,false,0,8,51,00,00,00,00,00,00,51
1954193500,00000202,false,0,8,20,00,00,00,00,80,32,92
1954193800,00000333,false,0,8,00,00,00,00,00,00,00,00
1954195000,00000291,false,0,8,00,00,00,00,FF,00,00,0A
1954195300,00000523,false,0,8,08,38,4C,4C,4B,4A,00,00
1954195500,00000524,false,0,8,83,00,00,00,00,00,00,00
1954196200,00000450,false,0,3,00,C2,05
1954196500,00000462,false,0,8,FE,3F,FF,2F,F0,1F,00,00
1954196700,00000471,false,0,6,15,54,10,00,00,B4
1954197000,00000354,false,0,8,AA,0A,55,05,00,01,00,D5
1954199300,0000010C,false,0,8,04,00,55,54,15,40,01,02
1954199600,000002A2,false,0,8,04,00,00,F4,05,00,00,3E
1954199900,00000153,false,0,8,A0,A9,20,FF,00,FF,E0,47
1954200100,00000331,false,0,8,3E,00,00,00,00,00,00,00
1954200400,00000490,false,0,7,00,00,08,21,00,00,00
1954200500,00000507,false,0,4,09,00,00,05
1954202800,00000109,false,0,8,00,01,00,FF,FF,FF,0F,2C
1954203000,00000200,false,0,8,00,80,66,00,00,80,D0,00
1954203300,00000201,false,0,8,91,00,00,00,00,00,00,91
1954203500,00000202,false,0,8,40,00,00,00,00,80,32,F2
1954203800,00000333,false,0,8,00,00,00,00,00,00,00,00
1954204200,00000590,false,0,8,41,00,00,00,00,00,00,64
1954204400,0000045B,false,0,8,CD,10,00,AC,B4,12,4E,0D
1954204600,00000549,false,0,8,8D,81,FF,85,1C,A7,7F,7F
1954204900,00000579,false,0,8,5B,1E,00,A0,04,09,00,FE
1954205100,00000291,false,0,8,00,00,00,00,FF,00,00,0A
1954205400,00000523,false,0,8,08,38,4C,4C,4B,4A,00,00
1954205600,00000524,false,0,8,83,00,00,00,00,00,00,00
1954205800,0000057A,false,0,8,07,1F,14,FF,01,FE,FF,07
1954206100,0000057B,false,0,8,01,01,08,00,00,46,64,A0
1954206300,0000058F,false,0,8,07,00,00,0A,00,00,00,00
1954206600,00000592,false,0,8,40,00,00,00,00,00,00,85
1954206800,000005D9,false,0,8,01,00,00,80,5C,1B,00,00
1954207000,00000354,false,0,8,AA,0A,55,05,00,01,00,C6
1954189700,00000160,false,1,8,20,3C,01,12,00,00,00,0F
1954189900,00000153,false,1,8,A0,A9,20,FF,00,FF,D0,37
1954190100,00000386,false,1,8,00,80,00,40,00,40,00,80
1954190400,00000387,false,1,8,15,15,16,15,00,63,0E,00
1954195900,00000371,false,1,8,3E,10,00,00,00,00,00,10
1954196200,00000372,false,1,8,00,00,00,00,00,00,00,00
1954196500,00000470,false,1,8,15,44,40,55,55,B4,14,00
1954199700,00000160,false,1,8,20,3C,01,12,00,00,00,0F
1954199900,00000490,false,1,7,00,00,08,21,00,00,3C
1954200100,00000153,false,1,8,A0,A9,20,FF,00,FF,E0,47
1954200300,00000507,false,1,4,09,00,00,05
1954205800,00000371,false,1,8,3E,10,00,00,00,00,00,10
1954206100,00000372,false,1,8,00,00,00,00,00,00,00,00
1954206800,00000592,false,1,8,40,00,00,00,00,00,00,85
1954209600,00000160,false,1,8,20,3C,01,12,00,00,00,0F
1954209400,0000010C,false,0,8,04,00,55,54,15,40,01,13
1954209600,000002A2,false,0,8,05,00,00,F4,05,00,00,3E
1954209900,00000153,false,0,8,A0,A9,20,FF,00,FF,00,67
1954210100,00000331,false,0,8,3E,00,00,00,00,00,00,00
1954210400,00000386,false,0,8,00,C0,00,40,00,40,00,80
1954210600,00000387,false,0,8,15,15,16,15,00,55,00,00
1954209900,00000153,false,1,8,A0,A9,20,FF,00,FF,00,67
1954210100,00000386,false,1,8,00,C0,00,40,00,40,00,80
1954210300,00000387,false,1,8,15,15,16,15,00,55,00,00
1954212800,00000109,false,0,8,00,01,00,FF,FF,FF,0F,3D
1954213000,00000200,false,0,8,00,80,66,00,00,C0,D0,00
1954213300,00000201,false,0,8,D1,00,00,00,00,00,00,D1
1954213500,00000202,false,0,8,60,00,00,00,00,80,32,D2
1954213800,00000333,false,0,8,00,00,00,00,00,00,00,00
1954215000,00000291,false,0,8,00,00,00,00,FF,00,00,0A
1954215300,00000523,false,0,8,08,38,4C,4C,4B,4A,00,00
1954215500,00000524,false,0,8,83,00,00,00,00,00,00,00
1954216200,00000450,false,0,3,00,C2,05
1954215800,00000371,false,1,8,3E,10,00,00,00,00,00,10
1954216100,00000372,false,1,8,00,00,00,00,00,00,00,00
1954216300,00000470,false,1,8,15,44,40,55,55,B8,14,00
1954216500,00000462,false,0,8,FE,3F,FF,2F,F0,1F,00,00
1954216800,00000471,false,0,6,15,54,10,00,00,B8
1954217000,00000354,false,0,8,AA,0A,55,05,00,01,00,B7
1954217300,000002A1,false,0,8,00,00,00,00,00,00,00,00
1954217500,00000540,false,0,8,CD,33,00,00,7A,00,00,00
1954219300,0000010C,false,0,8,04,00,55,54,15,40,01,24
1954219600,000002A2,false,0,8,04,00,00,F4,05,00,00,3E
1954219900,00000153,false,0,8,A0,A9,20,FF,00,FF,10,77
1954220100,00000331,false,0,8,3E,00,00,00,00,00,00,00
1954222800,00000109,false,0,8,00,01,00,FF,FF,FF,0F,0A
1954223000,00000200,false,0,8,00,80,66,00,00,00,D0,00
1954223300,00000201,false,0,8,11,00,00,00,00,00,00,11
1954223500,00000202,false,0,8,00,00,00,00,00,80,32,B2
1954223800,00000333,false,0,8,00,00,00,00,00,00,00,00
1954225000,00000291,false,0,8,00,00,00,00,FF,00,00,0A
1954225200,00000523,false,0,8,08,38,4C,4C,4B,4A,00,00
1954225500,00000524,false,0,8,83,00,00,00,00,00,00,00
1954226900,00000354,false,0,8,AA,0A,55,05,00,01,00,A8
1954229200,0000010C,false,0,8,04,00,55,54,15,40,01,35
1954229600,000002A2,false,0,8,05,00,00,F4,05,00,00,3E
1954229800,00000153,false,0,8,A0,A9,20,FF,00,FF,20,87
1954230100,00000331,false,0,8,3E,00,00,00,00,00,00,00
1954230300,00000386,false,0,8,00,00,00,80,00,40,00,80
1954230600,00000387,false,0,8,15,15,16,15,00,56,01,00
1954232800,00000109,false,0,8,00,01,00,FF,FF,FF,0F,1B
1954233000,00000200,false,0,8,00,80,66,00,00,40,D0,00
1954233200,00000201,false,0,8,51,00,00,00,00,00,00,51
1954233500,00000202,false,0,8,20,00,00,00,00,80,32,92
1954233700,00000333,false,0,8,00,00,00,00,00,00,00,00
1954235000,00000291,false,0,8,00,00,00,00,FF,00,00,0A
1954235200,00000523,false,0,8,08,38,4C,4C,4B,4A,00,00
1954235500,00000524,false,0,8,83,00,00,00,00,00,00,00
1954236200,00000450,false,0,3,00,C2,05
1954236500,00000462,false,0,8,FE,3F,FF,2F,F0,1F,00,00
1954236700,00000471,false,0,6,15,50,10,00,00,FC
1954236900,00000354,false,0,8,AA,0A,55,05,00,01,00,99
1954237400,000005DC,false,0,8,00,00,00,00,FF,00,00,00
1954237600,000005DE,false,0,8,00,00,4A,2B,4C,4B,4C,00
1954239200,0000010C,false,0,8,04,00,55,54,15,40,01,02
1954239600,000002A2,false,0,8,04,00,00,F4,05,00,00,3E
1954239800,00000153,false,0,8,A0,A9,20,FF,00,FF,30,97
1954219600,00000160,false,1,8,20,3C,01,12,00,00,00,0F
1954219900,00000153,false,1,8,A0,A9,20,FF,00,FF,10,77
1954226000,00000371,false,1,8,3E,10,00,00,00,00,00,10
1954226200,00000372,false,1,8,00,00,00,00,00,00,00,00
1954226400,00000436,false,1,4,00,00,00,08
1954229600,00000160,false,1,8,20,3C,01,12,00,00,00,0F
1954229800,00000153,false,1,8,A0,A9,20,FF,00,FF,20,87
1954230100,00000386,false,1,8,00,00,00,80,00,40,00,80
1954230300,00000387,false,1,8,15,15,16,15,00,56,01,00
1954235800,00000371,false,1,8,3E,10,00,00,00,00,00,10
1954236100,00000372,false,1,8,00,00,00,00,00,00,00,00
1954236400,00000470,false,1,8,15,00,00,55,55,FC,00,00
1954239600,00000160,false,1,8,20,3C,01,12,00,00,00,0F
1954239800,00000153,false,1,8,A0,A9,20,FF,00,FF,30,97
1954240100,00000331,false,0,8,3E,00,00,00,00,00,00,00
1954242700,00000109,false,0,8,00,01,00,FF,FF,FF,0F,2C
1954243000,00000200,false,0,8,00,80,66,00,00,80,D0,00
1954243200,00000201,false,0,8,91,00,00,00,00,00,00,91
1954243500,00000202,false,0,8,40,00,00,00,00,80,32,F2
1954243700,00000333,false,0,8,00,00,00,00,00,00,00,00
1954245000,00000291,false,0,8,00,00,00,00,FF,00,00,0A
1954245200,00000523,false,0,8,08,38,4C,4C,4B,4A,00,00
1954245500,00000524,false,0,8,83,00,00,00,00,00,00,00
1954245800,00000371,false,1,8,3E,10,00,00,00,00,00,10
1954246000,00000372,false,1,8,00,00,00,00,00,00,00,00
1954246900,00000354,false,0,8,AA,0A,55,05,00,01,00,8A
1954249300,0000010C,false,0,8,04,00,55,54,15,40,01,13
1954249600,000002A2,false,0,8,05,00,00,F4,05,00,00,3E
1954249800,00000153,false,0,8,A0,A9,20,FF,00,FF,40,A7
1954250100,00000331,false,0,8,3E,00,00,00,00,00,00,00
1954250300,00000386,false,0,8,00,40,00,80,00,40,00,80
1954250600,00000387,false,0,8,15,15,16,15,00,57,02,00
1954250800,00000490,false,0,7,00,00,08,21,00,00,00
1954252700,00000109,false,0,8,00,01,00,FF,FF,FF,0F,3D
1954253000,00000200,false,0,8,00,80,66,00,00,C0,D0,00
1954253200,00000201,false,0,8,D1,00,00,00,00,00,00,D1
1954253500,00000202,false,0,8,60,00,00,00,00,80,32,D2
1954253700,00000333,false,0,8,00,00,00,00,00,00,00,00
1954255000,00000291,false,0,8,00,00,00,00,FF,00,00,0A
1954255200,00000523,false,0,8,08,38,4C,4C,4B,4A,00,00
1954255400,00000524,false,0,8,83,00,00,00,00,00,00,00
1954256100,00000450,false,0,3,00,C2,05
1954256500,00000462,false,0,8,FE,3F,FF,2F,F0,1F,00,00
1954256700,00000471,false,0,6,15,54,10,00,00,40
1954257000,00000354,false,0,8,AA,0A,55,05,00,01,00,7B
1954259200,0000010C,false,0,8,04,00,55,54,15,40,01,24
1954259600,000002A2,false,0,8,04,00,00,F4,05,00,00,3E
1954259800,00000153,false,0,8,A0,A9,20,FF,00,FF,50,B7
1954260100,00000331,false,0,8,3E,00,00,00,00,00,00,00
1954262700,00000109,false,0,8,00,01,00,FF,FF,FF,0F,0A
1954263000,00000200,false,0,8,00,80,66,00,00,00,D0,00
1954263200,00000201,false,0,8,11,00,00,00,00,00,00,11
1954263500,00000202,false,0,8,00,00,00,00,00,80,32,B2
1954263700,00000333,false,0,8,00,00,00,00,00,00,00,00
1954264900,00000291,false,0,8,00,00,00,00,FF,00,00,0A
1954265200,00000523,false,0,8,08,38,4C,4C,4B,4A,00,00
1954265400,00000524,false,0,8,83,00,00,00,00,00,00,00
1954266900,00000354,false,0,8,AA,0A,55,05,00,01,00,6C
1954269300,0000010C,false,0,8,04,00,55,54,15,40,01,35
1954249600,00000160,false,1,8,20,3C,01,12,00,00,00,0F
1954249800,00000153,false,1,8,A0,A9,20,FF,00,FF,40,A7
1954250100,00000386,false,1,8,00,40,00,80,00,40,00,80
1954250300,00000387,false,1,8,15,15,16,15,00,57,02,00
1954250500,00000490,false,1,7,00,00,08,21,00,00,3C
1954255800,00000371,false,1,8,3E,10,00,00,00,00,00,10
1954256000,00000372,false,1,8,00,00,00,00,00,00,00,00
1954256300,00000470,false,1,8,15,44,40,55,55,40,14,00
1954259600,00000160,false,1,8,20,3C,01,12,00,00,00,0F
1954259800,00000153,false,1,8,A0,A9,20,FF,00,FF,50,B7
1954265900,00000371,false,1,8,3E,10,00,00,00,00,00,10
1954266100,00000372,false,1,8,00,00,00,00,00,00,00,00
1954269600,00000160,false,1,8,20,3C,01,12,00,00,00,0F
1954269800,00000153,false,1,8,A0,A9,20,FF,00,FF,60,C7
1954270000,00000386,false,1,8,00,80,00,80,00,40,00,80
1954269600,000002A2,false,0,8,05,00,00,F4,05,00,00,3E
1954269800,00000153,false,0,8,A0,A9,20,FF,00,FF,60,C7
1954270000,00000331,false,0,8,3E,00,00,00,00,00,00,00
1954270300,00000386,false,0,8,00,80,00,80,00,40,00,80
1954270500,00000387,false,0,8,15,15,16,15,00,58,03,00
1954272700,00000109,false,0,8,00,01,00,FF,FF,FF,0F,1B
1954272900,00000200,false,0,8,00,80,66,00,00,40,D0,00
1954270300,00000387,false,1,8,15,15,16,15,00,58,03,00
1954273200,00000201,false,0,8,51,00,00,00,00,00,00,51
1954273400,00000202,false,0,8,20,00,00,00,00,80,32,92
1954273700,00000333,false,0,8,00,00,00,00,00,00,00,00
1954274900,00000291,false,0,8,00,00,00,00,FF,00,00,0A
1954275200,00000523,false,0,8,08,38,4C,4C,4B,4A,00,00
1954275400,00000524,false,0,8,83,00,00,00,00,00,00,00
1954275800,00000371,false,1,8,3E,10,00,00,00,00,00,10
1954276100,00000372,false,1,8,00,00,00,00,00,00,00,00
1954276300,00000436,false,1,4,00,00,00,08
1954276500,00000450,false,0,3,00,C2,05
1954276700,00000462,false,0,8,FE,3F,FF,2F,F0,1F,00,00
1954277000,00000354,false,0,8,AA,0A,55,05,00,01,00,5D
1954276500,00000470,false,1,8,15,44,40,55,55,44,14,00
1954276800,0000050B,false,1,8,00,00,FF,00,FE,00,00,02
1954277000,00000520,false,1,8,00,00,00,00,9A,01,00,00
1954277300,00000541,false,1,8,00,00,41,08,00,08,00,01
1954277500,0000054B,false,1,8,00,00,00,00,00,CD,00,00
1954277200,00000471,false,0,6,15,50,10,00,00,44
1954277400,00000520,false,0,8,00,00,00,00,00,00,00,00
1954277700,00000541,false,0,8,00,00,40,08,00,00,00,00
1954277900,0000055C,false,0,8,07,1F,14,FF,01,00,00,00
1954278200,0000055F,false,0,8,00,00,00,00,00,00,00,00
1954277800,00000595,false,1,8,00,00,00,00,00,00,00,00
1954278100,00000596,false,1,8,80,00,00,00,00,00,FE,FF
1954278400,000005C1,false,1,8,01,01,00,00,57,0D,00,09
1954278600,000005FF,false,1,8,FF,00,00,00,00,00,00,00
1954278500,00000561,false,0,8,00,00,00,00,00,00,00,00
1954278700,00000567,false,0,8,04,08,2E,35,00,00,00,00
1954279000,00000578,false,0,6,00,00,00,00,0F,00
1954279200,0000010C,false,0,8,04,00,55,54,15,40,01,02
1954279400,00000588,false,0,8,5B,1E,00,00,00,00,00,00
1954279600,00000160,false,1,8,20,3C,01,12,00,00,00,0F
1954279800,00000153,false,1,8,A0,A9,20,FF,00,FF,70,D7
1954279700,00000153,false,0,8,A0,A9,20,FF,00,FF,70,D7
1954279900,000002A2,false,0,8,04,00,00,F4,05,00,00,3E
1954280200,00000331,false,0,8,3E,00,00,00,00,00,00,00
1954280400,000005EC,false,0,8,00,00,00,00,00,00,00,00
1954282700,00000109,false,0,8,00,01,00,FF,FF,FF,0F,2C
1954282900,00000200,false,0,8,00,80,66,00,00,80,D0,00
1954283200,00000201,false,0,8,91,00,00,00,00,00,00,91
1954283400,00000202,false,0,8,40,00,00,00,00,80,32,F2
1954283700,00000333,false,0,8,00,00,00,00,00,00,00,00
1954284900,00000291,false,0,8,00,00,00,00,FF,00,00,0A
1954285100,00000523,false,0,8,08,38,4C,4C,4B,4A,00,00
1954285400,00000524,false,0,8,83,00,00,00,00,00,00,00
1954286800,00000354,false,0,8,AA,0A,55,05,00,01,00,4E
1954289300,0000010C,false,0,8,04,00,55,54,15,40,01,13
1954289500,000002A2,false,0,8,05,00,00,F4,05,00,00,3E
1954289800,00000153,false,0,8,A0,A9,20,FF,00,FF,80,E7
1954290000,00000331,false,0,8,3E,00,00,00,00,00,00,00
1954290300,00000386,false,0,8,00,C0,00,80,00,40,00,80
1954290500,00000387,false,0,8,15,15,16,15,00,59,04,00
1954292700,00000109,false,0,8,00,01,00,FF,FF,FF,0F,3D
1954292900,00000200,false,0,8,00,80,66,00,00,C0,D0,00
1954293200,00000201,false,0,8,D1,00,00,00,00,00,00,D1
1954293400,00000202,false,0,8,60,00,00,00,00,80,32,D2
1954293700,00000333,false,0,8,00,00,00,00,00,00,00,00
1954294900,00000291,false,0,8,00,00,00,00,FF,00,00,0A
1954295200,00000523,false,0,8,08,38,4C,4C,4B,4A,00,00
1954295400,00000524,false,0,8,83,00,00,00,00,00,00,00
1954296100,00000450,false,0,3,00,C2,05
1954296400,00000462,false,0,8,FE,3F,FF,2F,F0,1F,00,00
1954296700,00000471,false,0,6,15,54,10,00,00,48
1954296900,00000354,false,0,8,AA,0A,55,05,00,01,00,3F
1954299200,0000010C,false,0,8,04,00,55,54,15,40,01,24
1954299500,000002A2,false,0,8,04,00,00,F4,05,00,00,3E
1954299800,00000153,false,0,8,A0,A9,20,FF,00,FF,90,F7
1954300000,00000331,false,0,8,3E,00,00,00,00,00,00,00
1954300200,00000490,false,0,7,00,00,08,21,00,00,00
1954300400,00000507,false,0,4,09,00,00,05
1954285700,00000371,false,1,8,3E,10,00,00,00,00,00,10
1954286000,00000372,false,1,8,00,00,00,00,00,00,00,00
1954289500,00000160,false,1,8,20,3D,01,12,00,00,00,0E
1954289800,00000153,false,1,8,A0,A9,20,FF,00,FF,80,E7
1954290000,00000386,false,1,8,00,C0,00,80,00,40,00,80
1954290200,00000387,false,1,8,15,15,16,15,00,59,04,00
1954295700,00000371,false,1,8,3E,10,00,00,00,00,00,10
1954296000,00000372,false,1,8,00,00,00,00,00,00,00,00
1954296200,00000470,false,1,8,15,44,40,55,55,48,14,00
1954299500,00000160,false,1,8,20,3C,01,12,00,00,00,0F
1954299800,00000153,false,1,8,A0,A9,20,FF,00,FF,90,F7
1954300000,00000490,false,1,7,00,00,08,21,00,00,3C
1954300100,00000507,false,1,4,09,00,00,05
1954302700,00000109,false,0,8,00,01,00,FF,FF,FF,0F,0A
1954302900,00000200,false,0,8,00,80,66,00,00,00,D0,00
1954303200,00000201,false,0,8,11,00,00,00,00,00,00,11
1954303400,00000202,false,0,8,00,00,00,00,00,80,32,B2
1954303700,00000333,false,0,8,00,00,00,00,00,00,00,00
1954304100,00000590,false,0,8,41,00,00,00,00,00,00,64
1954304300,0000045B,false,0,8,CD,10,00,AC,B4,12,4E,0D
1954304500,00000529,false,0,8,00,00,00,EC,01,5A,1C,00
1954304800,00000549,false,0,8,8D,81,FF,85,1C,A7,7F,7F
1954305000,00000291,false,0,8,00,00,00,00,FF,00,00,0A
1954305200,00000523,false,0,8,08,38,4C,4C,4B,4A,00,00
1954305500,00000524,false,0,8,83,00,00,00,00,00,00,00
1954305700,00000579,false,0,8,5B,1E,00,A0,04,09,00,FE
1954306000,0000057A,false,0,8,07,1F,14,FF,01,FE,FF,07
1954306200,0000057B,false,0,8,01,01,08,00,00,46,64,A0
1954305800,00000371,false,1,8,3E,10,00,00,00,00,00,10
1954306100,00000372,false,1,8,00,00,00,00,00,00,00,00
1954307000,00000592,false,1,8,40,00,00,00,00,00,00,C5
1954306400,0000058F,false,0,8,07,00,00,0A,00,00,00,00
1954306700,00000592,false,0,8,40,00,00,00,00,00,00,C5
1954306900,00000354,false,0,8,AA,0A,55,05,00,01,00,20
1954307200,000005D9,false,0,8,01,00,00,80,5C,1B,00,00
1954309100,0000010C,false,0,8,04,00,55,54,15,40,01,35
1954309500,00000160,false,1,8,20,3C,01,12,00,00,00,0F
1954309700,00000153,false,1,8,A0,A9,20,FF,00,FF,A0,07
1954310000,00000386,false,1,8,00,00,00,C0,00,40,00,80
1954309500,000002A2,false,0,8,05,00,00,F4,05,00,00,3E
1954309800,00000153,false,0,8,A0,A9,20,FF,00,FF,A0,07
1954310000,00000331,false,0,8,3E,00,00,00,00,00,00,00
1954310300,00000386,false,0,8,00,00,00,C0,00,40,00,80
1954310500,00000387,false,0,8,15,15,16,15,00,5A,05,00
1954310200,00000387,false,1,8,15,15,16,15,00,5A,05,00
1954312700,00000109,false,0,8,00,01,00,FF,FF,FF,0F,1B
1954312900,00000200,false,0,8,00,80,66,00,00,40,D0,00
1954313100,00000201,false,0,8,51,00,00,00,00,00,00,51
1954313400,00000202,false,0,8,20,00,00,00,00,80,32,92
1954313600,00000333,false,0,8,00,00,00,00,00,00,00,00
1954314900,00000291,false,0,8,00,00,00,00,FF,00,00,0A
1954315100,00000523,false,0,8,08,38,4C,4C,4B,4A,00,00
1954315400,00000524,false,0,8,82,00,00,00,00,00,00,00
1954316100,00000450,false,0,3,00,C2,05
1954316400,00000462,false,0,8,FE,3F,FF,2F,F0,1F,00,00
1954316600,00000471,false,0,6,15,54,10,00,00,8C
1954316800,00000354,false,0,8,AA,0A,55,05,00,01,00,11
1954317100,000002A1,false,0,8,00,00,00,00,00,00,00,00
1954319100,0000010C,false,0,8,04,00,55,54,15,40,01,02
1954319500,000002A2,false,0,8,04,00,00,F4,05,00,00,3E
1954319700,00000153,false,0,8,A0,A9,20,FF,00,FF,B0,17
1954320000,00000331,false,0,8,3E,00,00,00,00,00,00,00
1954322700,00000109,false,0,8,00,01,00,FF,FF,FF,0F,2C
1954322900,00000200,false,0,8,00,80,66,00,00,80,D0,00
1954323100,00000201,false,0,8,91,00,00,00,00,00,00,91
1954323400,00000202,false,0,8,40,00,00,00,00,80,32,F2
1954323600,00000333,false,0,8,00,00,00,00,00,00,00,00
1954324900,00000291,false,0,8,00,00,00,00,FF,00,00,0A
1954325100,00000523,false,0,8,08,38,4C,4C,4B,4A,00,00
1954325400,00000524,false,0,8,82,00,00,00,00,00,00,00
1954326800,00000354,false,0,8,AA,0A,55,05,00,01,00,02
1954329200,0000010C,false,0,8,04,00,55,54,15,40,01,13
1954329500,000002A2,false,0,8,05,00,00,F4,05,00,00,3E
1954329700,00000153,false,0,8,A0,A9,20,FF,00,FF,C0,27
1954330000,00000331,false,0,8,3E,00,00,00,00,00,00,00
1954330200,00000386,false,0,8,00,40,00,C0,00,40,00,80
1954330500,00000387,false,0,8,15,15,16,15,00,5B,06,00
1954331300,00000593,false,0,6,01,08,FF,FF,FF,FF
1954332600,00000109,false,0,8,00,01,00,FF,FF,FF,0F,3D
1954332900,00000200,false,0,8,00,80,66,00,00,C0,D0,00
1954333100,00000201,false,0,8,D1,00,00,00,00,00,00,D1
1954315700,00000371,false,1,8,3E,10,00,00,00,00,00,10
1954316000,00000372,false,1,8,00,00,00,00,00,00,00,00
1954316300,00000470,false,1,8,15,44,40,55,55,8C,14,00
1954319500,00000160,false,1,8,20,3C,01,12,00,00,00,0F
1954319700,00000153,false,1,8,A0,A9,20,FF,00,FF,B0,17
1954325700,00000371,false,1,8,3E,10,00,00,00,00,00,10
1954326000,00000372,false,1,8,00,00,00,00,00,00,00,00
1954326200,00000436,false,1,4,00,00,00,08
1954329500,00000160,false,1,8,20,3C,01,12,00,00,00,0F
1954329700,00000153,false,1,8,A0,A9,20,FF,00,FF,C0,27
1954330000,00000386,false,1,8,00,40,00,C0,00,40,00,80
1954330200,00000387,false,1,8,15,15,16,15,00,5B,06,00
1954331600,00000593,false,1,6,01,08,FF,FF,FF,FF
1954333400,00000202,false,0,8,60,00,00,00,00,80,32,D2
1954333600,00000333,false,0,8,00,00,00,00,00,00,00,00
1954334900,00000291,false,0,8,00,00,00,00,FF,00,00,0A
