Time Stamp,ID,Extended,Bus,LEN,D1,D2,D3,D4,D5,D6,D7,D8
194411100,00000109,false,1,8,00,01,00,FF,FF,FF,0F,0A
194411300,00000200,false,1,8,00,00,00,04,00,10,D0,00
194411600,00000201,false,1,8,01,00,00,00,00,00,00,01
194411800,00000202,false,1,8,00,00,10,00,00,00,00,10
194412100,00000333,false,1,8,00,00,00,00,00,00,00,00
194412700,00000590,false,1,8,11,00,00,00,00,00,00,3C
194412900,0000045B,false,1,8,00,30,00,00,00,00,01,00
194413100,00000529,false,1,8,00,00,00,00,00,00,00,00
194413400,00000549,false,1,8,EF,72,00,00,00,00,00,00
194413600,00000579,false,1,8,7C,7C,00,00,04,08,10,FE
194413900,0000057A,false,1,8,1F,00,00,3E,00,00,00,00
194414100,0000057B,false,1,8,01,01,00,00,00,46,64,A0
194414400,0000058F,false,1,8,00,01,00,00,00,00,00,00
194414600,00000592,false,1,8,00,00,00,00,00,00,00,45
194414900,000005D9,false,1,8,00,00,00,00,00,00,00,00
194421100,00000109,false,1,8,00,01,00,FF,FF,FF,0F,1B
194421400,00000200,false,1,8,00,00,00,04,00,50,D0,00
194421600,00000201,false,1,8,41,00,00,00,00,00,00,41
194421800,00000202,false,1,8,20,00,10,00,00,00,00,30
194422100,00000333,false,1,8,00,00,00,00,00,00,00,00
194431100,00000109,false,1,8,00,01,00,FF,FF,FF,0F,2C
194431300,00000200,false,1,8,00,00,00,04,00,90,D0,00
194431600,00000201,false,1,8,81,00,00,00,00,00,00,81
194431800,00000202,false,1,8,40,00,10,00,00,00,00,50
194432100,00000333,false,1,8,00,00,00,00,00,00,00,00
194441100,00000109,false,1,8,00,01,00,FF,FF,FF,0F,3D
194441300,00000200,false,1,8,00,00,00,04,00,D0,D0,00
194441600,00000201,false,1,8,C1,00,00,00,00,00,00,C1
194441800,00000202,false,1,8,60,00,10,00,00,00,00,70
194442100,00000333,false,1,8,00,00,00,00,00,00,00,00
194451000,00000109,false,1,8,00,01,00,FF,FF,FF,0F,0A
194451300,00000200,false,1,8,00,00,00,04,00,10,D0,00
194451500,00000201,false,1,8,01,00,00,00,00,00,00,01
194451800,00000202,false,1,8,00,00,10,00,00,00,00,10
194452000,00000333,false,1,8,00,00,00,00,00,00,00,00
194454400,00000291,false,1,8,00,00,00,00,00,00,00,00
194454600,00000523,false,1,8,02,38,28,28,28,28,00,01
194454900,00000524,false,1,8,00,00,00,00,00,00,00,00
194461000,00000109,false,1,8,00,01,00,FF,FF,FF,0F,1B
194461300,00000200,false,1,8,00,00,00,04,00,50,D0,00
194461500,00000201,false,1,8,41,00,00,00,00,00,00,41
194461800,00000202,false,1,8,20,00,10,00,00,00,00,30
194462000,00000333,false,1,8,00,00,00,00,00,00,00,00
194464400,00000291,false,1,8,00,00,FF,7F,19,00,00,0A
194464600,00000523,false,1,8,02,38,FF,FF,FF,FF,00,01
194464800,00000524,false,1,8,FF,FF,FF,00,00,00,C0,7F
194471000,00000109,false,1,8,00,01,00,FF,FF,FF,0F,2C
194471300,00000200,false,1,8,00,00,00,04,00,90,D0,00
194471500,00000201,false,1,8,81,00,00,00,00,00,00,81
194471800,00000202,false,1,8,40,00,10,00,00,00,00,50
194472000,00000333,false,1,8,00,00,00,00,00,00,00,00
194474300,00000291,false,1,8,00,00,FF,7F,30,00,00,0A
194474600,00000523,false,1,8,02,38,FF,FF,FF,FF,00,01
194474800,00000524,false,1,8,FF,FF,FF,00,00,00,C0,7F
194481000,00000109,false,1,8,00,01,00,FF,FF,FF,0F,3D
194481300,00000200,false,1,8,00,00,00,04,00,D0,D0,00
194481500,00000201,false,1,8,C1,00,00,00,00,00,00,C1
194481800,00000202,false,1,8,60,00,10,00,00,00,00,70
194482000,00000333,false,1,8,00,00,00,00,00,00,00,00
194484300,00000291,false,1,8,00,00,FF,7F,45,00,00,0A
194484600,00000523,false,1,8,02,38,FF,FF,FF,FF,00,01
194484800,00000524,false,1,8,FF,FF,FF,00,00,00,C0,7F
194491000,00000109,false,1,8,00,01,00,FF,FF,FF,0F,0A
194491200,00000200,false,1,8,00,00,00,04,00,10,D0,00
194491500,00000201,false,1,8,01,00,00,00,00,00,00,01
194491700,00000202,false,1,8,00,00,10,00,00,00,00,10
194492000,00000333,false,1,8,00,00,00,00,00,00,00,00
194494300,00000291,false,1,8,00,00,FF,7F,58,00,00,0A
194494600,00000523,false,1,8,02,38,FF,FF,FF,FF,00,01
194494800,00000524,false,1,8,FF,FF,FF,00,00,00,C0,7F
194501000,00000109,false,1,8,00,01,00,FF,FF,FF,0F,1B
194501200,00000200,false,1,8,00,00,00,04,00,50,D0,00
194501500,00000201,false,1,8,41,00,00,00,00,00,00,41
194501700,00000202,false,1,8,20,00,10,00,00,00,00,30
194502000,00000333,false,1,8,00,00,00,00,00,00,00,00
194504300,00000291,false,1,8,00,00,FF,7F,68,00,00,0A
194504600,00000523,false,1,8,02,38,FF,FF,FF,FF,00,01
194504800,00000524,false,1,8,FF,FF,FF,00,00,00,C0,7F
194511000,00000109,false,1,8,00,01,00,FF,FF,FF,0F,2C
194511200,00000200,false,1,8,00,00,00,04,00,90,D0,00
194511500,00000201,false,1,8,81,00,00,00,00,00,00,81
194511700,00000202,false,1,8,40,00,10,00,00,00,00,50
194512000,00000333,false,1,8,00,00,00,00,00,00,00,00
194512500,00000590,false,1,8,11,00,00,00,00,00,00,3C
194512700,0000045B,false,1,8,00,30,00,00,00,00,01,00
194513000,00000549,false,1,8,EF,72,00,00,00,00,00,00
194513200,00000579,false,1,8,7C,7C,00,00,04,08,10,FE
194513500,0000057A,false,1,8,1F,00,00,3E,00,00,00,00
194513700,0000057B,false,1,8,01,01,00,00,00,46,64,A0
194514000,0000058F,false,1,8,00,01,00,00,00,00,00,00
194514200,00000592,false,1,8,00,00,00,00,00,00,00,85
194514400,00000291,false,1,8,00,00,FF,7F,77,00,00,0A
194514700,00000523,false,1,8,03,3A,FF,FF,FF,FF,00,01
194514900,00000524,false,1,8,FF,FF,FF,00,00,00,C0,7F
194515200,000005D9,false,1,8,00,00,00,00,00,00,00,00
194521000,00000109,false,1,8,00,01,00,FF,FF,FF,0F,3D
194521200,00000200,false,1,8,00,00,00,04,00,D0,D0,00
194521500,00000201,false,1,8,C1,00,00,00,00,00,00,C1
194521700,00000202,false,1,8,60,00,10,00,00,00,00,70
194522000,00000333,false,1,8,00,00,00,00,00,00,00,00
194524300,00000291,false,1,8,00,00,FF,7F,6B,00,00,0A
194524500,00000523,false,1,8,03,3A,FF,FF,FF,FF,00,01
194524700,00000524,false,1,8,FF,FF,FF,00,00,00,C0,7F
194526500,000002A1,false,1,8,00,01,00,00,00,16,00,00
194526800,00000540,false,1,8,00,00,00,00,00,00,00,00
194531000,00000109,false,1,8,00,01,00,FF,FF,FF,0F,0A
194531200,00000200,false,1,8,00,00,00,20,00,10,D0,00
194531500,00000201,false,1,8,01,00,00,00,00,00,00,01
194531700,00000202,false,1,8,00,00,10,00,00,00,00,10
194532000,00000333,false,1,8,00,00,00,00,00,00,00,00
194534300,00000291,false,1,8,00,00,FF,7F,61,00,00,0A
194534500,00000523,false,1,8,03,3A,FF,FF,FF,FF,00,01
194534800,00000524,false,1,8,FF,FF,FF,00,00,00,C0,7F
194540900,00000109,false,1,8,00,01,00,FF,FF,FF,0F,1B
194541200,00000200,false,1,8,00,00,00,20,00,50,D0,00
194541400,00000201,false,1,8,41,00,00,00,00,00,00,41
194541700,00000202,false,1,8,20,00,10,00,00,00,00,30
194541900,00000333,false,1,8,00,00,00,00,00,00,00,00
194544300,00000291,false,1,8,00,00,FF,7F,57,00,00,0A
194544500,00000523,false,1,8,03,3A,FF,FF,FF,FF,00,01
194544700,00000524,false,1,8,FF,FF,FF,00,00,00,C0,7F
194546700,000005DC,false,1,8,FF,7F,00,00,4E,00,00,00
194546900,000005DE,false,1,8,6E,02,FF,7A,FF,FF,FF,01
194550900,00000109,false,1,8,00,01,00,FF,FF,FF,0F,2C
194551200,00000200,false,1,8,00,00,00,20,00,90,D0,00
194551400,00000201,false,1,8,81,00,00,00,00,00,00,81
194551700,00000202,false,1,8,40,00,10,00,00,00,00,50
194551900,00000333,false,1,8,00,00,00,00,00,00,00,00
194554200,00000291,false,1,8,00,00,FF,7F,4E,00,00,0A
194554500,00000523,false,1,8,03,3A,FF,FF,FF,FF,00,01
194554800,00000524,false,1,8,FF,FF,FF,00,00,00,C0,7F
194560900,00000109,false,1,8,00,01,00,FF,FF,FF,0F,3D
194561200,00000200,false,1,8,00,00,00,20,00,D0,D0,00
194561400,00000201,false,1,8,C1,00,00,00,00,00,00,C1
194561700,00000202,false,1,8,60,00,10,00,00,00,00,70
194561900,00000333,false,1,8,00,00,00,00,00,00,00,00
194564300,00000291,false,1,8,00,00,FF,7F,46,00,00,0A
194564500,00000523,false,1,8,03,3A,FF,FF,FF,FF,00,01
194564700,00000524,false,1,8,FF,FF,FF,00,00,00,C0,7F
194570900,00000109,false,1,8,00,01,00,FF,FF,FF,0F,0A
194571200,00000200,false,1,8,00,00,00,20,00,10,D0,00
194571400,00000201,false,1,8,01,00,00,00,00,00,00,01
194571700,00000202,false,1,8,00,00,10,00,00,00,00,10
194571900,00000333,false,1,8,00,00,00,00,00,00,00,00
194574200,00000291,false,1,8,00,00,FF,7F,3F,00,00,0A
194574500,00000523,false,1,8,03,3A,FF,FF,FF,FF,00,01
194574700,00000524,false,1,8,FF,FF,FF,00,00,00,C0,7F
194580900,00000109,false,1,8,00,01,00,FF,FF,FF,0F,1B
194581100,00000200,false,1,8,00,00,00,20,00,50,D0,00
194581400,00000201,false,1,8,41,00,00,00,00,00,00,41
194581600,00000202,false,1,8,20,00,10,00,00,00,00,30
194581900,00000333,false,1,8,00,00,00,00,00,00,00,00
194584200,00000291,false,1,8,00,00,FF,7F,39,00,00,0A
194584500,00000523,false,1,8,00,3A,FF,FF,FF,FF,00,01
194584700,00000524,false,1,8,FF,FF,FF,00,00,00,C0,7F
194590900,00000109,false,1,8,00,01,00,FF,FF,FF,0F,2C
194591100,00000200,false,1,8,00,00,00,20,00,90,D0,00
194591400,00000201,false,1,8,81,00,00,00,00,00,00,81
194591600,00000202,false,1,8,40,00,10,00,00,00,00,50
194591900,00000333,false,1,8,00,00,00,00,00,00,00,00
194594200,00000291,false,1,8,00,00,FF,7F,4D,00,00,0A
194594400,00000523,false,1,8,02,3A,FF,FF,FF,FF,00,01
194594700,00000524,false,1,8,FF,FF,FF,00,00,00,C0,7F
194600900,00000109,false,1,8,00,01,00,FF,FF,FF,0F,3D
194601100,00000200,false,1,8,00,00,00,20,00,D0,D0,00
194601400,00000201,false,1,8,C1,00,00,00,00,00,00,C1
194601600,00000202,false,1,8,60,00,10,00,00,00,00,70
194601900,00000333,false,1,8,00,00,00,00,00,00,00,00
194604200,00000291,false,1,8,00,00,FF,7F,5F,00,00,0A
194604500,00000523,false,1,8,02,3A,FF,FF,FF,FF,00,01
194604700,00000524,false,1,8,FF,FF,FF,00,00,00,C0,7F
194610900,00000109,false,1,8,00,01,00,FF,FF,FF,0F,0A
194611100,00000200,false,1,8,00,00,00,20,00,10,D0,00
194611400,00000201,false,1,8,01,00,00,00,00,00,00,01
194611600,00000202,false,1,8,00,00,10,00,00,00,00,10
194611900,00000333,false,1,8,00,00,00,00,00,00,00,00
194612400,00000590,false,1,8,11,00,00,00,00,00,00,3C
194612600,0000045B,false,1,8,00,30,00,00,00,00,01,00
194612900,00000529,false,1,8,00,00,00,00,00,BE,3B,00
194613100,00000549,false,1,8,EF,72,00,00,00,00,00,00
194613300,00000579,false,1,8,7C,7C,00,00,04,08,10,FE
194613600,0000057A,false,1,8,1F,00,00,3E,00,00,00,00
194613800,0000057B,false,1,8,01,01,00,00,00,46,64,A0
194614100,0000058F,false,1,8,00,01,00,00,00,00,00,00
194614300,00000291,false,1,8,00,00,FF,7F,6F,00,00,0A
194614600,00000523,false,1,8,02,3A,FF,FF,FF,FF,00,01
194614800,00000524,false,1,8,FF,FF,FF,00,00,00,C0,7F
194615000,00000592,false,1,8,00,00,00,00,00,00,00,C5
194615300,000005D9,false,1,8,00,00,00,00,00,00,00,00
194620800,00000109,false,1,8,00,01,00,FF,FF,FF,0F,1B
194621100,00000200,false,1,8,00,00,00,20,00,50,D0,00
194621300,00000201,false,1,8,41,00,00,00,00,00,00,41
194621600,00000202,false,1,8,20,00,10,00,00,00,00,30
194621800,00000333,false,1,8,00,00,00,00,00,00,00,00
194624200,00000291,false,1,8,00,00,FF,7F,7D,00,00,0A
194624400,00000523,false,1,8,02,3A,FF,FF,FF,FF,00,01
194624700,00000524,false,1,8,FF,FF,FF,00,00,00,C0,7F
194626400,000002A1,false,1,8,00,02,00,00,00,00,00,00
194630800,00000109,false,1,8,00,01,00,FF,FF,FF,0F,2C
194631100,00000200,false,1,8,00,00,00,20,00,90,D0,00
194631300,00000201,false,1,8,81,00,00,00,00,00,00,81
194631600,00000202,false,1,8,40,00,10,00,00,00,00,50
194631800,00000333,false,1,8,00,00,00,00,00,00,00,00
194634200,00000291,false,1,8,00,00,FF,7F,8A,00,00,0A
194634400,00000523,false,1,8,02,3A,FF,FF,FF,FF,00,01
194634600,00000524,false,1,8,FF,FF,FF,00,00,00,C0,7F
194640800,00000109,false,1,8,00,01,00,FF,FF,FF,0F,3D
194641100,00000200,false,1,8,00,00,00,20,00,D0,D0,00
194641300,00000201,false,1,8,C1,00,00,00,00,00,00,C1
194641600,00000202,false,1,8,60,00,10,00,00,00,00,70
194641800,00000333,false,1,8,00,00,00,00,00,00,00,00
194644100,00000291,false,1,8,00,00,FF,7F,96,00,00,0A
194644400,00000523,false,1,8,03,3A,FF,FF,FF,FF,00,01
194644600,00000524,false,1,8,FF,FF,FF,00,00,00,C0,7F
194650800,00000109,false,1,8,00,01,00,FF,FF,FF,0F,0A
194651100,00000200,false,1,8,00,00,00,20,00,10,D0,00
194651300,00000201,false,1,8,01,00,00,00,00,00,00,01
194651600,00000202,false,1,8,00,00,10,00,00,00,00,10
194651800,00000333,false,1,8,00,00,00,00,00,00,00,00
194654100,00000291,false,1,8,00,00,FF,7F,87,00,00,0A
194654400,00000523,false,1,8,03,3A,FF,FF,FF,FF,00,01
194654600,00000524,false,1,8,FF,FF,FF,00,00,00,C0,7F
194660800,00000109,false,1,8,00,01,00,FF,FF,FF,0F,1B
194661000,00000200,false,1,8,00,00,00,20,00,50,D0,00
194661300,00000201,false,1,8,41,00,00,00,00,00,00,41
194661500,00000202,false,1,8,20,00,10,00,00,00,00,30
194661800,00000333,false,1,8,00,00,00,00,00,00,00,00
194664100,00000291,false,1,8,00,00,FF,7F,79,00,00,0A
194664400,00000523,false,1,8,03,3A,FF,FF,FF,FF,00,01
194664600,00000524,false,1,8,FF,FF,FF,00,00,00,C0,7F
194670800,00000109,false,1,8,00,01,00,FF,FF,FF,0F,2C
194671000,00000200,false,1,8,00,00,00,20,00,90,D0,00
194671300,00000201,false,1,8,81,00,00,00,00,00,00,81
194671500,00000202,false,1,8,40,00,10,00,00,00,00,50
194671800,00000333,false,1,8,00,00,00,00,00,00,00,00
194674100,00000291,false,1,8,00,00,FF,7F,6D,00,00,0A
194674300,00000523,false,1,8,03,3A,FF,FF,FF,FF,00,01
194674600,00000524,false,1,8,FF,FF,FF,00,00,00,C0,7F
194680800,00000109,false,1,8,00,01,00,FF,FF,FF,0F,3D
194681000,00000200,false,1,8,00,00,00,20,00,D0,D0,00
194681300,00000201,false,1,8,C1,00,00,00,00,00,00,C1
194681500,00000202,false,1,8,60,00,10,00,00,00,00,70
194681800,00000333,false,1,8,00,00,00,00,00,00,00,00
194684100,00000291,false,1,8,00,00,FF,7F,62,00,00,0A
194684300,00000523,false,1,8,03,3A,FF,FF,FF,FF,00,01
194684600,00000524,false,1,8,FF,FF,FF,00,00,00,C0,7F
194690800,00000109,false,1,8,00,01,00,FF,FF,FF,0F,0A
194691000,00000200,false,1,8,00,00,00,20,00,10,D0,00
194691300,00000201,false,1,8,01,00,00,00,00,00,00,01
194691500,00000202,false,1,8,00,00,10,00,00,00,00,10
194691800,00000333,false,1,8,00,00,00,00,00,00,00,00
194694000,00000291,false,1,8,00,00,FF,7F,58,00,00,0A
194694300,00000523,false,1,8,03,3A,FF,FF,FF,FF,00,01
194694500,00000524,false,1,8,FF,FF,FF,00,00,00,C0,7F
194700700,00000109,false,1,8,00,01,00,FF,FF,FF,0F,1B
194701000,00000200,false,1,8,00,00,00,20,00,50,D0,00
194701200,00000201,false,1,8,41,00,00,00,00,00,00,41
194701500,00000202,false,1,8,20,00,10,00,00,00,00,30
194701700,00000333,false,1,8,00,00,00,00,00,00,00,00
194704100,00000291,false,1,8,00,00,FF,7F,4F,00,00,0A
194704300,00000523,false,1,8,03,3A,FF,FF,FF,FF,00,01
194704600,00000524,false,1,8,FF,FF,FF,00,00,00,C0,7F
194710700,00000109,false,1,8,00,01,00,FF,FF,FF,0F,2C
194711000,00000200,false,1,8,00,00,00,20,00,90,D0,00
194711200,00000201,false,1,8,81,00,00,00,00,00,00,81
194711500,00000202,false,1,8,40,00,10,00,00,00,00,50
194711700,00000333,false,1,8,00,00,00,00,00,00,00,00
194712200,00000590,false,1,8,11,00,00,00,00,00,00,3C
194712500,0000045B,false,1,8,00,30,00,00,00,00,01,00
194712700,00000549,false,1,8,EF,72,00,00,00,00,00,00
194713000,00000579,false,1,8,7C,7C,00,00,04,08,10,FE
194713200,0000057A,false,1,8,1F,00,00,3E,00,00,00,00
194713500,0000057B,false,1,8,01,01,00,00,00,46,64,A0
194713700,0000058F,false,1,8,00,01,00,00,00,00,00,00
194714000,00000592,false,1,8,00,00,00,00,00,00,00,05
194714200,00000291,false,1,8,00,00,FF,7F,47,00,00,0A
194714500,00000523,false,1,8,03,3A,FF,FF,FF,FF,00,01
194714700,00000524,false,1,8,FF,FF,FF,00,00,00,C0,7F
194714900,000005D9,false,1,8,00,00,00,00,00,00,00,00
194720700,00000109,false,1,8,00,01,00,FF,FF,FF,0F,3D
194721000,00000200,false,1,8,00,00,00,20,00,D0,D0,00
194721200,00000201,false,1,8,C1,00,00,00,00,00,00,C1
194721500,00000202,false,1,8,60,00,10,00,00,00,00,70
194721700,00000333,false,1,8,00,00,00,00,00,00,00,00
194724000,00000291,false,1,8,00,00,FF,7F,40,00,00,0A
194724300,00000523,false,1,8,03,3A,FF,FF,FF,FF,00,01
194724500,00000524,false,1,8,FF,FF,FF,00,00,00,C0,7F
194726300,000002A1,false,1,8,00,02,00,00,00,16,00,00
194726500,00000540,false,1,8,00,00,00,00,00,00,00,00
194730700,00000109,false,1,8,00,01,00,FF,FF,FF,0F,0A
194731000,00000200,false,1,8,00,00,00,20,00,10,D0,00
194731200,00000201,false,1,8,01,00,00,00,00,00,00,01
194731500,00000202,false,1,8,00,00,10,00,00,00,00,10
194731700,00000333,false,1,8,00,00,00,00,00,00,00,00
194734000,00000291,false,1,8,00,00,FF,7F,3A,00,00,0A
194734300,00000523,false,1,8,03,3A,FF,FF,FF,FF,00,01
194734500,00000524,false,1,8,FF,FF,FF,00,00,00,C0,7F
194740700,00000109,false,1,8,00,01,00,FF,FF,FF,0F,1B
194740900,00000200,false,1,8,00,00,00,20,00,50,D0,00
194741200,00000201,false,1,8,41,00,00,00,00,00,00,41
194741400,00000202,false,1,8,20,00,10,00,00,00,00,30
194741700,00000333,false,1,8,00,00,00,00,00,00,00,00
194744000,00000291,false,1,8,00,00,FF,7F,34,00,00,0A
194744300,00000523,false,1,8,03,3A,FF,FF,FF,FF,00,01
194744500,00000524,false,1,8,FF,FF,FF,00,00,00,C0,7F
194750700,00000109,false,1,8,00,01,00,FF,FF,FF,0F,2C
194750900,00000200,false,1,8,00,00,00,20,00,90,D0,00
194751200,00000201,false,1,8,81,00,00,00,00,00,00,81
194751400,00000202,false,1,8,40,00,10,00,00,00,00,50
194751700,00000333,false,1,8,00,00,00,00,00,00,00,00
194754000,00000291,false,1,8,00,00,FF,7F,2F,00,00,0A
194754200,00000523,false,1,8,0B,3B,FF,FF,FF,FF,00,01
194754500,00000524,false,1,8,FF,FF,FF,00,00,00,C0,7F
194760700,00000109,false,1,8,00,01,00,FF,FF,FF,0F,3D
194760900,00000200,false,1,8,00,00,00,20,00,D0,D0,00
194761200,00000201,false,1,8,C1,00,00,00,00,00,00,C1
194761400,00000202,false,1,8,60,00,10,00,00,00,00,70
194761700,00000333,false,1,8,00,00,00,00,00,00,00,00
194764000,00000291,false,1,8,00,00,FF,7F,2A,00,00,0A
194764200,00000523,false,1,8,0B,3B,FF,FF,FF,FF,00,01
194764400,00000524,false,1,8,FF,FF,FF,00,00,00,C0,7F
194770700,00000109,false,1,8,00,01,00,FF,FF,FF,0F,0A
194770900,00000200,false,1,8,00,00,00,20,00,10,D0,00
194771200,00000201,false,1,8,01,00,00,00,00,00,00,01
194771400,00000202,false,1,8,00,00,10,00,00,00,00,10
194771700,00000333,false,1,8,00,00,00,00,00,00,00,00
194774000,00000291,false,1,8,00,00,FF,7F,26,00,00,0A
194774200,00000523,false,1,8,0B,3B,FF,FF,FF,FF,00,01
194774500,00000524,false,1,8,FF,FF,FF,00,00,00,C0,7F
194780600,00000109,false,1,8,00,01,00,FF,FF,FF,0F,1B
194780900,00000200,false,1,8,00,00,00,20,00,50,D0,00
194781100,00000201,false,1,8,41,00,00,00,00,00,00,41
194781400,00000202,false,1,8,20,00,10,00,00,00,00,30
194781600,00000333,false,1,8,00,00,00,00,00,00,00,00
194784000,00000291,false,1,8,00,00,FF,7F,22,00,00,0A
194784200,00000523,false,1,8,0B,3B,FF,FF,FF,FF,00,01
194784400,00000524,false,1,8,FF,FF,FF,00,00,00,C0,7F
194790600,00000109,false,1,8,00,01,00,FF,FF,FF,0F,2C
194790900,00000200,false,1,8,00,00,00,20,00,90,D0,00
194791100,00000201,false,1,8,81,00,00,00,00,00,00,81
194791400,00000202,false,1,8,40,00,10,00,00,00,00,50
194791600,00000333,false,1,8,00,00,00,00,00,00,00,00
194794000,00000291,false,1,8,00,00,FF,7F,1E,00,00,0A
194794200,00000523,false,1,8,0B,3B,FF,FF,FF,FF,00,01
194794400,00000524,false,1,8,FF,FF,FF,00,00,00,C0,7F
194800600,00000109,false,1,8,00,01,00,FF,FF,FF,0F,3D
194800900,00000200,false,1,8,00,00,00,20,00,D0,D0,00
194801100,00000201,false,1,8,C1,00,00,00,00,00,00,C1
194801400,00000202,false,1,8,60,00,10,00,00,00,00,70
194801600,00000333,false,1,8,00,00,00,00,00,00,00,00
194803900,00000291,false,1,8,00,00,FF,7F,1B,00,00,0A
194804200,00000523,false,1,8,0B,3B,FF,FF,FF,FF,00,01
194804400,00000524,false,1,8,FF,FF,FF,00,00,00,C0,7F
194810600,00000109,false,1,8,00,01,00,FF,FF,FF,0F,0A
194810900,00000200,false,1,8,00,00,00,20,00,10,D0,00
194811100,00000201,false,1,8,01,00,00,00,00,00,00,01
194811400,00000202,false,1,8,00,00,10,00,00,00,00,10
194811600,00000333,false,1,8,00,00,00,00,00,00,00,00
194812100,00000590,false,1,8,11,00,00,00,00,00,00,3C
194812400,0000045B,false,1,8,00,30,00,00,00,00,01,00
194812600,00000529,false,1,8,00,00,00,00,00,BE,3B,00
194812800,00000549,false,1,8,EF,72,00,00,00,00,00,00
194813100,00000579,false,1,8,7C,7C,00,00,04,08,10,FE
194813300,0000057A,false,1,8,1F,00,00,3E,00,00,00,00
194813600,0000057B,false,1,8,01,01,00,00,00,46,64,A0
194813800,0000058F,false,1,8,00,01,00,00,00,00,00,00
194814100,00000291,false,1,8,00,00,FF,7F,19,00,00,0A
194814300,00000523,false,1,8,0B,3B,FF,FF,FF,FF,00,01
194814600,00000524,false,1,8,FF,FF,FF,00,00,00,C0,7F
194814800,00000592,false,1,8,00,00,00,00,00,00,00,45
194815000,000005D9,false,1,8,00,00,00,00,00,00,00,00
194820600,00000109,false,1,8,00,01,00,FF,FF,FF,0F,1B
194820800,00000200,false,1,8,00,00,00,20,00,50,D0,00
194821100,00000201,false,1,8,41,00,00,00,00,00,00,41
194821300,00000202,false,1,8,20,00,10,00,00,00,00,30
194821600,00000333,false,1,8,00,00,00,00,00,00,00,00
194823900,00000291,false,1,8,00,00,FF,7F,16,00,00,0A
194824200,00000523,false,1,8,0B,3B,FF,FF,FF,FF,00,01
194824400,00000524,false,1,8,FF,FF,FF,00,00,00,C0,7F
194826100,000002A1,false,1,8,02,02,00,00,00,16,00,00
194830600,00000109,false,1,8,00,01,00,FF,FF,FF,0F,2C
194830800,00000200,false,1,8,00,00,00,20,00,90,D0,00
194831100,00000201,false,1,8,81,00,00,00,00,00,00,81
194831300,00000202,false,1,8,40,00,10,00,00,00,00,50
194831600,00000333,false,1,8,00,00,00,00,00,00,00,00
194833900,00000291,false,1,8,00,00,FF,7F,14,00,00,0A
194834100,00000523,false,1,8,0B,3B,FF,FF,FF,FF,00,01
194834400,00000524,false,1,8,FF,FF,FF,00,00,00,C0,7F
194840600,00000109,false,1,8,00,01,00,FF,FF,FF,0F,3D
194840800,00000200,false,1,8,00,00,00,20,00,D0,D0,00
194841100,00000201,false,1,8,C1,00,00,00,00,00,00,C1
194841300,00000202,false,1,8,60,00,10,00,00,00,00,70
194841600,00000333,false,1,8,00,00,00,00,00,00,00,00
194843900,00000291,false,1,8,00,00,FF,7F,12,00,00,0A
194844100,00000523,false,1,8,0B,3B,FF,FF,FF,FF,00,01
194844400,00000524,false,1,8,FF,FF,FF,00,00,00,C0,7F
194850600,00000109,false,1,8,00,01,00,FF,FF,FF,0F,0A
194850800,00000200,false,1,8,00,00,00,20,00,10,D0,00
194851100,00000201,false,1,8,01,00,00,00,00,00,00,01
194851300,00000202,false,1,8,00,00,10,00,00,00,00,10
194851600,00000333,false,1,8,00,00,00,00,00,00,00,00
194853900,00000291,false,1,8,00,00,FF,7F,10,00,00,0A
194854100,00000523,false,1,8,0B,3B,FF,FF,FF,FF,00,01
194854300,00000524,false,1,8,FF,FF,FF,00,00,00,C0,7F
194860500,00000109,false,1,8,00,01,00,FF,FF,FF,0F,1B
194860800,00000200,false,1,8,00,00,00,20,00,50,D0,00
194861000,00000201,false,1,8,41,00,00,00,00,00,00,41
194861300,00000202,false,1,8,20,00,10,00,00,00,00,30
194861500,00000333,false,1,8,00,00,00,00,00,00,00,00
194863800,00000291,false,1,8,00,00,FF,7F,0E,00,00,0A
194864100,00000523,false,1,8,0B,3B,FF,FF,FF,FF,00,01
194864300,00000524,false,1,8,FF,FF,FF,00,00,00,C0,7F
194870500,00000109,false,1,8,00,01,00,FF,FF,FF,0F,2C
194870800,00000200,false,1,8,00,00,00,20,00,90,D0,00
194871000,00000201,false,1,8,81,00,00,00,00,00,00,81
194871300,00000202,false,1,8,40,00,10,00,00,00,00,50
194871500,00000333,false,1,8,00,00,00,00,00,00,00,00
194873800,00000291,false,1,8,00,00,FF,7F,0D,00,00,0A
194874100,00000523,false,1,8,0B,3B,FF,FF,FF,FF,00,01
194874300,00000524,false,1,8,FF,FF,FF,00,00,00,C0,7F
194880500,00000109,false,1,8,00,01,00,FF,FF,FF,0F,3D
194880800,00000200,false,1,8,00,00,00,20,00,D0,D0,00
194881000,00000201,false,1,8,C1,00,00,00,00,00,00,C1
194881300,00000202,false,1,8,60,00,10,00,00,00,00,70
194881500,00000333,false,1,8,00,00,00,00,00,00,00,00
194883800,00000291,false,1,8,00,00,FF,7F,0C,00,00,0A
194884100,00000523,false,1,8,0B,3B,FF,FF,FF,FF,00,01
194884300,00000524,false,1,8,FF,FF,FF,00,00,00,C0,7F
194890500,00000109,false,1,8,00,01,00,FF,FF,FF,0F,0A
194890800,00000200,false,1,8,00,00,00,20,00,10,D0,00
194891000,00000201,false,1,8,01,00,00,00,00,00,00,01
194891300,00000202,false,1,8,00,00,10,00,00,00,00,10
194891500,00000333,false,1,8,00,00,00,00,00,00,00,00
194893800,00000291,false,1,8,00,00,FF,7F,0A,00,00,0A
194894100,00000523,false,1,8,0B,3B,FF,FF,FF,FF,00,01
194894300,00000524,false,1,8,FF,FF,FF,00,00,00,C0,7F
194900500,00000109,false,1,8,00,01,00,FF,FF,FF,0F,1B
194900700,00000200,false,1,8,00,00,00,20,00,50,D0,00
194901000,00000201,false,1,8,41,00,00,00,00,00,00,41
194901200,00000202,false,1,8,20,00,10,00,00,00,00,30
194901500,00000333,false,1,8,00,00,00,00,00,00,00,00
194903800,00000291,false,1,8,00,00,FF,7F,09,00,00,0A
194904100,00000523,false,1,8,0B,3B,FF,FF,FF,FF,00,01
194904300,00000524,false,1,8,FF,FF,FF,00,00,00,C0,7F
194910500,00000109,false,1,8,00,01,00,FF,FF,FF,0F,2C
194910700,00000200,false,1,8,00,00,00,20,00,90,D0,00
194911000,00000201,false,1,8,81,00,00,00,00,00,00,81
194911200,00000202,false,1,8,40,00,10,00,00,00,00,50
194911500,00000333,false,1,8,00,00,00,00,00,00,00,00
194912000,00000590,false,1,8,11,00,00,00,00,00,00,3C
194912300,0000045B,false,1,8,00,30,00,00,00,00,01,00
194912500,00000549,false,1,8,EF,72,00,00,00,00,00,80
194912700,00000579,false,1,8,7C,7C,00,00,04,08,10,FE
194913000,0000057A,false,1,8,1F,00,00,3E,00,00,00,00
194913200,0000057B,false,1,8,01,01,00,00,00,46,64,A0
194913500,0000058F,false,1,8,00,01,00,00,00,00,00,00
194913700,00000592,false,1,8,00,00,00,00,00,00,00,85
194914000,00000291,false,1,8,00,00,FF,7F,08,00,00,0A
194914200,00000523,false,1,8,0B,3B,FF,FF,FF,FF,00,01
194914400,00000524,false,1,8,FF,FF,FF,00,00,00,C0,7F
194914700,000005D9,false,1,8,00,00,00,00,00,00,00,00
194920500,00000109,false,1,8,02,01,00,FF,FF,FF,0F,3F
194920700,00000200,false,1,8,00,00,00,20,00,D0,D0,00
194921000,00000201,false,1,8,C1,00,00,00,00,00,00,C1
194921200,00000202,false,1,8,60,00,10,00,00,00,00,70
194921500,00000333,false,1,8,00,00,00,00,00,00,00,00
194923800,00000291,false,1,8,00,00,FF,7F,07,00,00,0A
194924000,00000523,false,1,8,0B,3B,FF,FF,FF,FF,00,01
194924200,00000524,false,1,8,FF,FF,FF,00,00,00,C0,7F
194926000,000002A1,false,1,8,02,02,00,00,00,16,00,00
194926300,00000540,false,1,8,00,00,00,00,00,00,00,00
194930500,00000109,false,1,8,02,01,00,FF,FF,FF,0F,0C
194930700,00000200,false,1,8,00,00,00,20,00,10,D0,00
194931000,00000201,false,1,8,01,00,00,00,00,00,00,01
194931200,00000202,false,1,8,00,00,10,00,00,00,00,10
194931500,00000333,false,1,8,00,00,00,00,00,00,00,00
194933800,00000291,false,1,8,00,00,FF,7F,07,00,00,0A
194934000,00000523,false,1,8,0B,3B,FF,FF,FF,FF,00,01
194934300,00000524,false,1,8,FF,FF,FF,00,00,00,C0,7F
194940400,00000109,false,1,8,02,01,00,FF,FF,FF,0F,1D
194940700,00000200,false,1,8,00,00,00,20,00,50,D0,00
194940900,00000201,false,1,8,41,00,00,00,00,00,00,41
194941200,00000202,false,1,8,20,00,10,00,00,00,00,30
194941400,00000333,false,1,8,00,00,00,00,00,00,00,00
194943700,00000291,false,1,8,00,00,FF,7F,06,00,00,0A
194944000,00000523,false,1,8,0B,3B,FF,FF,FF,FF,00,01
194944200,00000524,false,1,8,FF,FF,FF,00,00,00,C0,7F
194950400,00000109,false,1,8,02,01,00,FF,FF,FF,0F,2E
194950700,00000200,false,1,8,00,00,00,20,00,90,D0,00
194950900,00000201,false,1,8,81,00,00,00,00,00,00,81
194951200,00000202,false,1,8,40,00,10,00,00,00,00,50
194951400,00000333,false,1,8,00,00,00,00,00,00,00,00
194953800,00000291,false,1,8,00,00,FF,7F,05,00,00,0A
194954000,00000523,false,1,8,0B,3B,FF,FF,FF,FF,00,01
194954300,00000524,false,1,8,FF,FF,FF,00,00,00,C0,7F
194960400,00000109,false,1,8,02,01,00,FF,FF,FF,0F,3F
194960700,00000200,false,1,8,00,00,00,20,00,D0,D0,00
194960900,00000201,false,1,8,C1,00,00,00,00,00,00,C1
194961200,00000202,false,1,8,60,00,10,00,00,00,00,70
194961400,00000333,false,1,8,00,00,00,00,00,00,00,00
194963700,00000291,false,1,8,00,00,FF,7F,05,00,00,0A
194964000,00000523,false,1,8,0B,3B,FF,FF,FF,FF,00,01
194964200,00000524,false,1,8,FF,FF,FF,00,00,00,C0,7F
194970400,00000109,false,1,8,02,01,00,FF,FF,FF,0F,0C
194970700,00000200,false,1,8,00,00,00,20,00,10,D0,00
194970900,00000201,false,1,8,01,00,00,00,00,00,00,01
194971200,00000202,false,1,8,00,00,10,00,00,00,00,10
194971400,00000333,false,1,8,00,00,00,00,00,00,00,00
194973700,00000291,false,1,8,00,00,FF,7F,04,00,00,0A
194974000,00000523,false,1,8,0B,3B,FF,FF,FF,FF,00,01
194974200,00000524,false,1,8,FF,FF,FF,00,00,00,C0,7F
194980400,00000109,false,1,8,02,01,00,FF,FF,FF,0F,1D
194980600,00000200,false,1,8,00,00,00,20,00,50,D0,00
194980900,00000201,false,1,8,41,00,00,00,00,00,00,41
194981100,00000202,false,1,8,20,00,10,00,00,00,00,30
194981400,00000333,false,1,8,00,00,00,00,00,00,00,00
194983700,00000291,false,1,8,00,00,FF,7F,04,00,00,0A
194984000,00000523,false,1,8,0B,3B,FF,FF,FF,FF,00,01
194984200,00000524,false,1,8,FF,FF,FF,00,00,00,C0,7F
194990400,00000109,false,1,8,02,01,00,FF,FF,FF,0F,2E
194990600,00000200,false,1,8,00,00,00,20,00,90,D0,00
194990900,00000201,false,1,8,81,00,00,00,00,00,00,81
194991100,00000202,false,1,8,40,00,10,00,00,00,00,50
194991400,00000333,false,1,8,00,00,00,00,00,00,00,00
194993700,00000291,false,1,8,00,00,FF,7F,03,00,00,0A
194993900,00000523,false,1,8,0B,3B,FF,FF,FF,FF,00,01
194994200,00000524,false,1,8,FF,FF,FF,00,00,00,C0,7F
195000400,00000109,false,1,8,02,01,00,FF,FF,FF,0F,3F
195000600,00000200,false,1,8,00,00,00,20,00,D0,D0,00
195000900,00000201,false,1,8,C1,00,00,00,00,00,00,C1
195001100,00000202,false,1,8,60,00,10,00,00,00,00,70
195001400,00000333,false,1,8,00,00,00,00,00,00,00,00
195003700,00000291,false,1,8,00,00,FF,7F,03,00,00,0A
195003900,00000523,false,1,8,0B,3B,FF,FF,FF,FF,00,01
195004200,00000524,false,1,8,FF,FF,FF,00,00,00,C0,7F
195010400,00000109,false,1,8,02,01,00,FF,FF,FF,0F,0C
195010600,00000200,false,1,8,00,00,00,20,00,10,D0,00
195010900,00000201,false,1,8,01,00,00,00,00,00,00,01
195011100,00000202,false,1,8,00,00,10,00,00,00,00,10
195011400,00000333,false,1,8,00,00,00,00,00,00,00,00
195011900,00000590,false,1,8,11,00,00,00,00,00,00,3C
195012100,0000045B,false,1,8,00,30,00,00,00,00,01,00
195012400,00000529,false,1,8,00,00,00,00,00,BE,3B,00
195012600,00000549,false,1,8,EF,72,00,00,00,00,00,80
195012800,00000579,false,1,8,7C,7C,00,00,04,08,10,FE
195013100,0000057A,false,1,8,1F,00,00,3E,00,00,00,00
195013300,0000057B,false,1,8,01,01,00,00,00,46,64,A0
195013600,0000058F,false,1,8,00,01,00,00,00,00,00,00
195013800,00000291,false,1,8,00,00,FF,7F,03,00,00,0A
195014100,00000523,false,1,8,0B,3B,FF,FF,FF,FF,00,01
195014300,00000524,false,1,8,FF,FF,FF,00,00,00,C0,7F
195014600,00000592,false,1,8,00,00,00,00,00,00,00,C5
195014800,000005D9,false,1,8,00,00,00,00,00,00,00,00
195020300,00000109,false,1,8,02,01,00,FF,FF,FF,0F,1D
195020600,00000200,false,1,8,00,00,00,20,00,50,D0,00
195020800,00000201,false,1,8,41,00,00,00,00,00,00,41
195021100,00000202,false,1,8,20,00,10,00,00,00,00,30
195021300,00000333,false,1,8,00,00,00,00,00,00,00,00
195023700,00000291,false,1,8,00,00,FF,7F,02,00,00,0A
195023900,00000523,false,1,8,0B,3B,FF,FF,FF,FF,00,01
195024200,00000524,false,1,8,FF,FF,FF,00,00,00,C0,7F
195025900,000002A1,false,1,8,02,02,00,00,00,16,00,00
195030300,00000109,false,1,8,02,01,00,FF,FF,FF,0F,2E
195030600,00000200,false,1,8,00,00,00,20,00,90,D0,00
195030800,00000201,false,1,8,81,00,00,00,00,00,00,81
195031100,00000202,false,1,8,40,00,10,00,00,00,00,50
195031300,00000333,false,1,8,00,00,00,00,00,00,00,00
195033700,00000291,false,1,8,00,00,FF,7F,02,00,00,0A
195033900,00000523,false,1,8,0B,3B,FF,FF,FF,FF,00,01
195034200,00000524,false,1,8,FF,FF,FF,00,00,00,C0,7F
195040300,00000109,false,1,8,02,01,00,FF,FF,FF,0F,3F
195040600,00000200,false,1,8,00,00,00,20,00,D0,D0,00
195040800,00000201,false,1,8,C1,00,00,00,00,00,00,C1
195041100,00000202,false,1,8,60,00,10,00,00,00,00,70
195041300,00000333,false,1,8,00,00,00,00,00,00,00,00
195043600,00000291,false,1,8,00,00,FF,7F,02,00,00,0A
195043900,00000523,false,1,8,0B,3B,FF,FF,FF,FF,00,01
195044100,00000524,false,1,8,FF,FF,FF,00,00,00,C0,7F
195050300,00000109,false,1,8,02,01,00,FF,FF,FF,0F,0C
195050600,00000200,false,1,8,00,00,00,20,00,10,D0,00
195050800,00000201,false,1,8,01,00,00,00,00,00,00,01
195051100,00000202,false,1,8,00,00,10,00,00,00,00,10
195051300,00000333,false,1,8,00,00,00,00,00,00,00,00
195053600,00000291,false,1,8,00,00,FF,7F,02,00,00,0A
195053900,00000523,false,1,8,0B,3B,FF,FF,FF,FF,00,01
195054100,00000524,false,1,8,FF,FF,FF,00,00,00,C0,7F
195060300,00000109,false,1,8,02,01,00,FF,FF,FF,0F,1D
195060500,00000200,false,1,8,00,00,00,20,00,50,D0,00
195060800,00000201,false,1,8,41,00,00,00,00,00,00,41
195061000,00000202,false,1,8,20,00,10,00,00,00,00,30
195061300,00000333,false,1,8,00,00,00,00,00,00,00,00
195063600,00000291,false,1,8,00,00,FF,7F,01,00,00,0A
195063900,00000523,false,1,8,0B,3B,FF,FF,FF,FF,00,01
195064100,00000524,false,1,8,FF,FF,FF,00,00,00,C0,7F
195070300,00000109,false,1,8,02,01,00,FF,FF,FF,0F,2E
195070500,00000200,false,1,8,00,00,00,20,00,90,D0,00
195070800,00000201,false,1,8,81,00,00,00,00,00,00,81
195071000,00000202,false,1,8,40,00,10,00,00,00,00,50
195071300,00000333,false,1,8,00,00,00,00,00,00,00,00
195073600,00000291,false,1,8,00,00,FF,7F,01,00,00,0A
195073800,00000523,false,1,8,0B,3B,FF,FF,FF,FF,00,01
195074100,00000524,false,1,8,FF,FF,FF,00,00,00,C0,7F
195080300,00000109,false,1,8,02,01,00,FF,FF,FF,0F,3F
195080500,00000200,false,1,8,00,00,00,20,00,D0,D0,00
195080800,00000201,false,1,8,C1,00,00,00,00,00,00,C1
195081000,00000202,false,1,8,60,00,10,00,00,00,00,70
195081300,00000333,false,1,8,00,00,00,00,00,00,00,00
195083600,00000291,false,1,8,00,00,FF,7F,01,00,00,0A
195083800,00000523,false,1,8,0B,3B,FF,FF,FF,FF,00,01
195084100,00000524,false,1,8,FF,FF,FF,00,00,00,C0,7F
195090300,00000109,false,1,8,02,01,00,FF,FF,FF,0F,0C
195090500,00000200,false,1,8,00,00,00,20,00,10,D0,00
195090800,00000201,false,1,8,01,00,00,00,00,00,00,01
195091000,00000202,false,1,8,00,00,10,00,00,00,00,10
195091300,00000333,false,1,8,00,00,00,00,00,00,00,00
195093600,00000291,false,1,8,00,00,FF,7F,01,00,00,0A
195093800,00000523,false,1,8,0B,3B,FF,FF,FF,FF,00,01
195094100,00000524,false,1,8,FF,FF,FF,00,00,00,C0,7F
195100300,00000109,false,1,8,02,01,00,FF,FF,FF,0F,1D
195100500,00000200,false,1,8,00,00,00,20,00,50,D0,00
195100700,00000201,false,1,8,41,00,00,00,00,00,00,41
195101000,00000202,false,1,8,20,00,10,00,00,00,00,30
195101200,00000333,false,1,8,00,00,00,00,00,00,00,00
195103600,00000291,false,1,8,00,00,FF,7F,01,00,00,0A
195103800,00000523,false,1,8,0B,3B,FF,FF,FF,FF,00,01
195104100,00000524,false,1,8,FF,FF,FF,00,00,00,C0,7F
195110200,00000109,false,1,8,02,01,00,FF,FF,FF,0F,2E
195110500,00000200,false,1,8,00,00,00,20,00,90,D0,00
195110700,00000201,false,1,8,81,00,00,00,00,00,00,81
195111000,00000202,false,1,8,40,00,10,00,00,00,00,50
195111200,00000333,false,1,8,00,00,00,00,00,00,00,00
195111700,00000590,false,1,8,11,00,00,00,00,00,00,3C
195112000,0000045B,false,1,8,00,30,00,00,00,00,01,00
195112200,00000549,false,1,8,EF,72,00,00,00,00,00,80
195112500,00000579,false,1,8,7C,7C,00,00,04,08,10,FE
195112700,0000057A,false,1,8,1F,00,00,3E,00,00,00,00
195113000,0000057B,false,1,8,01,01,00,00,00,46,64,A0
195113200,0000058F,false,1,8,00,01,00,00,00,00,10,00
195113500,00000592,false,1,8,00,00,00,00,00,00,00,05
195113700,00000291,false,1,8,00,00,FF,7F,01,00,00,0A
195114000,00000523,false,1,8,0B,3B,FF,FF,FF,FF,00,01
195114200,00000524,false,1,8,FF,FF,FF,00,00,00,C0,7F
195114400,000005D9,false,1,8,00,00,00,00,00,00,00,00
195120200,00000109,false,1,8,02,01,00,FF,FF,FF,0F,3F
195120500,00000200,false,1,8,00,00,00,20,00,D0,D0,00
195120700,00000201,false,1,8,C1,00,00,00,00,00,00,C1
195121000,00000202,false,1,8,60,00,10,00,00,00,00,70
195121200,00000333,false,1,8,00,00,00,00,00,00,00,00
195123500,00000291,false,1,8,00,00,FF,7F,00,00,00,0A
195123800,00000523,false,1,8,0B,3B,FF,FF,FF,FF,00,01
195124000,00000524,false,1,8,FF,FF,FF,00,00,00,C0,7F
195125800,000002A1,false,1,8,02,02,00,00,00,16,00,00
195126000,00000540,false,1,8,00,00,00,00,00,00,00,00
195130200,00000109,false,1,8,02,01,00,FF,FF,FF,0F,0C
195130500,00000200,false,1,8,00,00,00,20,00,10,D0,00
195130700,00000201,false,1,8,01,00,00,00,00,00,00,01
195131000,00000202,false,1,8,00,00,10,00,00,00,00,10
195131200,00000333,false,1,8,00,00,00,00,00,00,00,00
195133500,00000291,false,1,8,00,00,FF,7F,00,00,00,0A
195133800,00000523,false,1,8,0B,3B,FF,FF,FF,FF,00,01
195134000,00000524,false,1,8,FF,FF,FF,00,00,00,C0,7F
195140200,00000109,false,1,8,02,01,00,FF,FF,FF,0F,1D
195140400,00000200,false,1,8,00,00,00,20,00,50,D0,00
195140700,00000201,false,1,8,41,00,00,00,00,00,00,41
195140900,00000202,false,1,8,20,00,10,00,00,00,00,30
195141200,00000333,false,1,8,00,00,00,00,00,00,00,00
195143500,00000291,false,1,8,00,00,FF,7F,00,00,00,0A
195143800,00000523,false,1,8,0B,3B,FF,FF,FF,FF,00,01
195144000,00000524,false,1,8,FF,FF,FF,00,00,00,C0,7F
195150200,00000109,false,1,8,02,01,00,FF,FF,FF,0F,2E
195150400,00000200,false,1,8,00,00,00,20,00,90,D0,00
195150700,00000201,false,1,8,81,00,00,00,00,00,00,81
195150900,00000202,false,1,8,40,00,10,00,00,00,00,50
195151200,00000333,false,1,8,00,00,00,00,00,00,00,00
195153500,00000291,false,1,8,00,00,FF,7F,00,00,00,0A
195153700,00000523,false,1,8,0B,3B,FF,FF,FF,FF,00,01
195154000,00000524,false,1,8,FF,FF,FF,00,00,00,C0,7F
195160200,00000109,false,1,8,02,01,00,FF,FF,FF,0F,3F
195160400,00000200,false,1,8,00,00,00,20,00,D0,D0,00
195160700,00000201,false,1,8,C1,00,00,00,00,00,00,C1
195160900,00000202,false,1,8,60,00,10,00,00,00,00,70
195161200,00000333,false,1,8,00,00,00,00,00,00,00,00
195163500,00000291,false,1,8,00,00,FF,7F,00,00,00,0A
195163700,00000523,false,1,8,0B,3B,FF,FF,FF,FF,00,01
195164000,00000524,false,1,8,FF,FF,FF,00,00,00,C0,7F
195170200,00000109,false,1,8,02,01,00,FF,FF,FF,0F,0C
195170400,00000200,false,1,8,00,00,00,20,00,10,D0,00
195170700,00000201,false,1,8,01,00,00,00,00,00,00,01
195170900,00000202,false,1,8,00,00,10,00,00,00,00,10
195171200,00000333,false,1,8,00,00,00,00,00,00,00,00
195173500,00000291,false,1,8,00,00,FF,7F,00,00,00,0A
195173700,00000523,false,1,8,0B,3B,FF,FF,FF,FF,00,01
195174000,00000524,false,1,8,FF,FF,FF,00,00,00,C0,7F
195180200,00000109,false,1,8,02,01,00,FF,FF,FF,0F,1D
195180400,00000200,false,1,8,00,00,00,20,00,50,D0,00
195180600,00000201,false,1,8,41,00,00,00,00,00,00,41
195180900,00000202,false,1,8,20,00,10,00,00,00,00,30
195181100,00000333,false,1,8,00,00,00,00,00,00,00,00
195183500,00000291,false,1,8,00,00,FF,7F,00,00,00,0A
195183700,00000523,false,1,8,0B,3B,FF,FF,FF,FF,00,01
195183900,00000524,false,1,8,FF,FF,FF,00,00,00,C0,7F
195190100,00000109,false,1,8,02,01,00,FF,FF,FF,0F,2E
195190400,00000200,false,1,8,00,00,00,20,00,90,D0,00
195190600,00000201,false,1,8,81,00,00,00,00,00,00,81
195190900,00000202,false,1,8,40,00,10,00,00,00,00,50
195191100,00000333,false,1,8,00,00,00,00,00,00,00,00
195193500,00000291,false,1,8,00,00,FF,7F,00,00,00,0A
195193700,00000523,false,1,8,0B,3B,FF,FF,FF,FF,00,01
195194000,00000524,false,1,8,FF,FF,FF,00,00,00,C0,7F
195200100,00000109,false,1,8,02,01,00,FF,FF,FF,0F,3F
195200400,00000200,false,1,8,00,00,00,20,00,D0,D0,00
195200600,00000201,false,1,8,C1,00,00,00,00,00,00,C1
195200900,00000202,false,1,8,60,00,10,00,00,00,00,70
195201100,00000333,false,1,8,00,00,00,00,00,00,00,00
195203400,00000291,false,1,8,00,00,FF,7F,00,00,00,0A
195203700,00000523,false,1,8,0B,3B,FF,FF,FF,FF,00,01
195203900,00000524,false,1,8,FF,FF,FF,00,00,00,C0,7F
195210100,00000109,false,1,8,02,01,00,FF,FF,FF,0F,0C
195210400,00000200,false,1,8,00,00,00,20,00,10,D0,00
195210600,00000201,false,1,8,01,00,00,00,00,00,00,01
195210900,00000202,false,1,8,00,00,10,00,00,00,00,10
195211100,00000333,false,1,8,00,00,00,00,00,00,00,00
195211600,00000590,false,1,8,11,00,00,00,00,00,00,3C
195211900,0000045B,false,1,8,00,30,00,00,00,00,01,00
195212100,00000529,false,1,8,00,00,00,00,00,BE,3B,00
195212400,00000549,false,1,8,EF,72,00,00,00,00,00,80
195212600,00000579,false,1,8,7C,7C,00,00,04,08,10,FE
195212800,0000057A,false,1,8,1F,00,00,3E,00,00,00,00
195213100,0000057B,false,1,8,01,01,00,00,00,46,64,A0
195213300,0000058F,false,1,8,00,01,00,00,00,00,10,00
195213600,00000291,false,1,8,00,00,FF,7F,00,00,00,0A
195213800,00000523,false,1,8,0B,3B,FF,FF,FF,FF,00,01
195214100,00000524,false,1,8,FF,FF,FF,00,00,00,C0,7F
195214300,00000592,false,1,8,00,00,00,00,00,00,00,45
195214600,000005D9,false,1,8,00,00,00,00,00,00,00,00
195220100,00000109,false,1,8,02,01,00,FF,FF,FF,0F,1D
195220300,00000200,false,1,8,00,00,00,20,00,50,D0,00
195220600,00000201,false,1,8,41,00,00,00,00,00,00,41
195220800,00000202,false,1,8,20,00,10,00,00,00,00,30
195221100,00000333,false,1,8,00,00,00,00,00,00,00,00
195223400,00000291,false,1,8,00,00,FF,7F,00,00,00,0A
195223700,00000523,false,1,8,0B,3B,FF,FF,FF,FF,00,01
195223900,00000524,false,1,8,FF,FF,FF,00,00,00,C0,7F
195225700,000002A1,false,1,8,02,02,00,00,00,16,00,00
195230100,00000109,false,1,8,02,01,00,FF,FF,FF,0F,2E
195230300,00000200,false,1,8,00,00,00,20,00,90,D0,00
195230600,00000201,false,1,8,81,00,00,00,00,00,00,81
195230800,00000202,false,1,8,40,00,10,00,00,00,00,50
195231100,00000333,false,1,8,00,00,00,00,00,00,00,00
195233400,00000291,false,1,8,00,00,FF,7F,00,00,00,0A
195233600,00000523,false,1,8,0B,3B,FF,FF,FF,FF,00,01
195233900,00000524,false,1,8,FF,FF,FF,00,00,00,C0,7F
195240100,00000109,false,1,8,02,01,00,FF,FF,FF,0F,3F
195240300,00000200,false,1,8,00,00,00,20,00,D0,D0,00
195240600,00000201,false,1,8,C1,00,00,00,00,00,00,C1
195240800,00000202,false,1,8,60,00,10,00,00,00,00,70
195241100,00000333,false,1,8,00,00,00,00,00,00,00,00
195243400,00000291,false,1,8,00,00,FF,7F,00,00,00,0A
195243700,00000523,false,1,8,0B,3B,FF,FF,FF,FF,00,01
195243900,00000524,false,1,8,FF,FF,FF,00,00,00,C0,7F
195250100,00000109,false,1,8,02,01,00,FF,FF,FF,0F,0C
195250300,00000200,false,1,8,00,00,00,20,00,10,D0,00
195250600,00000201,false,1,8,01,00,00,00,00,00,00,01
195250800,00000202,false,1,8,00,00,10,00,00,00,00,10
195251100,00000333,false,1,8,00,00,00,00,00,00,00,00
195253400,00000291,false,1,8,00,00,FF,7F,00,00,00,0A
195253600,00000523,false,1,8,0B,3B,FF,FF,FF,FF,00,01
195253900,00000524,false,1,8,FF,FF,FF,00,00,00,C0,7F
195260100,00000109,false,1,8,02,01,00,FF,FF,FF,0F,1D
195260300,00000200,false,1,8,00,00,00,20,00,50,D0,00
195260500,00000201,false,1,8,41,00,00,00,00,00,00,41
195260800,00000202,false,1,8,20,00,10,00,00,00,00,30
195261000,00000333,false,1,8,00,00,00,00,00,00,00,00
195263400,00000291,false,1,8,00,00,FF,7F,00,00,00,0A
195263600,00000523,false,1,8,0B,3B,FF,FF,FF,FF,00,01
195263900,00000524,false,1,8,FF,FF,FF,00,00,00,C0,7F
195270000,00000109,false,1,8,02,01,00,FF,FF,FF,0F,2E
195270300,00000200,false,1,8,00,00,00,20,00,90,D0,00
195270500,00000201,false,1,8,81,00,00,00,00,00,00,81
195270800,00000202,false,1,8,40,00,10,00,00,00,00,50
195271000,00000333,false,1,8,00,00,00,00,00,00,00,00
195273300,00000291,false,1,8,00,00,FF,7F,00,00,00,0A
195273600,00000523,false,1,8,0B,3B,FF,FF,FF,FF,00,01
195273800,00000524,false,1,8,FF,FF,FF,00,00,00,C0,7F
195280000,00000109,false,1,8,02,01,00,FF,FF,FF,0F,3F
195280300,00000200,false,1,8,00,00,00,20,00,D0,D0,00
195280500,00000201,false,1,8,C1,00,00,00,00,00,00,C1
195280800,00000202,false,1,8,60,00,10,00,00,00,00,70
195281000,00000333,false,1,8,00,00,00,00,00,00,00,00
195283300,00000291,false,1,8,00,00,FF,7F,00,00,00,0A
195283600,00000523,false,1,8,0B,3B,FF,FF,FF,FF,00,01
195283800,00000524,false,1,8,FF,FF,FF,00,00,00,C0,7F
195290000,00000109,false,1,8,02,01,00,FF,FF,FF,0F,0C
195290300,00000200,false,1,8,00,00,00,20,00,10,D0,00
195290500,00000201,false,1,8,01,00,00,00,00,00,00,01
195290800,00000202,false,1,8,00,00,10,00,00,00,00,10
195291000,00000333,false,1,8,00,00,00,00,00,00,00,00
195293300,00000291,false,1,8,00,00,FF,7F,00,00,00,0A
195293600,00000523,false,1,8,0B,3B,FF,FF,FF,FF,00,01
195293800,00000524,false,1,8,FF,FF,FF,00,00,00,C0,7F
195300000,00000109,false,1,8,02,01,00,FF,FF,FF,0F,1D
195300200,00000200,false,1,8,00,00,00,20,00,50,D0,00
195300500,00000201,false,1,8,41,00,00,00,00,00,00,41
195300700,00000202,false,1,8,20,00,10,00,00,00,00,30
195301000,00000333,false,1,8,00,00,00,00,00,00,00,00
195303300,00000291,false,1,8,00,00,FF,7F,00,00,00,0A
195303600,00000523,false,1,8,0B,3B,FF,FF,FF,FF,00,01
195303800,00000524,false,1,8,FF,FF,FF,00,00,00,C0,7F
195310000,00000109,false,1,8,02,01,00,FF,FF,FF,0F,2E
195310200,00000200,false,1,8,00,00,00,20,00,90,D0,00
195310500,00000201,false,1,8,81,00,00,00,00,00,00,81
195310700,00000202,false,1,8,40,00,10,00,00,00,00,50
195311000,00000333,false,1,8,00,00,00,00,00,00,00,00
195311500,00000590,false,1,8,11,00,00,00,00,00,00,3C
195311700,0000045B,false,1,8,00,30,00,00,00,00,01,00
195312000,00000549,false,1,8,EF,72,00,00,00,00,00,80
195312200,00000579,false,1,8,7C,7C,00,00,04,08,10,FE
195312500,0000057A,false,1,8,1F,00,00,3E,00,00,00,00
195312700,0000057B,false,1,8,01,01,00,00,00,46,64,A0
195313000,0000058F,false,1,8,00,01,00,00,00,00,10,00
195313200,00000592,false,1,8,00,00,00,00,00,00,00,85
195313500,00000291,false,1,8,00,00,FF,7F,00,00,00,0A
195313700,00000523,false,1,8,0B,3B,FF,FF,FF,FF,00,01
195313900,00000524,false,1,8,FF,FF,FF,00,00,00,C0,7F
195314200,000005D9,false,1,8,00,00,00,00,00,00,00,00
195320000,00000109,false,1,8,02,01,00,FF,FF,FF,0F,3F
195320200,00000200,false,1,8,00,00,00,20,00,D0,D0,00
195320500,00000201,false,1,8,C1,00,00,00,00,00,00,C1
195320700,00000202,false,1,8,60,00,10,00,00,00,00,70
195321000,00000333,false,1,8,00,00,00,00,00,00,00,00
195323300,00000291,false,1,8,00,00,FF,7F,00,00,00,0A
195323500,00000523,false,1,8,0B,3B,FF,FF,FF,FF,00,01
195323800,00000524,false,1,8,FF,FF,FF,00,00,00,C0,7F
195325500,000002A1,false,1,8,02,02,00,00,00,16,00,00
195325800,00000540,false,1,8,00,00,00,00,00,00,00,00
195330000,00000109,false,1,8,02,01,00,FF,FF,FF,0F,0C
195330200,00000200,false,1,8,00,00,00,20,00,10,D0,00
195330500,00000201,false,1,8,01,00,00,00,00,00,00,01
195330700,00000202,false,1,8,00,00,10,00,00,00,00,10
195331000,00000333,false,1,8,00,00,00,00,00,00,00,00
195333300,00000291,false,1,8,00,00,FF,7F,00,00,00,0A
195333500,00000523,false,1,8,0B,3B,FF,FF,FF,FF,00,01
195333800,00000524,false,1,8,FF,FF,FF,00,00,00,C0,7F
195340000,00000200,false,1,8,00,00,00,20,00,50,D0,00
195340200,00000109,false,1,8,02,01,00,FF,FF,FF,0F,1D
195340400,00000201,false,1,8,41,00,00,00,00,00,00,41
195340700,00000202,false,1,8,20,00,10,00,00,00,00,30
195340900,00000333,false,1,8,00,00,00,00,00,00,00,00
195343300,00000291,false,1,8,00,00,FF,7F,00,00,00,0A
195343500,00000523,false,1,8,0B,3B,FF,FF,FF,FF,00,01
195343800,00000524,false,1,8,FF,FF,FF,00,00,00,C0,7F
195349900,00000109,false,1,8,02,01,00,FF,FF,FF,0F,2E
195350200,00000200,false,1,8,00,00,00,20,00,90,D0,00
195350400,00000201,false,1,8,81,00,00,00,00,00,00,81
195350700,00000202,false,1,8,40,00,10,00,00,00,00,50
195350900,00000333,false,1,8,00,00,00,00,00,00,00,00
195353300,00000291,false,1,8,00,00,FF,7F,00,00,00,0A
195353500,00000523,false,1,8,0B,3B,FF,FF,FF,FF,00,01
195353700,00000524,false,1,8,FF,FF,FF,00,00,00,C0,7F
195359900,00000109,false,1,8,02,01,00,FF,FF,FF,0F,3F
195360200,00000200,false,1,8,00,00,00,20,00,D0,D0,00
195360400,00000201,false,1,8,C1,00,00,00,00,00,00,C1
195360700,00000202,false,1,8,60,00,10,00,00,00,00,70
195360900,00000333,false,1,8,00,00,00,00,00,00,00,00
195363300,00000291,false,1,8,00,00,FF,7F,00,00,00,0A
195363500,00000523,false,1,8,0B,3B,FF,FF,FF,FF,00,01
195363800,00000524,false,1,8,FF,FF,FF,00,00,00,C0,7F
195369900,00000109,false,1,8,02,01,00,FF,FF,FF,0F,0C
195370200,00000200,false,1,8,00,00,00,20,00,10,D0,00
195370400,00000201,false,1,8,01,00,00,00,00,00,00,01
195370700,00000202,false,1,8,00,00,10,00,00,00,00,10
195370900,00000333,false,1,8,00,00,00,00,00,00,00,00
195373200,00000291,false,1,8,00,00,FF,7F,00,00,00,0A
195373500,00000523,false,1,8,0B,3B,FF,FF,FF,FF,00,01
195373700,00000524,false,1,8,FF,FF,FF,00,00,00,C0,7F
195379900,00000109,false,1,8,02,01,00,FF,FF,FF,0F,1D
195380100,00000200,false,1,8,00,00,00,20,00,50,D0,00
195380400,00000201,false,1,8,41,00,00,00,00,00,00,41
195380600,00000202,false,1,8,20,00,10,00,00,00,00,30
195380900,00000333,false,1,8,00,00,00,00,00,00,00,00
195383200,00000291,false,1,8,00,00,FF,7F,00,00,00,0A
195383500,00000523,false,1,8,0B,3B,FF,FF,FF,FF,00,01
195383700,00000524,false,1,8,FF,FF,FF,00,00,00,C0,7F
195389900,00000200,false,1,8,00,00,00,20,00,90,D0,00
195390100,00000109,false,1,8,02,01,00,FF,FF,FF,0F,2E
195390400,00000201,false,1,8,81,00,00,00,00,00,00,81
195390600,00000202,false,1,8,40,00,10,00,00,00,00,50
195390900,00000333,false,1,8,00,00,00,00,00,00,00,00
195393200,00000291,false,1,8,00,00,FF,7F,00,00,00,0A
195393400,00000523,false,1,8,0B,3B,FF,FF,FF,FF,00,01
195393700,00000524,false,1,8,FF,FF,FF,00,00,00,C0,7F
195399900,00000109,false,1,8,02,01,00,FF,FF,FF,0F,3F
195400100,00000200,false,1,8,00,00,00,20,00,D0,D0,00
195400400,00000201,false,1,8,C1,00,00,00,00,00,00,C1
195400600,00000202,false,1,8,60,00,10,00,00,00,00,70
195400900,00000333,false,1,8,00,00,00,00,00,00,00,00
195403200,00000291,false,1,8,00,00,FF,7F,00,00,00,0A
195403500,00000523,false,1,8,0B,3B,FF,FF,FF,FF,00,01
195403700,00000524,false,1,8,FF,FF,FF,00,00,00,C0,7F
195409900,00000109,false,1,8,02,01,00,FF,FF,FF,0F,0C
195410100,00000200,false,1,8,00,00,00,20,00,10,D0,00
195410400,00000201,false,1,8,01,00,00,00,00,00,00,01
195410600,00000202,false,1,8,00,00,10,00,00,00,00,10
195410900,00000333,false,1,8,00,00,00,00,00,00,00,00
195411400,00000590,false,1,8,11,00,00,00,00,00,00,3C
195411600,0000045B,false,1,8,00,30,00,00,00,00,01,00
195411900,00000529,false,1,8,00,00,00,10,00,BE,3B,00
195412100,00000549,false,1,8,EF,72,00,00,00,00,00,80
195412300,00000579,false,1,8,7C,7C,00,00,04,08,10,FE
195412600,0000057A,false,1,8,1F,00,00,3E,00,00,00,00
195412800,0000057B,false,1,8,01,01,00,00,00,46,64,A0
195413100,0000058F,false,1,8,00,01,00,00,00,00,10,00
195413300,00000291,false,1,8,00,00,FF,7F,00,00,00,0A
195413600,00000523,false,1,8,0B,3B,FF,FF,FF,FF,00,01
195413800,00000524,false,1,8,FF,FF,FF,00,00,00,C0,7F
195414000,00000592,false,1,8,00,00,00,00,00,00,00,C5
195414300,000005D9,false,1,8,00,00,00,00,00,00,00,00
195419800,00000109,false,1,8,02,01,00,FF,FF,FF,0F,1D
195420100,00000200,false,1,8,00,00,00,20,00,50,D0,00
195420300,00000201,false,1,8,41,00,00,00,00,00,00,41
195420600,00000202,false,1,8,20,00,10,00,00,00,00,30
195420800,00000333,false,1,8,00,00,00,00,00,00,00,00
195423200,00000291,false,1,8,00,00,FF,7F,00,00,00,0A
195423400,00000523,false,1,8,0B,3B,FF,FF,FF,FF,00,01
