Time Stamp,ID,Extended,Bus,LEN,D1,D2,D3,D4,D5,D6,D7,D8
720670800,000005A0,false,0,8,00,00,00,C0,20,50,96,0D
720670500,00000500,false,1,1,0C
720670800,00000130,false,1,8,00,80,00,80,22,02,00,34
720671000,00000140,false,1,8,00,80,02,44,20,00,00,94
720671300,00000495,false,1,8,00,00,00,00,00,00,00,00
720680600,00000130,false,1,8,00,80,00,80,22,02,01,29
720680900,00000140,false,1,8,00,80,02,44,20,00,01,89
720690600,00000130,false,1,8,00,80,00,80,22,02,02,0E
720690900,00000140,false,1,8,00,80,02,44,20,00,02,AE
720700600,00000130,false,1,8,00,80,00,80,22,02,03,13
720700900,00000140,false,1,8,00,80,02,44,20,00,03,B3
720710600,00000130,false,1,8,00,80,00,80,22,02,04,40
720710800,00000140,false,1,8,00,80,02,44,20,00,04,E0
720720600,00000130,false,1,8,00,80,00,80,22,02,05,5D
720720800,00000140,false,1,8,00,80,02,44,20,00,05,FD
720730600,00000130,false,1,8,00,80,00,80,22,02,06,7A
720730800,00000140,false,1,8,00,80,02,44,20,00,06,DA
720740600,00000130,false,1,8,00,80,00,80,22,02,07,67
720740800,00000140,false,1,8,00,80,02,44,20,00,07,C7
720750600,00000130,false,1,8,00,80,00,80,22,02,08,DC
720750800,00000140,false,1,8,00,80,02,44,20,00,08,7C
720760600,00000130,false,1,8,00,80,00,80,22,02,09,C1
720760800,00000140,false,1,8,00,80,02,44,20,00,09,61
720770400,00000500,false,1,1,0C
720770600,00000130,false,1,8,00,80,00,80,22,02,0A,E6
720770900,00000140,false,1,8,00,80,02,44,20,00,0A,46
720771100,00000495,false,1,8,00,00,0A,0A,82,2D,EE,E4
720780500,00000130,false,1,8,00,80,00,80,22,02,0B,FB
720780800,00000140,false,1,8,00,80,02,44,20,00,0B,5B
721129600,000005A0,false,0,8,00,00,00,C0,20,50,96,0D
721129300,00000500,false,1,1,0C
721129600,00000130,false,1,8,00,80,00,80,22,02,00,34
721129800,00000140,false,1,8,00,80,02,44,20,00,00,94
721130100,00000495,false,1,8,00,00,00,00,00,00,00,00
721139500,00000130,false,1,8,00,80,00,80,22,02,01,29
721139700,00000140,false,1,8,00,80,02,44,20,00,01,89
721149500,00000130,false,1,8,00,80,00,80,22,02,02,0E
721149700,00000140,false,1,8,00,80,02,44,20,00,02,AE
721159500,00000130,false,1,8,00,80,00,80,22,02,03,13
721159700,00000140,false,1,8,00,80,02,44,20,00,03,B3
721169500,00000130,false,1,8,00,80,00,80,22,02,04,40
721169700,00000140,false,1,8,00,80,02,44,20,00,04,E0
721179500,00000130,false,1,8,00,80,00,80,22,02,05,5D
721179700,00000140,false,1,8,00,80,02,44,20,00,05,FD
721189400,00000130,false,1,8,00,80,00,80,22,02,06,7A
721189700,00000140,false,1,8,00,80,02,44,20,00,06,DA
721199400,00000130,false,1,8,00,80,00,80,22,02,07,67
721199700,00000140,false,1,8,00,80,02,44,20,00,07,C7
721209400,00000130,false,1,8,00,80,00,80,22,02,08,DC
721209700,00000140,false,1,8,00,80,02,44,20,00,08,7C
721219400,00000130,false,1,8,00,80,00,80,22,02,09,C1
721219600,00000140,false,1,8,00,80,02,44,20,00,09,61
721229200,00000500,false,1,1,0C
721229500,00000130,false,1,8,00,80,00,80,22,02,0A,E6
721229700,00000140,false,1,8,00,80,02,44,20,00,0A,46
721230000,00000495,false,1,8,00,00,0A,0A,82,2D,EE,E4
721239400,00000130,false,1,8,00,80,00,80,22,02,0B,FB
721239600,00000140,false,1,8,00,80,02,44,20,00,0B,5B
721249400,00000130,false,1,8,00,80,00,80,22,02,0C,A8
721249600,00000140,false,1,8,00,80,02,44,20,00,0C,08
721259300,00000130,false,1,8,00,80,00,80,22,02,0D,B5
721259600,00000140,false,1,8,00,80,02,44,20,00,0D,15
721269300,00000130,false,1,8,00,80,00,80,22,02,0E,92
721269600,00000140,false,1,8,00,80,02,44,20,00,0E,32
721279300,00000130,false,1,8,00,80,00,80,22,02,0F,8F
721279600,00000140,false,1,8,00,80,02,44,20,00,0F,2F
721289300,00000130,false,1,8,00,80,00,80,22,02,00,34
721289600,00000140,false,1,8,00,80,02,44,20,00,00,94
721299300,00000130,false,1,8,00,80,00,80,22,02,01,29
721299500,00000140,false,1,8,00,80,02,44,20,00,01,89
721309300,00000130,false,1,8,00,80,00,80,22,02,02,0E
721309500,00000140,false,1,8,00,80,02,44,20,00,02,AE
721319300,00000130,false,1,8,00,80,00,80,22,02,03,13
721319500,00000140,false,1,8,00,80,02,44,20,00,03,B3
721329100,00000500,false,1,1,0C
721329400,00000130,false,1,8,00,80,00,80,22,02,04,40
721329600,00000140,false,1,8,00,80,02,44,20,00,04,E0
721329900,00000495,false,1,8,00,00,0A,0A,82,2D,EE,E4
721339300,00000130,false,1,8,00,80,00,80,22,02,05,5D
721339500,00000140,false,1,8,00,80,02,44,20,00,05,FD
721349200,00000130,false,1,8,00,80,00,80,22,02,06,7A
721349500,00000140,false,1,8,00,80,02,44,20,00,06,DA
721359200,00000130,false,1,8,00,80,00,80,22,02,07,67
721359500,00000140,false,1,8,00,80,02,44,20,00,07,C7
721369200,00000130,false,1,8,00,80,00,80,22,02,08,DC
721369500,00000140,false,1,8,00,80,02,44,20,00,08,7C
721379200,00000130,false,1,8,00,80,00,80,22,02,09,C1
721379400,00000140,false,1,8,00,80,02,44,20,00,09,61
721389300,00000130,false,1,8,00,80,00,80,22,02,0A,E6
721389500,00000140,false,1,8,00,80,02,44,20,00,0A,46
721399200,00000130,false,1,8,00,80,00,80,22,02,0B,FB
721399400,00000140,false,1,8,00,80,02,44,20,00,0B,5B
721409200,00000130,false,1,8,00,80,00,80,22,02,0C,A8
721409400,00000140,false,1,8,00,80,02,44,20,00,0C,08
721419200,00000130,false,1,8,00,80,00,80,22,02,0D,B5
721419400,00000140,false,1,8,00,80,02,44,20,00,0D,15
721429000,00000500,false,1,1,0C
721429300,00000130,false,1,8,00,80,00,80,22,02,0E,92
721429500,00000140,false,1,8,00,80,02,44,20,00,0E,32
721429700,00000495,false,1,8,00,00,0A,0A,82,2D,EE,E4
721439200,00000130,false,1,8,00,80,00,80,22,02,0F,8F
721439400,00000140,false,1,8,00,80,02,44,20,00,0F,2F
721449100,00000130,false,1,8,00,80,00,80,22,02,00,34
721449400,00000140,false,1,8,00,80,02,44,20,00,00,94
721459100,00000130,false,1,8,00,80,00,80,22,02,01,29
721459400,00000140,false,1,8,00,80,02,44,20,00,01,89
721469100,00000130,false,1,8,00,80,00,80,22,02,02,0E
721469300,00000140,false,1,8,00,80,02,44,20,00,02,AE
721479100,00000130,false,1,8,00,80,00,80,22,02,03,13
721479300,00000140,false,1,8,00,80,02,44,20,00,03,B3
721489100,00000130,false,1,8,00,80,00,80,22,02,04,40
721489300,00000140,false,1,8,00,80,02,44,20,00,04,E0
721499100,00000130,false,1,8,00,80,00,80,22,02,05,5D
721499300,00000140,false,1,8,00,80,02,44,20,00,05,FD
721509000,00000130,false,1,8,00,80,00,80,22,02,06,7A
721509300,00000140,false,1,8,00,80,02,44,20,00,06,DA
721519000,00000130,false,1,8,00,80,00,80,22,02,07,67
721519300,00000140,false,1,8,00,80,02,44,20,00,07,C7
721528900,00000500,false,1,1,0C
721529100,00000130,false,1,8,00,80,00,80,22,02,08,DC
721529400,00000140,false,1,8,00,80,02,44,20,00,08,7C
721529600,00000495,false,1,8,00,00,0A,0A,82,2D,EE,E4
721539100,00000130,false,1,8,00,80,00,80,22,02,09,C1
721539300,00000140,false,1,8,00,80,02,44,20,00,09,61
721549000,00000130,false,1,8,00,80,00,80,22,02,0A,E6
721549200,00000140,false,1,8,00,80,02,44,20,00,0A,46
721559000,00000130,false,1,8,00,80,00,80,22,02,0B,FB
721559200,00000140,false,1,8,00,80,02,44,20,00,0B,5B
721569000,00000130,false,1,8,00,80,00,80,22,02,0C,A8
721569200,00000140,false,1,8,00,80,02,44,20,00,0C,08
721579000,00000130,false,1,8,00,80,00,80,22,02,0D,B5
721579200,00000140,false,1,8,00,80,02,44,20,00,0D,15
721588900,00000130,false,1,8,00,80,00,80,22,02,0E,92
721589200,00000140,false,1,8,00,80,02,44,20,00,0E,32
721598900,00000130,false,1,8,00,80,00,80,22,02,0F,8F
721599200,00000140,false,1,8,00,80,02,44,20,00,0F,2F
721609000,00000130,false,1,8,05,80,EC,7F,00,02,00,2A
721609200,00000140,false,1,8,14,80,00,5B,20,00,00,DD
721619000,00000130,false,1,8,1E,80,79,7F,00,02,01,A9
721619200,00000140,false,1,8,7C,80,00,5B,20,00,01,A3
721628800,00000500,false,1,1,0C
721629000,00000130,false,1,8,20,80,3C,7F,00,02,02,19
721629300,00000140,false,1,8,C7,80,00,5B,20,00,02,C6
721629500,00000495,false,1,8,00,00,0A,0A,82,2D,EE,E4
721639000,00000130,false,1,8,23,80,30,7F,00,02,03,21
721639200,00000140,false,1,8,F5,80,00,5B,20,00,03,B7
721648900,00000130,false,1,8,2D,80,27,7F,00,02,04,96
721649200,00000140,false,1,8,F1,80,00,5B,20,00,04,8D
721658900,00000130,false,1,8,22,80,26,7F,00,02,05,BD
721659200,00000140,false,1,8,DF,80,00,5B,20,00,05,FE
721668900,00000130,false,1,8,13,80,1D,7F,00,02,06,F7
721669100,00000140,false,1,8,D5,80,00,5B,20,00,06,B1
721678900,00000130,false,1,8,15,80,0A,7F,00,02,07,DC
721679200,00000140,false,1,8,CE,80,00,5B,20,00,07,20
721688900,00000130,false,1,8,1A,80,0A,7F,00,02,08,3B
721689100,00000140,false,1,8,D6,80,00,5B,20,00,08,F0
721698900,00000130,false,1,8,1C,80,05,7F,00,02,09,89
721699100,00000140,false,1,8,DD,80,00,5B,20,00,09,D8
721708900,00000130,false,1,8,1E,80,06,7F,00,02,0A,AA
721709100,00000140,false,1,8,DB,80,00,5B,20,00,0A,2C
721718800,00000130,false,1,8,0E,80,1D,7F,00,02,0B,29
721719100,00000140,false,1,8,D7,80,00,5B,20,00,0B,8A
721728700,00000500,false,1,1,0C
721728900,00000130,false,1,8,0D,80,2C,7F,00,02,0C,D8
721729100,00000140,false,1,8,E1,80,00,5B,20,00,0C,DC
721729400,00000495,false,1,8,00,00,0A,0A,82,2D,EE,E4
721738800,00000130,false,1,8,16,80,27,7F,00,02,0D,80
721739100,00000140,false,1,8,EC,80,00,5B,20,00,0D,27
721748800,00000130,false,1,8,13,80,27,7F,00,02,0E,93
721749000,00000140,false,1,8,F1,80,00,5B,20,00,0E,5F
721758800,00000130,false,1,8,0A,80,21,7F,00,02,0F,D9
721759000,00000140,false,1,8,F2,80,00,5B,20,00,0F,A5
721768800,00000130,false,1,8,09,80,10,7F,00,02,00,C0
721769000,00000140,false,1,8,FE,80,00,5B,20,00,00,A5
721778800,00000130,false,1,8,11,80,07,7F,00,02,01,53
721779000,00000140,false,1,8,06,81,00,5B,20,00,01,85
721788800,00000130,false,1,8,0E,80,0D,7F,00,02,02,32
721789000,00000140,false,1,8,FA,80,00,5B,20,00,02,F6
721798800,00000130,false,1,8,11,80,25,7F,00,02,03,7C
721799000,00000140,false,1,8,EF,80,00,5B,20,00,03,66
721808700,00000130,false,1,8,10,80,3B,7F,00,02,04,8A
721809000,00000140,false,1,8,FC,80,00,5B,20,00,04,6B
721818700,00000130,false,1,8,17,80,2E,7F,00,02,05,28
721819000,00000140,false,1,8,0D,81,00,5B,20,00,05,C4
721828600,00000500,false,1,1,0C
721828800,00000130,false,1,8,1A,80,24,7F,00,02,06,4A
721829100,00000140,false,1,8,01,81,00,5B,20,00,06,58
721829300,00000495,false,1,8,00,00,0A,0A,82,2D,EE,E4
721838700,00000130,false,1,8,16,80,2C,7F,00,02,07,9B
721838900,00000140,false,1,8,07,81,00,5B,20,00,07,96
721848700,00000130,false,1,8,25,80,2D,7F,00,02,08,7B
721848900,00000140,false,1,8,07,81,00,5B,20,00,08,2D
721858700,00000130,false,1,8,37,80,14,7F,00,02,09,57
721858900,00000140,false,1,8,F7,80,00,5B,20,00,09,DF
721868700,00000130,false,1,8,32,80,0F,7F,00,02,0A,63
721868900,00000140,false,1,8,F3,80,00,5B,20,00,0A,91
721878700,00000130,false,1,8,23,80,12,7F,00,02,0B,DC
721878900,00000140,false,1,8,EF,80,00,5B,20,00,0B,8E
721888600,00000130,false,1,8,14,80,0D,7F,00,02,0C,45
721888900,00000140,false,1,8,EC,80,00,5B,20,00,0C,3A
721898600,00000130,false,1,8,11,80,1D,7F,00,02,0D,82
721898900,00000140,false,1,8,E1,80,00,5B,20,00,0D,C1
721908600,00000130,false,1,8,1D,80,22,7F,00,02,0E,4D
721908800,00000140,false,1,8,CD,80,00,5B,20,00,0E,32
721918600,00000130,false,1,8,1C,80,25,7F,00,02,0F,06
721918800,00000140,false,1,8,CE,80,00,5B,20,00,0F,C8
721928500,00000500,false,1,1,0C
721928700,00000130,false,1,8,10,80,2A,7F,00,02,00,7A
721928900,00000140,false,1,8,E4,80,00,5B,20,00,00,74
721929200,00000495,false,1,8,00,00,0A,0A,82,2D,EE,E4
721938600,00000130,false,1,8,14,80,1F,7F,00,02,01,FE
721938800,00000140,false,1,8,E9,80,00,5B,20,00,01,8F
721948600,00000130,false,1,8,1D,80,26,7F,00,02,02,64
721948800,00000140,false,1,8,EE,80,00,5B,20,00,02,26
721958600,00000130,false,1,8,1E,80,20,7F,00,02,03,FF
721958800,00000140,false,1,8,F7,80,00,5B,20,00,03,0D
721968500,00000130,false,1,8,1E,80,08,7F,00,02,04,1A
721968800,00000140,false,1,8,F6,80,00,5B,20,00,04,03
721978500,00000130,false,1,8,12,80,F6,7E,00,02,05,A4
721978800,00000140,false,1,8,F5,80,00,5B,20,00,05,F9
721988500,00000130,false,1,8,0A,80,F5,7E,00,02,06,56
721988700,00000140,false,1,8,F6,80,00,5B,20,00,06,39
721998500,00000130,false,1,8,0E,80,08,7F,00,02,07,84
721998700,00000140,false,1,8,EE,80,00,5B,20,00,07,4F
722008500,00000130,false,1,8,16,80,23,7F,00,02,08,5C
722008700,00000140,false,1,8,F2,80,00,5B,20,00,08,F6
722018500,00000130,false,1,8,1A,80,26,7F,00,02,09,25
722018700,00000140,false,1,8,FB,80,00,5B,20,00,09,64
722028300,00000500,false,1,1,0C
722028600,00000130,false,1,8,13,80,17,7F,00,02,0A,C8
722028800,00000140,false,1,8,FF,80,00,5B,20,00,0A,2A
722029000,00000495,false,1,8,00,00,0A,0A,82,2D,EE,E4
722038500,00000130,false,1,8,11,80,17,7F,00,02,0B,6F
722038700,00000140,false,1,8,E9,80,00,5B,20,00,0B,5D
722048400,00000130,false,1,8,09,80,0B,7F,00,02,0C,7B
722048700,00000140,false,1,8,D1,80,00,5B,20,00,0C,0A
722058400,00000130,false,1,8,17,80,0F,7F,00,02,0D,6B
722058700,00000140,false,1,8,D5,80,00,5B,20,00,0D,7E
722068400,00000130,false,1,8,22,80,21,7F,00,02,0E,79
722068600,00000140,false,1,8,E1,80,00,5B,20,00,0E,E6
722078400,00000130,false,1,8,17,80,33,7F,00,02,0F,BC
722078700,00000140,false,1,8,E6,80,00,5B,20,00,0F,75
722088400,00000130,false,1,8,13,80,24,7F,00,02,00,8B
722088600,00000140,false,1,8,E8,80,00,5B,20,00,00,CF
722098400,00000130,false,1,8,1A,80,0F,7F,00,02,01,11
722098600,00000140,false,1,8,E5,80,00,5B,20,00,01,34
722108400,00000130,false,1,8,23,80,1B,7F,00,02,02,34
722108600,00000140,false,1,8,EE,80,00,5B,20,00,02,26
722118400,00000130,false,1,8,21,80,18,7F,00,02,03,2D
722118600,00000140,false,1,8,FB,80,00,5B,20,00,03,B6
722128400,000005A0,false,0,8,00,00,00,C0,24,02,91,0D
722128200,00000500,false,1,1,0C
722128500,00000130,false,1,8,20,80,0E,7F,00,02,04,AC
722128700,00000140,false,1,8,EB,80,00,5B,20,00,04,5C
722128900,00000495,false,1,8,00,00,0A,0A,82,2D,EE,E4
722138400,00000130,false,1,8,28,80,12,7F,00,02,05,4F
722138600,00000140,false,1,8,E6,80,00,5B,20,00,05,A7
722148300,00000130,false,1,8,2A,80,24,7F,00,02,06,9C
722148600,00000140,false,1,8,ED,80,00,5B,20,00,06,B5
722158300,00000130,false,1,8,1D,80,2D,7F,00,02,07,C4
722158600,00000140,false,1,8,E6,80,00,5B,20,00,07,9D
722168300,00000130,false,1,8,15,80,27,7F,00,02,08,0E
722168500,00000140,false,1,8,DD,80,00,5B,20,00,08,C5
722178300,00000130,false,1,8,18,80,24,7F,00,02,09,4B
722178500,00000140,false,1,8,E3,80,00,5B,20,00,09,0F
722188300,00000130,false,1,8,15,80,26,7F,00,02,0A,5E
722188500,00000140,false,1,8,F9,80,00,5B,20,00,0A,F9
722198300,00000130,false,1,8,10,80,30,7F,00,02,0B,F8
722198500,00000140,false,1,8,06,81,00,5B,20,00,0B,57
722208300,00000130,false,1,8,12,80,27,7F,00,02,0C,F4
722208500,00000140,false,1,8,FC,80,00,5B,20,00,0C,83
722218200,00000130,false,1,8,17,80,23,7F,00,02,0D,68
722218500,00000140,false,1,8,F8,80,00,5B,20,00,0D,F7
722228100,00000500,false,1,1,0C
722228300,00000130,false,1,8,1C,80,1F,7F,00,02,0E,97
722228600,00000140,false,1,8,EB,80,00,5B,20,00,0E,8E
722228800,00000495,false,1,8,00,00,0A,0A,82,2D,EE,E4
722238200,00000130,false,1,8,23,80,15,7F,00,02,0F,A3
722238500,00000140,false,1,8,CF,80,00,5B,20,00,0F,95
722248200,00000130,false,1,8,28,80,07,7F,00,02,00,17
722248400,00000140,false,1,8,C7,80,00,5B,20,00,00,FC
722258200,00000130,false,1,8,29,80,18,7F,00,02,01,C5
722258400,00000140,false,1,8,C7,80,00,5B,20,00,01,E1
722268200,00000130,false,1,8,25,80,38,7F,00,02,02,98
722268400,00000140,false,1,8,E4,80,00,5B,20,00,02,4E
722278200,00000130,false,1,8,1E,80,3B,7F,00,02,03,D8
722278400,00000140,false,1,8,F3,80,00,5B,20,00,03,64
722288200,00000130,false,1,8,0F,80,2D,7F,00,02,04,E0
722288400,00000140,false,1,8,FB,80,00,5B,20,00,04,E5
722298100,00000130,false,1,8,07,80,20,7F,00,02,05,87
722298400,00000140,false,1,8,EF,80,00,5B,20,00,05,28
722308100,00000130,false,1,8,07,80,21,7F,00,02,06,CA
722308400,00000140,false,1,8,F3,80,00,5B,20,00,06,0D
722318100,00000130,false,1,8,10,80,29,7F,00,02,07,97
722318400,00000140,false,1,8,FF,80,00,5B,20,00,07,AB
722327900,00000500,false,1,1,0C
722328100,00000130,false,1,8,1D,80,35,7F,00,02,08,E6
722328400,00000140,false,1,8,FE,80,00,5B,20,00,08,4D
722328600,00000495,false,1,8,00,00,0A,0A,82,2D,EE,E4
722338100,00000130,false,1,8,14,80,40,7F,00,02,09,1B
722338300,00000140,false,1,8,FB,80,00,5C,20,00,09,90
722348100,00000130,false,1,8,0D,80,30,7F,00,02,0A,BA
722348300,00000140,false,1,8,EC,80,00,5C,20,00,0A,80
722358100,00000130,false,1,8,18,80,14,7F,00,02,0B,5E
722358300,00000140,false,1,8,E4,80,00,5C,20,00,0B,4F
722368000,00000130,false,1,8,22,80,0A,7F,00,02,0C,4B
722368300,00000140,false,1,8,E6,80,00,5C,20,00,0C,A6
722378000,00000130,false,1,8,16,80,00,7F,00,02,0D,4A
722378300,00000140,false,1,8,ED,80,00,5C,20,00,0D,8E
722388000,00000130,false,1,8,1C,80,0C,7F,00,02,0E,C7
722388300,00000140,false,1,8,E6,80,00,5C,20,00,0E,9C
722398000,00000130,false,1,8,21,80,1B,7F,00,02,0F,0F
722398300,00000140,false,1,8,DB,80,00,5C,20,00,0F,B1
722408000,00000130,false,1,8,20,80,16,7F,00,02,00,41
722408300,00000140,false,1,8,E3,80,00,5C,20,00,00,0E
722418000,00000130,false,1,8,29,80,13,7F,00,02,01,0C
722418200,00000140,false,1,8,E7,80,00,5C,20,00,01,7A
722427800,00000500,false,1,1,0C
722428100,00000130,false,1,8,2A,80,1A,7F,00,02,02,D1
722428300,00000140,false,1,8,DB,80,00,5C,20,00,02,30
722428600,00000495,false,1,8,00,00,0A,0A,82,2D,EE,E4
722438000,00000130,false,1,8,25,80,26,7F,00,02,03,7D
722438200,00000140,false,1,8,E5,80,00,5C,20,00,03,FA
722447900,00000130,false,1,8,16,80,31,7F,00,02,04,FA
722448200,00000140,false,1,8,E2,80,00,5C,20,00,04,27
722457900,00000130,false,1,8,07,80,37,7F,00,02,05,62
722458200,00000140,false,1,8,DA,80,00,5C,20,00,05,3E
722467900,00000130,false,1,8,0E,80,30,7F,00,02,06,C1
722468200,00000140,false,1,8,E1,80,00,5C,20,00,06,FA
722477900,00000130,false,1,8,0B,80,26,7F,00,02,07,67
722478200,00000140,false,1,8,E8,80,00,5C,20,00,07,68
722487900,00000130,false,1,8,08,80,2D,7F,00,02,08,F2
722488100,00000140,false,1,8,EE,80,00,5C,20,00,08,00
722497900,00000130,false,1,8,0A,80,29,7F,00,02,09,E0
722498100,00000140,false,1,8,F2,80,00,5C,20,00,09,1F
722507900,00000130,false,1,8,15,80,30,7F,00,02,0A,D1
722508100,00000140,false,1,8,E9,80,00,5C,20,00,0A,B4
722517900,00000130,false,1,8,1F,80,35,7F,00,02,0B,7B
722518100,00000140,false,1,8,E7,80,00,5C,20,00,0B,A8
722527700,00000500,false,1,1,0C
722528000,00000130,false,1,8,29,80,30,7F,00,02,0C,F2
722528200,00000140,false,1,8,F6,80,00,5C,20,00,0C,1F
722528400,00000495,false,1,8,00,00,0A,0A,82,2D,EE,E4
722537800,00000130,false,1,8,2D,80,31,7F,00,02,0D,EC
722538100,00000140,false,1,8,F2,80,00,5C,20,00,0D,6B
722547800,00000130,false,1,8,22,80,39,7F,00,02,0E,E0
722548100,00000140,false,1,8,E8,80,00,5C,20,00,0E,9D
722557800,00000130,false,1,8,13,80,2B,7F,00,02,0F,4C
722558000,00000140,false,1,8,E4,80,00,5C,20,00,0F,3B
722567800,00000130,false,1,8,0F,80,28,7F,00,02,00,4B
722568000,00000140,false,1,8,E7,80,00,5C,20,00,00,67
722577800,00000130,false,1,8,18,80,2F,7F,00,02,01,6A
722578000,00000140,false,1,8,E7,80,00,5C,20,00,01,7A
722587800,00000130,false,1,8,1C,80,2C,7F,00,02,02,9A
722588000,00000140,false,1,8,E8,80,00,5C,20,00,02,01
722597800,00000130,false,1,8,1A,80,1E,7F,00,02,03,AF
722598000,00000140,false,1,8,E2,80,00,5C,20,00,03,74
722607700,00000130,false,1,8,0F,80,0D,7F,00,02,04,21
722608000,00000140,false,1,8,D6,80,00,5C,20,00,04,98
722617800,00000130,false,1,8,0B,80,E9,7E,00,02,05,00
722618000,00000140,false,1,8,D5,80,00,5C,20,00,05,62
722627600,00000500,false,1,1,0C
722627800,00000130,false,1,8,0E,80,E8,7E,00,02,06,79
722628100,00000140,false,1,8,DC,80,00,5C,20,00,06,CA
722628300,00000495,false,1,8,00,00,0A,0A,82,2D,EE,E4
722637700,00000130,false,1,8,11,80,01,7F,00,02,07,7C
722638000,00000140,false,1,8,D5,80,00,5C,20,00,07,58
722647700,00000130,false,1,8,17,80,0F,7F,00,02,08,02
722647900,00000140,false,1,8,E2,80,00,5C,20,00,08,BB
722657700,00000130,false,1,8,1F,80,25,7F,00,02,09,AF
722657900,00000140,false,1,8,ED,80,00,5C,20,00,09,FA
722667700,00000130,false,1,8,23,80,21,7F,00,02,0A,50
722667900,00000140,false,1,8,F0,80,00,5C,20,00,0A,82
722677700,00000130,false,1,8,19,80,1B,7F,00,02,0B,7F
722677900,00000140,false,1,8,E9,80,00,5C,20,00,0B,A9
722687700,00000130,false,1,8,13,80,11,7F,00,02,0C,E7
722687900,00000140,false,1,8,EA,80,00,5C,20,00,0C,1D
722697600,00000130,false,1,8,10,80,1A,7F,00,02,0D,D4
722697900,00000140,false,1,8,DF,80,00,5C,20,00,0D,E2
722707600,00000130,false,1,8,09,80,3D,7F,00,02,0E,0F
722707900,00000140,false,1,8,E7,80,00,5C,20,00,0E,C1
722717600,00000130,false,1,8,0A,80,41,7F,00,02,0F,87
722717900,00000140,false,1,8,F9,80,00,5C,20,00,0F,64
722727500,00000500,false,1,1,0C
722727700,00000130,false,1,8,13,80,33,7F,00,02,00,6E
722728000,00000140,false,1,8,FB,80,00,5C,20,00,00,65
722728200,00000495,false,1,8,00,00,0A,0A,82,2D,EE,E4
722737600,00000130,false,1,8,1C,80,34,7F,00,02,01,24
722737800,00000140,false,1,8,F3,80,00,5C,20,00,01,AA
722747600,00000130,false,1,8,1E,80,25,7F,00,02,02,3D
722747800,00000140,false,1,8,EE,80,00,5C,20,00,02,D2
722757600,00000130,false,1,8,1B,80,22,7F,00,02,03,1F
722757800,00000140,false,1,8,F3,80,00,5C,20,00,03,90
722767600,00000130,false,1,8,14,80,2D,7F,00,02,04,6C
722767800,00000140,false,1,8,F3,80,00,5C,20,00,04,C3
722777500,00000130,false,1,8,08,80,3F,7F,00,02,05,49
722777800,00000140,false,1,8,ED,80,00,5C,20,00,05,66
722787500,00000130,false,1,8,0C,80,3B,7F,00,02,06,B2
722787800,00000140,false,1,8,EB,80,00,5C,20,00,06,92
722797500,00000130,false,1,8,12,80,34,7F,00,02,07,6B
722797800,00000140,false,1,8,FA,80,00,5C,20,00,07,6B
722807500,00000130,false,1,8,18,80,25,7F,00,02,08,3C
722807700,00000140,false,1,8,F0,80,00,5C,20,00,08,B8
722817500,00000130,false,1,8,18,80,23,7F,00,02,09,40
722817700,00000140,false,1,8,D6,80,00,5C,20,00,09,19
722827400,00000500,false,1,1,0C
722827600,00000130,false,1,8,21,80,2C,7F,00,02,0A,42
722827800,00000140,false,1,8,DC,80,00,5C,20,00,0A,56
722828100,00000495,false,1,8,00,00,0A,0A,82,2D,EE,E4
722837500,00000130,false,1,8,23,80,2F,7F,00,02,0B,5B
722837700,00000140,false,1,8,E6,80,00,5C,20,00,0B,F5
722847500,00000130,false,1,8,16,80,30,7F,00,02,0C,78
722847700,00000140,false,1,8,EC,80,00,5C,20,00,0C,CE
722857400,00000130,false,1,8,1D,80,2F,7F,00,02,0D,C2
722857700,00000140,false,1,8,F3,80,00,5C,20,00,0D,36
722867400,00000130,false,1,8,24,80,26,7F,00,02,0E,A1
722867700,00000140,false,1,8,ED,80,00,5C,20,00,0E,A9
722877400,00000130,false,1,8,1B,80,34,7F,00,02,0F,0C
722877700,00000140,false,1,8,EB,80,00,5C,20,00,0F,67
722887400,00000130,false,1,8,10,80,3B,7F,00,02,00,FE
722887600,00000140,false,1,8,E7,80,00,5C,20,00,00,67
722897400,00000130,false,1,8,18,80,3B,7F,00,02,01,31
722897600,00000140,false,1,8,FA,80,00,5C,20,00,01,25
722907400,00000130,false,1,8,24,80,39,7F,00,02,02,AF
722907600,00000140,false,1,8,12,81,00,5C,20,00,02,86
722917400,00000130,false,1,8,23,80,2A,7F,00,02,03,6C
722917600,00000140,false,1,8,10,81,00,5C,20,00,03,21
722927200,00000500,false,1,1,0C
722927500,00000130,false,1,8,25,80,1B,7F,00,02,04,A9
722927700,00000140,false,1,8,FE,80,00,5C,20,00,04,25
722927900,00000495,false,1,8,00,00,0A,0A,82,2D,EE,E4
722937400,00000130,false,1,8,24,80,17,7F,00,02,05,2B
722937600,00000140,false,1,8,ED,80,00,5C,20,00,05,66
722947300,00000130,false,1,8,21,80,23,7F,00,02,06,A2
722947600,00000140,false,1,8,F7,80,00,5C,20,00,06,90
722957300,00000130,false,1,8,1E,80,2F,7F,00,02,07,F7
722957600,00000140,false,1,8,09,81,00,5C,20,00,07,63
722967300,00000130,false,1,8,21,80,2E,7F,00,02,08,AC
722967500,00000140,false,1,8,07,81,00,5C,20,00,08,D9
722977300,00000130,false,1,8,21,80,21,7F,00,02,09,CD
722977500,00000140,false,1,8,03,81,00,5C,20,00,09,AD
722987300,00000130,false,1,8,20,80,2C,7F,00,02,0A,1F
722987500,00000140,false,1,8,F8,80,00,5C,20,00,0A,50
722997300,00000130,false,1,8,28,80,32,7F,00,02,0B,28
722997500,00000140,false,1,8,F0,80,00,5C,20,00,0B,9F
723007300,00000130,false,1,8,1F,80,23,7F,00,02,0C,A7
723007500,00000140,false,1,8,E4,80,00,5C,20,00,0C,1C
723017300,00000130,false,1,8,20,80,1B,7F,00,02,0D,68
723017500,00000140,false,1,8,DC,80,00,5C,20,00,0D,05
723027100,00000500,false,1,1,0C
723027300,00000130,false,1,8,27,80,21,7F,00,02,0E,4D
723027600,00000140,false,1,8,D6,80,00,5C,20,00,0E,4A
723027800,00000495,false,1,8,00,00,0A,0A,82,2D,EE,E4
723037200,00000130,false,1,8,12,80,31,7F,00,02,0F,5C
723037500,00000140,false,1,8,E5,80,00,5C,20,00,0F,66
723047200,00000130,false,1,8,07,80,31,7F,00,02,00,6A
723047500,00000140,false,1,8,FD,80,00,5C,20,00,00,B6
723057200,00000130,false,1,8,08,80,2C,7F,00,02,01,6D
723057400,00000140,false,1,8,FB,80,00,5C,20,00,01,78
723067200,00000130,false,1,8,07,80,39,7F,00,02,02,27
723067400,00000140,false,1,8,F8,80,00,5C,20,00,02,B8
723077200,00000130,false,1,8,0D,80,44,7F,00,02,03,4A
723077400,00000140,false,1,8,F4,80,00,5C,20,00,03,1E
723087200,00000130,false,1,8,1A,80,4E,7F,00,02,04,8D
723087400,00000140,false,1,8,EF,80,00,5C,20,00,04,C1
723097100,00000130,false,1,8,26,80,48,7F,00,02,05,9C
723097400,00000140,false,1,8,E6,80,00,5C,20,00,05,53
723107100,00000130,false,1,8,22,80,25,7F,00,02,06,24
723107400,00000140,false,1,8,F0,80,00,5C,20,00,06,1E
723117100,00000130,false,1,8,17,80,11,7F,00,02,07,41
723117400,00000140,false,1,8,FB,80,00,5C,20,00,07,36
723127200,000005A0,false,0,8,00,00,00,C0,24,16,91,0D
723127000,00000500,false,1,1,0C
723127200,00000130,false,1,8,1A,80,16,7F,00,02,08,17
723127500,00000140,false,1,8,00,81,00,5C,20,00,08,57
723127700,00000495,false,1,8,00,00,0A,0A,82,2D,EE,E4
723137100,00000130,false,1,8,15,80,15,7F,00,02,09,E8
723137300,00000140,false,1,8,EF,80,00,5C,20,00,09,40
723147100,00000130,false,1,8,1F,80,13,7F,00,02,0A,C6
723147300,00000140,false,1,8,D1,80,00,5C,20,00,0A,B0
723157100,00000130,false,1,8,21,80,12,7F,00,02,0B,66
723157300,00000140,false,1,8,C6,80,00,5C,20,00,0B,9A
723167100,00000130,false,1,8,1D,80,1F,7F,00,02,0C,F0
723167300,00000140,false,1,8,D1,80,00,5C,20,00,0C,FE
723177100,00000130,false,1,8,21,80,2D,7F,00,02,0D,7B
723177300,00000140,false,1,8,E5,80,00,5C,20,00,0D,5C
723187000,00000130,false,1,8,1C,80,2E,7F,00,02,0E,D2
723187300,00000140,false,1,8,DF,80,00,5C,20,00,0E,C5
723197000,00000130,false,1,8,1C,80,2A,7F,00,02,0F,7A
723197300,00000140,false,1,8,E2,80,00,5C,20,00,0F,E8
723207000,00000130,false,1,8,18,80,2A,7F,00,00,00,30
723207300,00000140,false,1,8,DF,80,00,5C,20,00,00,63
723217000,00000130,false,1,8,16,80,2F,7F,00,00,01,F3
723217200,00000140,false,1,8,E2,80,00,5C,20,00,01,4E
723226900,00000500,false,1,1,0C
723227100,00000130,false,1,8,21,80,2C,7F,00,00,02,32
723227300,00000140,false,1,8,EA,80,00,5C,20,00,02,BB
723227600,00000495,false,1,8,00,00,0A,0A,82,2D,EE,E4
723237000,00000130,false,1,8,29,80,22,7F,00,00,03,EB
723237200,00000140,false,1,8,F7,80,00,5C,20,00,03,F9
723247000,00000130,false,1,8,2A,80,1A,7F,00,00,04,07
723247200,00000140,false,1,8,01,81,00,5C,20,00,04,96
723257000,00000130,false,1,8,1D,80,1E,7F,00,00,05,F7
723257200,00000140,false,1,8,05,81,00,5C,20,00,05,E2
723266900,00000130,false,1,8,08,80,37,7F,00,00,06,81
723267200,00000140,false,1,8,13,81,00,5C,20,00,06,AF
723276900,00000130,false,1,8,07,80,4B,7F,00,00,07,B2
723277200,00000140,false,1,8,16,81,00,5C,20,00,07,86
723286900,00000130,false,1,8,13,80,45,7F,00,00,08,CF
723287200,00000140,false,1,8,FE,80,00,5C,20,00,08,B9
723296900,00000130,false,1,8,1D,80,26,7F,00,00,09,33
723297100,00000140,false,1,8,F7,80,00,5C,20,00,09,2B
723306900,00000130,false,1,8,1A,80,14,7F,00,00,0A,61
723307100,00000140,false,1,8,00,81,00,5C,20,00,0A,6D
723316900,00000130,false,1,8,15,80,10,7F,00,00,0B,95
723317100,00000140,false,1,8,04,81,00,5C,20,00,0B,19
723326700,00000500,false,1,1,0C
723327000,00000130,false,1,8,17,80,1C,7F,00,00,0C,BE
723327200,00000140,false,1,8,EC,80,00,5C,20,00,0C,CE
723327400,00000495,false,1,8,00,00,0A,0A,82,2D,EE,E4
723336900,00000130,false,1,8,1C,80,2E,7F,00,00,0D,6D
723337100,00000140,false,1,8,D1,80,00,5C,20,00,0D,E3
723346800,00000130,false,1,8,2A,80,32,7F,00,00,0E,63
723347100,00000140,false,1,8,DA,80,00,5C,20,00,0E,F1
723356800,00000130,false,1,8,1E,80,1F,7F,00,00,0F,A8
723357100,00000140,false,1,8,DF,80,00,5C,20,00,0F,D8
723366800,00000130,false,1,8,19,80,12,7F,00,00,00,35
723367100,00000140,false,1,8,E6,80,00,5C,20,00,00,3A
723376800,00000130,false,1,8,17,80,0A,7F,00,00,01,B0
723377000,00000140,false,1,8,EA,80,00,5C,20,00,01,9C
723386800,00000130,false,1,8,06,80,06,7F,00,00,02,B1
723387000,00000140,false,1,8,EE,80,00,5C,20,00,02,D2
723396800,00000130,false,1,8,07,80,1B,7F,00,00,03,B7
723397000,00000140,false,1,8,F2,80,00,5C,20,00,03,CD
723406800,00000130,false,1,8,09,80,23,7F,00,00,04,BD
723407000,00000140,false,1,8,EB,80,00,5C,20,00,04,A8
723416800,00000130,false,1,8,12,80,28,7F,00,00,05,E5
723417000,00000140,false,1,8,F1,80,00,5C,20,00,05,64
723426600,00000500,false,1,1,0C
723426800,00000130,false,1,8,21,80,27,7F,00,00,06,8F
723427100,00000140,false,1,8,EC,80,00,5C,20,00,06,1C
723427300,00000495,false,1,8,00,00,0A,0A,82,2D,EE,E4
723436700,00000130,false,1,8,26,80,27,7F,00,00,07,1C
723437000,00000140,false,1,8,EF,80,00,5C,20,00,07,E6
723446700,00000130,false,1,8,20,80,34,7F,00,00,08,24
723447000,00000140,false,1,8,01,81,00,5C,20,00,08,0A
723456700,00000130,false,1,8,19,80,37,7F,00,00,09,DE
723456900,00000140,false,1,8,0F,81,00,5C,20,00,09,16
723466700,00000130,false,1,8,1F,80,3C,7F,00,00,0A,E3
723466900,00000140,false,1,8,13,81,00,5C,20,00,0A,33
723476700,00000130,false,1,8,22,80,2F,7F,00,00,0B,9E
723476900,00000140,false,1,8,19,81,00,5C,20,00,0B,46
723486700,00000130,false,1,8,22,80,1B,7F,00,00,0C,57
723486900,00000140,false,1,8,12,81,00,5C,20,00,0C,20
723496700,00000130,false,1,8,20,80,13,7F,00,00,0D,87
723496900,00000140,false,1,8,DF,80,00,5C,20,00,0D,E2
723506600,00000130,false,1,8,20,80,1C,7F,00,00,0E,DC
723506900,00000140,false,1,8,C4,80,00,5C,20,00,0E,49
723516600,00000130,false,1,8,1E,80,12,7F,00,00,0F,00
723516900,00000140,false,1,8,C7,80,00,5C,20,00,0F,B3
723526500,00000500,false,1,1,0C
723526700,00000130,false,1,8,17,80,18,7F,00,00,00,97
723527000,00000140,false,1,8,D8,80,00,5C,20,00,00,ED
723527200,00000495,false,1,8,00,00,0A,0A,82,2D,EE,E4
723536600,00000130,false,1,8,15,80,14,7F,00,00,01,F2
723536900,00000140,false,1,8,EA,80,00,5C,20,00,01,9C
723546600,00000130,false,1,8,1B,80,1B,7F,00,00,02,A8
723546800,00000140,false,1,8,ED,80,00,5C,20,00,02,35
723556600,00000130,false,1,8,1A,80,35,7F,00,00,03,3F
723556800,00000140,false,1,8,E8,80,00,5C,20,00,03,1C
723566600,00000130,false,1,8,1A,80,2E,7F,00,00,04,4B
723566800,00000140,false,1,8,E5,80,00,5C,20,00,04,A9
723576600,00000130,false,1,8,17,80,1E,7F,00,00,05,9F
723576800,00000140,false,1,8,EE,80,00,5C,20,00,05,81
723586500,00000130,false,1,8,15,80,1E,7F,00,00,06,02
723586800,00000140,false,1,8,EF,80,00,5C,20,00,06,FB
723596500,00000130,false,1,8,16,80,1A,7F,00,00,07,4D
723596800,00000140,false,1,8,ED,80,00,5C,20,00,07,5C
723606500,00000130,false,1,8,1A,80,22,7F,00,00,08,15
723606800,00000140,false,1,8,F3,80,00,5C,20,00,08,5F
723616500,00000130,false,1,8,16,80,18,7F,00,00,09,3F
723616800,00000140,false,1,8,05,81,00,5C,20,00,09,7E
723626400,00000500,false,1,1,0C
723626600,00000130,false,1,8,13,80,1F,7F,00,00,0A,27
723626800,00000140,false,1,8,09,81,00,5C,20,00,0A,E2
723627100,00000495,false,1,8,00,00,0A,0A,82,2D,EE,E4
723636500,00000130,false,1,8,14,80,1F,7F,00,00,0B,B4
723636700,00000140,false,1,8,0F,81,00,5C,20,00,0B,2C
723646500,00000130,false,1,8,19,80,25,7F,00,00,0C,8D
723646700,00000140,false,1,8,10,81,00,5C,20,00,0C,9A
723656500,00000130,false,1,8,1D,80,2C,7F,00,00,0D,E4
723656700,00000140,false,1,8,07,81,00,5C,20,00,0D,B0
723666400,00000130,false,1,8,1E,80,39,7F,00,00,0E,15
723666700,00000140,false,1,8,FE,80,00,5C,20,00,0E,F7
723676400,00000130,false,1,8,1D,80,39,7F,00,00,0F,EF
723676700,00000140,false,1,8,FD,80,00,5C,20,00,0F,0D
723686400,00000130,false,1,8,1A,80,10,7F,00,00,00,06
723686700,00000140,false,1,8,03,81,00,5C,20,00,00,58
723696400,00000130,false,1,8,17,80,04,7F,00,00,01,A6
723696600,00000140,false,1,8,06,81,00,5C,20,00,01,71
723706400,00000130,false,1,8,11,80,08,7F,00,00,02,90
723706600,00000140,false,1,8,F3,80,00,5C,20,00,02,8D
723716400,00000130,false,1,8,1C,80,09,7F,00,00,03,01
723716600,00000140,false,1,8,EA,80,00,5C,20,00,03,A6
723726200,00000500,false,1,1,0C
723726500,00000130,false,1,8,25,80,1A,7F,00,00,04,5B
723726700,00000140,false,1,8,E3,80,00,5C,20,00,04,7A
723726900,00000495,false,1,8,00,00,0A,0A,82,2D,EE,E4
723736400,00000130,false,1,8,18,80,27,7F,00,00,05,F1
723736600,00000140,false,1,8,E6,80,00,5C,20,00,05,53
723746400,00000130,false,1,8,0F,80,22,7F,00,00,06,3E
723746600,00000140,false,1,8,EC,80,00,5C,20,00,06,1C
723756300,00000130,false,1,8,12,80,18,7F,00,00,07,F0
723756600,00000140,false,1,8,F0,80,00,5C,20,00,07,03
723766300,00000130,false,1,8,16,80,20,7F,00,00,08,7A
723766600,00000140,false,1,8,EE,80,00,5C,20,00,08,00
723776300,00000130,false,1,8,1D,80,2B,7F,00,00,09,9B
723776600,00000140,false,1,8,EC,80,00,5C,20,00,09,A7
723786300,00000130,false,1,8,1F,80,30,7F,00,00,0A,21
723786500,00000140,false,1,8,EA,80,00,5C,20,00,0A,53
723796300,00000130,false,1,8,1E,80,2D,7F,00,00,0B,27
723796500,00000140,false,1,8,E6,80,00,5C,20,00,0B,F5
723806300,00000130,false,1,8,1E,80,20,7F,00,00,0C,DC
723806500,00000140,false,1,8,E1,80,00,5C,20,00,0C,28
723816300,00000130,false,1,8,1C,80,0A,7F,00,00,0D,19
723816500,00000140,false,1,8,EE,80,00,5C,20,00,0D,69
723826100,00000500,false,1,1,0C
723826400,00000130,false,1,8,19,80,15,7F,00,00,0E,98
723826600,00000140,false,1,8,EB,80,00,5C,20,00,0E,7A
723826800,00000495,false,1,8,00,00,0A,0A,82,2D,EE,E4
723836200,00000130,false,1,8,18,80,3A,7F,00,00,0F,65
723836500,00000140,false,1,8,EC,80,00,5C,20,00,0F,E9
723846200,00000130,false,1,8,18,80,3A,7F,00,00,00,DE
723846500,00000140,false,1,8,FB,80,00,5C,20,00,00,65
723856200,00000130,false,1,8,1C,80,2B,7F,00,00,01,2E
723856500,00000140,false,1,8,04,81,00,5C,20,00,01,CB
723866200,00000130,false,1,8,1C,80,21,7F,00,00,02,AA
723866400,00000140,false,1,8,09,81,00,5C,20,00,02,0A
723876200,00000130,false,1,8,18,80,1F,7F,00,00,03,E7
723876400,00000140,false,1,8,10,81,00,5C,20,00,03,21
723886200,00000130,false,1,8,17,80,20,7F,00,00,04,BB
723886400,00000140,false,1,8,08,81,00,5C,20,00,04,19
723896200,00000130,false,1,8,1E,80,13,7F,00,00,05,B8
723896400,00000140,false,1,8,F4,80,00,5C,20,00,05,50
723906100,00000130,false,1,8,1B,80,11,7F,00,00,06,7F
723906400,00000140,false,1,8,E9,80,00,5C,20,00,06,28
723916100,00000130,false,1,8,19,80,14,7F,00,00,07,07
723916400,00000140,false,1,8,F0,80,00,5C,20,00,07,03
723926000,00000500,false,1,1,0C
723926200,00000130,false,1,8,1A,80,1D,7F,00,00,08,46
723926500,00000140,false,1,8,E6,80,00,5C,20,00,08,D2
723926700,00000495,false,1,8,00,00,0A,0A,82,2D,EE,E4
723936100,00000130,false,1,8,1F,80,17,7F,00,00,09,CC
723936300,00000140,false,1,8,D6,80,00,5C,20,00,09,19
723946100,00000130,false,1,8,24,80,14,7F,00,00,0A,B6
723946300,00000140,false,1,8,CB,80,00,5C,20,00,0A,61
723956100,00000130,false,1,8,22,80,2B,7F,00,00,0B,2B
723956300,00000140,false,1,8,D2,80,00,5C,20,00,0B,4A
723966100,00000130,false,1,8,1F,80,35,7F,00,00,0C,B0
723966300,00000140,false,1,8,F0,80,00,5C,20,00,0C,CC
723976100,00000130,false,1,8,1F,80,35,7F,00,00,0D,AD
723976300,00000140,false,1,8,FE,80,00,5C,20,00,0D,D0
723986000,00000130,false,1,8,17,80,28,7F,00,00,0E,1E
723986300,00000140,false,1,8,EF,80,00,5C,20,00,0E,13
723996000,00000130,false,1,8,17,80,14,7F,00,00,0F,EE
723996300,00000140,false,1,8,EA,80,00,5C,20,00,0F,3A
724006000,00000130,false,1,8,1B,80,16,7F,00,00,00,3A
724006300,00000140,false,1,8,E9,80,00,5C,20,00,00,66
724016000,00000130,false,1,8,20,80,32,7F,00,00,01,B0
724016200,00000140,false,1,8,F6,80,00,5C,20,00,01,9E
724025900,00000500,false,1,1,0C
724026100,00000130,false,1,8,1F,80,3F,7F,00,00,02,B5
724026300,00000140,false,1,8,FC,80,00,5C,20,00,02,D1
724026600,00000495,false,1,8,00,00,0A,0A,82,2D,EE,E4
724036000,00000130,false,1,8,1B,80,31,7F,00,00,03,D7
724036200,00000140,false,1,8,09,81,00,5C,20,00,03,17
724046000,00000130,false,1,8,17,80,1E,7F,00,00,04,82
724046200,00000140,false,1,8,06,81,00,5C,20,00,04,18
724056000,00000130,false,1,8,1E,80,11,7F,00,00,05,6C
724056200,00000140,false,1,8,FB,80,00,5C,20,00,05,0C
724065900,00000130,false,1,8,1C,80,20,7F,00,00,06,B4
724066200,00000140,false,1,8,F7,80,00,5C,20,00,06,90
724075900,00000130,false,1,8,16,80,21,7F,00,00,07,AB
724076200,00000140,false,1,8,E6,80,00,5C,20,00,07,69
724085900,00000130,false,1,8,1A,80,1F,7F,00,00,08,92
724086200,00000140,false,1,8,E0,80,00,5C,20,00,08,01
724095900,00000130,false,1,8,20,80,24,7F,00,00,09,D7
724096100,00000140,false,1,8,F3,80,00,5C,20,00,09,42
724105900,00000130,false,1,8,1A,80,10,7F,00,00,0A,D4
724106100,00000140,false,1,8,FC,80,00,5C,20,00,0A,39
724125900,000005A0,false,0,8,00,00,00,C0,20,29,93,0D
724115900,00000130,false,1,8,13,80,08,7F,00,00,0B,DF
724116200,00000140,false,1,8,F5,80,00,5C,20,00,0B,AB
724125700,00000500,false,1,1,0C
724126000,00000130,false,1,8,1A,80,18,7F,00,00,0C,ED
724126200,00000140,false,1,8,EF,80,00,5C,20,00,0C,29
724126500,00000495,false,1,8,00,00,0A,0A,82,2D,EE,E4
724135900,00000130,false,1,8,14,80,26,7F,00,00,0D,C8
724136100,00000140,false,1,8,F3,80,00,5C,20,00,0D,36
724145800,00000130,false,1,8,0B,80,22,7F,00,00,0E,BF
724146100,00000140,false,1,8,F5,80,00,5C,20,00,0E,C2
724155800,00000130,false,1,8,0D,80,25,7F,00,00,0F,7A
724156100,00000140,false,1,8,F5,80,00,5C,20,00,0F,DF
724165800,00000130,false,1,8,15,80,2E,7F,00,00,00,63
724166100,00000140,false,1,8,FF,80,00,5C,20,00,00,0C
724175800,00000130,false,1,8,17,80,2B,7F,00,00,01,1B
724176100,00000140,false,1,8,04,81,00,5C,20,00,01,CB
724185800,00000130,false,1,8,18,80,27,7F,00,00,02,A2
724186000,00000140,false,1,8,00,81,00,5C,20,00,02,85
724195800,00000130,false,1,8,1A,80,27,7F,00,00,03,05
724196000,00000140,false,1,8,00,81,00,5C,20,00,03,98
724205800,00000130,false,1,8,1B,80,16,7F,00,00,04,4E
724206000,00000140,false,1,8,FA,80,00,5C,20,00,04,4C
724215800,00000130,false,1,8,1D,80,1D,7F,00,00,05,49
724216000,00000140,false,1,8,FA,80,00,5C,20,00,05,51
724225600,00000500,false,1,1,0C
724225900,00000130,false,1,8,1B,80,21,7F,00,00,06,50
724226100,00000140,false,1,8,03,81,00,5C,20,00,06,16
724226300,00000495,false,1,8,00,00,0A,0A,82,2D,EE,E4
724235700,00000130,false,1,8,18,80,17,7F,00,00,07,E4
724236000,00000140,false,1,8,F9,80,00,5C,20,00,07,8C
724245700,00000130,false,1,8,10,80,21,7F,00,00,08,C3
724246000,00000140,false,1,8,F1,80,00,5C,20,00,08,E5
724255700,00000130,false,1,8,0D,80,32,7F,00,00,09,D1
724255900,00000140,false,1,8,FA,80,00,5C,20,00,09,CD
724265700,00000130,false,1,8,13,80,2E,7F,00,00,0A,62
724265900,00000140,false,1,8,FD,80,00,5C,20,00,0A,64
724275700,00000130,false,1,8,18,80,18,7F,00,00,0B,04
724275900,00000140,false,1,8,F1,80,00,5C,20,00,0B,C2
724285700,00000130,false,1,8,20,80,1D,7F,00,00,0C,8C
724285900,00000140,false,1,8,E7,80,00,5C,20,00,0C,FB
724295700,00000130,false,1,8,1C,80,21,7F,00,00,0D,11
724295900,00000140,false,1,8,EC,80,00,5C,20,00,0D,D3
724305600,00000130,false,1,8,0C,80,18,7F,00,00,0E,BD
724305900,00000140,false,1,8,EC,80,00,5C,20,00,0E,F4
724315700,00000130,false,1,8,03,80,1B,7F,00,00,0F,42
724315900,00000140,false,1,8,EC,80,00,5C,20,00,0F,E9
724325500,00000500,false,1,1,0C
724325700,00000130,false,1,8,03,80,2C,7F,00,00,00,DD
724326000,00000140,false,1,8,FB,80,00,5C,20,00,00,65
724326200,00000495,false,1,8,00,00,0A,0A,82,2D,EE,E4
724335600,00000130,false,1,8,01,80,34,7F,00,00,01,E3
724335900,00000140,false,1,8,FD,80,00,5C,20,00,01,AB
724345600,00000130,false,1,8,04,80,28,7F,00,00,02,DC
724345800,00000140,false,1,8,ED,80,00,5C,20,00,02,35
724355600,00000130,false,1,8,12,80,18,7F,00,00,03,84
724355800,00000140,false,1,8,EC,80,00,5C,20,00,03,75
724365600,00000130,false,1,8,19,80,07,7F,00,00,04,70
724365800,00000140,false,1,8,ED,80,00,5C,20,00,04,7B
724375600,00000130,false,1,8,1E,80,03,7F,00,00,05,56
724375800,00000140,false,1,8,F1,80,00,5C,20,00,05,64
724385500,00000130,false,1,8,18,80,0D,7F,00,00,06,B4
724385800,00000140,false,1,8,0A,81,00,5C,20,00,06,99
724395500,00000130,false,1,8,25,80,13,7F,00,00,07,61
724395800,00000140,false,1,8,17,81,00,5C,20,00,07,DB
724405500,00000130,false,1,8,2C,80,25,7F,00,00,08,1B
724405800,00000140,false,1,8,FF,80,00,5C,20,00,08,E4
724415500,00000130,false,1,8,2A,80,26,7F,00,00,09,6B
724415800,00000140,false,1,8,E4,80,00,5C,20,00,09,75
724425400,00000500,false,1,1,0C
724425600,00000130,false,1,8,29,80,1F,7F,00,00,0A,99
724425900,00000140,false,1,8,E2,80,00,5C,20,00,0A,81
724426100,00000495,false,1,8,00,00,0A,0A,82,2D,EE,E4
724435500,00000130,false,1,8,20,80,28,7F,00,00,0B,2F
724435700,00000140,false,1,8,F1,80,00,5C,20,00,0B,C2
724445500,00000130,false,1,8,0A,80,2C,7F,00,00,0C,CE
724445700,00000140,false,1,8,EE,80,00,5C,20,00,0C,74
724455500,00000130,false,1,8,0E,80,28,7F,00,00,0D,0F
724455700,00000140,false,1,8,E0,80,00,5C,20,00,0D,68
724465500,00000130,false,1,8,1A,80,2B,7F,00,00,0E,46
724465700,00000140,false,1,8,EE,80,00,5C,20,00,0E,4E
724475400,00000130,false,1,8,1A,80,22,7F,00,00,0F,46
724475700,00000140,false,1,8,F2,80,00,5C,20,00,0F,51
724485400,00000130,false,1,8,17,80,1C,7F,00,00,00,22
724485700,00000140,false,1,8,F0,80,00,5C,20,00,00,50
724495400,00000130,false,1,8,14,80,25,7F,00,00,01,EA
724495700,00000140,false,1,8,F5,80,00,5C,20,00,01,79
724505400,00000130,false,1,8,19,80,20,7F,00,00,02,F4
724505600,00000140,false,1,8,F8,80,00,5C,20,00,02,B8
724515400,00000130,false,1,8,19,80,10,7F,00,00,03,C6
724515600,00000140,false,1,8,F7,80,00,5C,20,00,03,F9
724525200,00000500,false,1,1,0C
724525500,00000130,false,1,8,0F,80,0E,7F,00,00,04,07
724525700,00000140,false,1,8,F1,80,00,5C,20,00,04,79
724526000,00000495,false,1,8,00,00,0A,0A,82,2D,EE,E4
724535400,00000130,false,1,8,0D,80,15,7F,00,00,05,87
724535600,00000140,false,1,8,E9,80,00,5C,20,00,05,0F
724545300,00000130,false,1,8,0E,80,18,7F,00,00,06,EF
724545600,00000140,false,1,8,E6,80,00,5C,20,00,06,74
724555300,00000130,false,1,8,21,80,14,7F,00,00,07,03
724555600,00000140,false,1,8,D4,80,00,5C,20,00,07,05
724565300,00000130,false,1,8,25,80,14,7F,00,00,08,D1
724565600,00000140,false,1,8,D9,80,00,5C,20,00,08,58
724575300,00000130,false,1,8,0C,80,1B,7F,00,00,09,50
724575600,00000140,false,1,8,EA,80,00,5C,20,00,09,74
724585300,00000130,false,1,8,05,80,1F,7F,00,00,0A,4D
724585500,00000140,false,1,8,ED,80,00,5C,20,00,0A,DD
724595300,00000130,false,1,8,0C,80,24,7F,00,00,0B,39
724595500,00000140,false,1,8,E5,80,00,5C,20,00,0B,12
724605300,00000130,false,1,8,0E,80,2A,7F,00,00,0C,C6
724605500,00000140,false,1,8,E6,80,00,5C,20,00,0C,A6
724615300,00000130,false,1,8,0D,80,21,7F,00,00,0D,F5
724615500,00000140,false,1,8,EE,80,00,5C,20,00,0D,69
724625100,00000500,false,1,1,0C
724625400,00000130,false,1,8,07,80,24,7F,00,00,0E,65
724625600,00000140,false,1,8,F3,80,00,5C,20,00,0E,11
724625800,00000495,false,1,8,00,00,0A,0A,82,2D,EE,E4
724635200,00000130,false,1,8,12,80,1C,7F,00,00,0F,AD
724635500,00000140,false,1,8,F1,80,00,5C,20,00,0F,B6
724645200,00000130,false,1,8,1C,80,16,7F,00,00,00,B4
724645500,00000140,false,1,8,E9,80,00,5C,20,00,00,66
724655200,00000130,false,1,8,21,80,2C,7F,00,00,01,15
724655400,00000140,false,1,8,DB,80,00,5C,20,00,01,17
724665200,00000130,false,1,8,1C,80,2A,7F,00,00,02,63
724665400,00000140,false,1,8,D9,80,00,5C,20,00,02,8A
724675200,00000130,false,1,8,13,80,1B,7F,00,00,03,67
724675400,00000140,false,1,8,E3,80,00,5C,20,00,03,29
724685200,00000130,false,1,8,17,80,1C,7F,00,00,04,56
724685400,00000140,false,1,8,E7,80,00,5C,20,00,04,13
724695200,00000130,false,1,8,1E,80,26,7F,00,00,05,48
724695400,00000140,false,1,8,F6,80,00,5C,20,00,05,EA
724705200,00000130,false,1,8,27,80,2C,7F,00,00,06,95
724705400,00000140,false,1,8,F9,80,00,5C,20,00,06,91
724715200,00000130,false,1,8,2B,80,25,7F,00,00,07,2E
724715400,00000140,false,1,8,00,81,00,5C,20,00,07,EC
724725000,00000500,false,1,1,0C
724725200,00000130,false,1,8,29,80,1D,7F,00,00,08,77
724725500,00000140,false,1,8,F1,80,00,5C,20,00,08,E5
724725700,00000495,false,1,8,00,00,0A,0A,82,2D,EE,E4
724735100,00000130,false,1,8,1C,80,28,7F,00,00,09,78
724735400,00000140,false,1,8,E6,80,00,5C,20,00,09,CF
724745100,00000130,false,1,8,1B,80,27,7F,00,00,0A,AD
724745300,00000140,false,1,8,F7,80,00,5C,20,00,0A,0C
724755100,00000130,false,1,8,1C,80,17,7F,00,00,0B,11
724755300,00000140,false,1,8,F1,80,00,5C,20,00,0B,C2
724765100,00000130,false,1,8,0F,80,20,7F,00,00,0C,38
724765300,00000140,false,1,8,EC,80,00,5C,20,00,0C,CE
724775100,00000130,false,1,8,13,80,1D,7F,00,00,0D,A0
724775300,00000140,false,1,8,E7,80,00,5C,20,00,0D,E6
724785100,00000130,false,1,8,18,80,1C,7F,00,00,0E,D8
724785300,00000140,false,1,8,EB,80,00,5C,20,00,0E,7A
724795000,00000130,false,1,8,1E,80,24,7F,00,00,0F,4E
724795300,00000140,false,1,8,E5,80,00,5C,20,00,0F,66
724805000,00000130,false,1,8,20,80,29,7F,00,00,00,8A
724805300,00000140,false,1,8,D0,80,00,5C,20,00,00,3F
724815000,00000130,false,1,8,19,80,30,7F,00,00,01,3D
724815300,00000140,false,1,8,E9,80,00,5C,20,00,01,7B
724824900,00000500,false,1,1,0C
724825100,00000130,false,1,8,16,80,30,7F,00,00,02,46
724825400,00000140,false,1,8,0A,81,00,5C,20,00,02,ED
724825600,00000495,false,1,8,00,00,0A,0A,82,2D,EE,E4
724835000,00000130,false,1,8,11,80,26,7F,00,00,03,5A
724835200,00000140,false,1,8,F7,80,00,5C,20,00,03,F9
724845000,00000130,false,1,8,14,80,2A,7F,00,00,04,FF
724845200,00000140,false,1,8,F1,80,00,5C,20,00,04,79
724855000,00000130,false,1,8,14,80,16,7F,00,00,05,0F
724855200,00000140,false,1,8,FC,80,00,5C,20,00,05,82
724865000,00000130,false,1,8,0B,80,FB,7E,00,00,06,85
724865200,00000140,false,1,8,E8,80,00,5C,20,00,06,75
724874900,00000130,false,1,8,0B,80,01,7F,00,00,07,35
724875200,00000140,false,1,8,E4,80,00,5C,20,00,07,D3
724884900,00000130,false,1,8,1A,80,22,7F,00,00,08,15
724885200,00000140,false,1,8,D4,80,00,5C,20,00,08,BE
724894900,00000130,false,1,8,23,80,2B,7F,00,00,09,4C
724895200,00000140,false,1,8,C9,80,00,5C,20,00,09,FC
724904900,00000130,false,1,8,21,80,13,7F,00,00,0A,89
724905100,00000140,false,1,8,D6,80,00,5C,20,00,0A,3E
724914900,00000130,false,1,8,15,80,02,7F,00,00,0B,AF
724915200,00000140,false,1,8,ED,80,00,5C,20,00,0B,C0
724924700,00000500,false,1,1,0C
724925000,00000130,false,1,8,09,80,0F,7F,00,00,0C,56
724925200,00000140,false,1,8,01,81,00,5C,20,00,0C,7E
724925500,00000495,false,1,8,00,00,0A,0A,82,2D,EE,E4
724934900,00000130,false,1,8,0D,80,08,7F,00,00,0D,29
724935100,00000140,false,1,8,06,81,00,5C,20,00,0D,ED
724944900,00000130,false,1,8,10,80,02,7F,00,00,0E,F2
724945100,00000140,false,1,8,01,81,00,5C,20,00,0E,44
724954800,00000130,false,1,8,19,80,02,7F,00,00,0F,60
724955100,00000140,false,1,8,E7,80,00,5C,20,00,0F,DC
724964800,00000130,false,1,8,24,80,17,7F,00,00,00,DA
724965100,00000140,false,1,8,E0,80,00,5C,20,00,00,E9
724974800,00000130,false,1,8,23,80,22,7F,00,00,01,B9
724975100,00000140,false,1,8,EC,80,00,5C,20,00,01,4F
724984800,00000130,false,1,8,24,80,2A,7F,00,00,02,67
724985000,00000140,false,1,8,F4,80,00,5C,20,00,02,03
724994800,00000130,false,1,8,28,80,2E,7F,00,00,03,74
724995000,00000140,false,1,8,EC,80,00,5C,20,00,03,75
725004800,00000130,false,1,8,23,80,32,7F,00,00,04,3E
725005000,00000140,false,1,8,E8,80,00,5C,20,00,04,4F
725014800,00000130,false,1,8,1A,80,2B,7F,00,00,05,89
725015000,00000140,false,1,8,EA,80,00,5C,20,00,05,E8
725024600,00000500,false,1,1,0C
725024900,00000130,false,1,8,13,80,1C,7F,00,00,06,05
725025100,00000140,false,1,8,F0,80,00,5C,20,00,06,1E
725025300,00000495,false,1,8,00,00,0A,0A,82,2D,EE,E4
725034800,00000130,false,1,8,18,80,15,7F,00,00,07,30
725035000,00000140,false,1,8,F6,80,00,5C,20,00,07,D0
725044700,00000130,false,1,8,0F,80,12,7F,00,00,08,B7
725045000,00000140,false,1,8,F6,80,00,5C,20,00,08,6B
725054700,00000130,false,1,8,10,80,17,7F,00,00,09,90
725055000,00000140,false,1,8,F6,80,00,5C,20,00,09,76
725064700,00000130,false,1,8,14,80,22,7F,00,00,0A,2E
725064900,00000140,false,1,8,F4,80,00,5C,20,00,0A,EB
725074700,00000130,false,1,8,19,80,28,7F,00,00,0B,76
725074900,00000140,false,1,8,F3,80,00,5C,20,00,0B,78
725084700,00000130,false,1,8,20,80,1B,7F,00,00,0C,ED
725084900,00000140,false,1,8,E8,80,00,5C,20,00,0C,A7
725094700,00000130,false,1,8,1D,80,18,7F,00,00,0D,7E
725094900,00000140,false,1,8,E9,80,00,5C,20,00,0D,E7
725104700,00000130,false,1,8,1F,80,2B,7F,00,00,0E,72
725104900,00000140,false,1,8,F5,80,00,5C,20,00,0E,C2
725124700,000005A0,false,0,8,00,00,00,C0,20,09,94,0D
725114700,00000130,false,1,8,1A,80,3B,7F,00,00,0F,B5
725115000,00000140,false,1,8,FA,80,00,5C,20,00,0F,83
725124500,00000500,false,1,1,0C
725124700,00000130,false,1,8,14,80,32,7F,00,00,00,12
725125000,00000140,false,1,8,EB,80,00,5C,20,00,00,DC
725125200,00000495,false,1,8,00,00,0A,0A,82,2D,EE,E4
725134600,00000130,false,1,8,12,80,2F,7F,00,00,01,9A
725134900,00000140,false,1,8,EC,80,00,5C,20,00,01,4F
725144600,00000130,false,1,8,0E,80,27,7F,00,00,02,C8
725144800,00000140,false,1,8,F9,80,00,5C,20,00,02,E5
725154600,00000130,false,1,8,09,80,23,7F,00,00,03,EE
725154800,00000140,false,1,8,F7,80,00,5C,20,00,03,F9
725164600,00000130,false,1,8,13,80,2E,7F,00,00,04,C4
725164800,00000140,false,1,8,F2,80,00,5C,20,00,04,9E
725174600,00000130,false,1,8,1B,80,2A,7F,00,00,05,BE
725174800,00000140,false,1,8,02,81,00,5C,20,00,05,6C
725184600,00000130,false,1,8,12,80,2D,7F,00,00,06,1D
725184800,00000140,false,1,8,FD,80,00,5C,20,00,06,F8
725194500,00000130,false,1,8,1A,80,25,7F,00,00,07,A5
725194800,00000140,false,1,8,FA,80,00,5C,20,00,07,6B
725204500,00000130,false,1,8,25,80,14,7F,00,00,08,D1
725204800,00000140,false,1,8,07,81,00,5C,20,00,08,D9
725214500,00000130,false,1,8,24,80,20,7F,00,00,09,0B
725214800,00000140,false,1,8,0A,81,00,5C,20,00,09,22
725224400,00000500,false,1,1,0C
725224600,00000130,false,1,8,1C,80,28,7F,00,00,0A,5F
725224900,00000140,false,1,8,0B,81,00,5C,20,00,0A,58
725225100,00000495,false,1,8,00,00,0A,0A,82,2D,EE,E4
725234500,00000130,false,1,8,1E,80,27,7F,00,00,0B,84
725234700,00000140,false,1,8,0E,81,00,5C,20,00,0B,71
725244500,00000130,false,1,8,1E,80,29,7F,00,00,0C,C1
725244700,00000140,false,1,8,F3,80,00,5C,20,00,0C,2B
725254500,00000130,false,1,8,19,80,2D,7F,00,00,0D,E7
725254700,00000140,false,1,8,F3,80,00,5C,20,00,0D,36
725264500,00000130,false,1,8,1E,80,33,7F,00,00,0E,B6
725264700,00000140,false,1,8,F4,80,00,5C,20,00,0E,9F
725274400,00000130,false,1,8,1B,80,29,7F,00,00,0F,D2
725274700,00000140,false,1,8,F4,80,00,5C,20,00,0F,82
725284400,00000130,false,1,8,21,80,16,7F,00,00,00,84
725284700,00000140,false,1,8,F9,80,00,5C,20,00,00,DF
725294400,00000130,false,1,8,21,80,1B,7F,00,00,01,31
725294700,00000140,false,1,8,EC,80,00,5C,20,00,01,4F
725304400,00000130,false,1,8,1D,80,32,7F,00,00,02,A7
725304600,00000140,false,1,8,EB,80,00,5C,20,00,02,E6
725314400,00000130,false,1,8,21,80,3B,7F,00,00,03,CA
725314600,00000140,false,1,8,F8,80,00,5C,20,00,03,A5
725324300,00000500,false,1,1,0C
725324500,00000130,false,1,8,1D,80,2F,7F,00,00,04,AF
725324700,00000140,false,1,8,FF,80,00,5C,20,00,04,78
725325000,00000495,false,1,8,00,00,0A,0A,82,2D,EE,E4
725334400,00000130,false,1,8,18,80,25,7F,00,00,05,25
725334600,00000140,false,1,8,00,81,00,5C,20,00,05,D6
725344400,00000130,false,1,8,19,80,1A,7F,00,00,06,0C
725344600,00000140,false,1,8,04,81,00,5C,20,00,06,98
725354400,00000130,false,1,8,1B,80,1C,7F,00,00,07,CA
725354600,00000140,false,1,8,F2,80,00,5C,20,00,07,B9
725364300,00000130,false,1,8,17,80,2A,7F,00,00,08,84
725364600,00000140,false,1,8,E7,80,00,5C,20,00,08,8F
725374300,00000130,false,1,8,13,80,39,7F,00,00,09,A0
725374600,00000140,false,1,8,EE,80,00,5C,20,00,09,1D
725384300,00000130,false,1,8,14,80,3A,7F,00,00,0A,B7
725384500,00000140,false,1,8,E7,80,00,5C,20,00,0A,B5
725394300,00000130,false,1,8,0E,80,2D,7F,00,00,0B,9E
725394500,00000140,false,1,8,D2,80,00,5C,20,00,0B,4A
725404300,00000130,false,1,8,1A,80,1C,7F,00,00,0C,58
725404500,00000140,false,1,8,D4,80,00,5C,20,00,0C,CA
725414300,00000130,false,1,8,25,80,10,7F,00,00,0D,0D
725414500,00000140,false,1,8,D9,80,00,5C,20,00,0D,31
725424100,00000500,false,1,1,0C
725424400,00000130,false,1,8,25,80,08,7F,00,00,0E,B3
725424600,00000140,false,1,8,EA,80,00,5C,20,00,0E,27
725424800,00000495,false,1,8,00,00,0A,0A,82,2D,EE,E4
725434300,00000130,false,1,8,1C,80,14,7F,00,00,0F,DB
725434500,00000140,false,1,8,F4,80,00,5C,20,00,0F,82
725444200,00000130,false,1,8,18,80,24,7F,00,00,00,26
725444500,00000140,false,1,8,F8,80,00,5C,20,00,00,82
725454200,00000130,false,1,8,1E,80,1C,7F,00,00,01,B0
725454500,00000140,false,1,8,EC,80,00,5C,20,00,01,4F
725464200,00000130,false,1,8,17,80,19,7F,00,00,02,C7
725464400,00000140,false,1,8,DA,80,00,5C,20,00,02,6D
725474200,00000130,false,1,8,12,80,20,7F,00,00,03,DC
725474400,00000140,false,1,8,E0,80,00,5D,20,00,03,53
725484200,00000130,false,1,8,26,80,1E,7F,00,00,04,09
725484400,00000140,false,1,8,E9,80,00,5D,20,00,04,8F
725494200,00000130,false,1,8,28,80,18,7F,00,00,05,74
725494400,00000140,false,1,8,F7,80,00,5D,20,00,05,2A
725504200,00000130,false,1,8,24,80,18,7F,00,00,06,E8
725504400,00000140,false,1,8,F3,80,00,5D,20,00,06,64
725514200,00000130,false,1,8,1F,80,19,7F,00,00,07,7C
725514400,00000140,false,1,8,EA,80,00,5D,20,00,07,4F
725524000,00000500,false,1,1,0C
725524200,00000130,false,1,8,1F,80,22,7F,00,00,08,21
725524500,00000140,false,1,8,EA,80,00,5D,20,00,08,F4
725524700,00000495,false,1,8,00,00,0A,0A,82,2D,EE,E4
725534100,00000130,false,1,8,1A,80,23,7F,00,00,09,62
725534400,00000140,false,1,8,F2,80,00,5D,20,00,09,82
725544100,00000130,false,1,8,12,80,1B,7F,00,00,0A,CF
725544300,00000140,false,1,8,F7,80,00,5D,20,00,0A,91
725554100,00000130,false,1,8,0F,80,19,7F,00,00,0B,59
725554300,00000140,false,1,8,FE,80,00,5D,20,00,0B,03
725564100,00000130,false,1,8,18,80,27,7F,00,00,0C,04
725564300,00000140,false,1,8,FD,80,00,5D,20,00,0C,B7
725574100,00000130,false,1,8,21,80,20,7F,00,00,0D,4B
725574300,00000140,false,1,8,EA,80,00,5D,20,00,0D,9D
725584100,00000130,false,1,8,26,80,0A,7F,00,00,0E,80
725584300,00000140,false,1,8,E9,80,00,5D,20,00,0E,5D
725594100,00000130,false,1,8,1E,80,03,7F,00,00,0F,84
725594300,00000140,false,1,8,EC,80,00,5D,20,00,0F,74
725604000,00000130,false,1,8,18,80,17,7F,00,00,00,B7
725604300,00000140,false,1,8,ED,80,00,5D,20,00,00,92
725614000,00000130,false,1,8,13,80,18,7F,00,00,01,E3
725614300,00000140,false,1,8,F3,80,00,5D,20,00,01,37
725623900,00000500,false,1,1,0C
725624100,00000130,false,1,8,15,80,0F,7F,00,00,02,F2
725624400,00000140,false,1,8,EB,80,00,5D,20,00,02,7B
725624600,00000495,false,1,8,00,00,0A,0A,82,2D,EE,E4
725634000,00000130,false,1,8,20,80,1C,7F,00,00,03,5D
725634300,00000140,false,1,8,E3,80,00,5D,20,00,03,B4
725644000,00000130,false,1,8,21,80,1A,7F,00,00,04,32
725644200,00000140,false,1,8,E0,80,00,5D,20,00,04,00
725654000,00000130,false,1,8,1A,80,0B,7F,00,00,05,48
725654200,00000140,false,1,8,DE,80,00,5D,20,00,05,CA
725664000,00000130,false,1,8,14,80,07,7F,00,00,06,AC
725664200,00000140,false,1,8,E2,80,00,5D,20,00,06,80
725673900,00000130,false,1,8,16,80,14,7F,00,00,07,5B
725674200,00000140,false,1,8,FB,80,00,5D,20,00,07,AB
725684000,00000130,false,1,8,19,80,1F,7F,00,00,08,75
725684200,00000140,false,1,8,07,81,00,5D,20,00,08,44
725693900,00000130,false,1,8,1D,80,25,7F,00,00,09,8D
725694200,00000140,false,1,8,06,81,00,5D,20,00,09,04
725703900,00000130,false,1,8,20,80,21,7F,00,00,0A,2F
725704200,00000140,false,1,8,F6,80,00,5D,20,00,0A,CC
725713900,00000130,false,1,8,22,80,0C,7F,00,00,0B,E1
725714100,00000140,false,1,8,EC,80,00,5D,20,00,0B,00
725723700,00000500,false,1,1,0C
725723900,00000130,false,1,8,26,80,17,7F,00,00,0C,FC
725724200,00000140,false,1,8,DB,80,00,5D,20,00,0C,0B
725724400,00000495,false,1,8,00,00,0A,0A,82,2D,EE,E4
725733900,00000130,false,1,8,21,80,2C,7F,00,00,0D,89
725734100,00000140,false,1,8,CF,80,00,5D,20,00,0D,C6
725743900,00000130,false,1,8,1F,80,16,7F,00,00,0E,F5
725744100,00000140,false,1,8,D6,80,00,5D,20,00,0E,D7
725753800,00000130,false,1,8,1E,80,06,7F,00,00,0F,5B
725754100,00000140,false,1,8,E1,80,00,5D,20,00,0F,92
725763800,00000130,false,1,8,1C,80,11,7F,00,00,00,BF
725764100,00000140,false,1,8,EB,80,00,5D,20,00,00,41
725773800,00000130,false,1,8,17,80,28,7F,00,00,01,A5
725774100,00000140,false,1,8,F6,80,00,5D,20,00,01,03
725783800,00000130,false,1,8,19,80,26,7F,00,00,02,95
725784100,00000140,false,1,8,FA,80,00,5D,20,00,02,9F
725793800,00000130,false,1,8,1B,80,23,7F,00,00,03,ED
725794000,00000140,false,1,8,FF,80,00,5D,20,00,03,B6
725803800,00000130,false,1,8,1F,80,31,7F,00,00,04,ED
725804000,00000140,false,1,8,F8,80,00,5D,20,00,04,6B
725813800,00000130,false,1,8,1A,80,38,7F,00,00,05,D9
725814000,00000140,false,1,8,EB,80,00,5D,20,00,05,28
725823600,00000500,false,1,1,0C
725823800,00000130,false,1,8,21,80,31,7F,00,00,06,00
725824000,00000140,false,1,8,F0,80,00,5D,20,00,06,83
725824300,00000495,false,1,8,00,00,0A,0A,82,2D,EE,E4
725833800,00000130,false,1,8,1E,80,14,7F,00,00,07,89
725834000,00000140,false,1,8,F3,80,00,5D,20,00,07,79
725843700,00000130,false,1,8,1F,80,12,7F,00,00,08,0E
725844000,00000140,false,1,8,EF,80,00,5D,20,00,08,C0
725853700,00000130,false,1,8,16,80,1C,7F,00,00,09,8A
725854000,00000140,false,1,8,E3,80,00,5D,20,00,09,66
725863700,00000130,false,1,8,08,80,1A,7F,00,00,0A,74
725864000,00000140,false,1,8,EA,80,00,5D,20,00,0A,CE
725873700,00000130,false,1,8,18,80,23,7F,00,00,0B,E2
725873900,00000140,false,1,8,05,81,00,5D,20,00,0B,D9
725883700,00000130,false,1,8,2A,80,2B,7F,00,00,0C,AA
725883900,00000140,false,1,8,03,81,00,5D,20,00,0C,59
725893700,00000130,false,1,8,2B,80,29,7F,00,00,0D,3E
725893900,00000140,false,1,8,EF,80,00,5D,20,00,0D,A9
725903700,00000130,false,1,8,19,80,0F,7F,00,00,0E,D5
725903900,00000140,false,1,8,E8,80,00,5D,20,00,0E,00
725913700,00000130,false,1,8,15,80,07,7F,00,00,0F,04
725913900,00000140,false,1,8,F6,80,00,5D,20,00,0F,A5
725923500,00000500,false,1,1,0C
725923800,00000130,false,1,8,18,80,09,7F,00,00,00,4F
725924000,00000140,false,1,8,E8,80,00,5D,20,00,00,A6
725924200,00000495,false,1,8,00,00,0A,0A,82,2D,EE,E4
725933600,00000130,false,1,8,1A,80,17,7F,00,00,01,10
725933900,00000140,false,1,8,DB,80,00,5D,20,00,01,8A
725943600,00000130,false,1,8,28,80,1C,7F,00,00,02,92
725943900,00000140,false,1,8,D3,80,00,5D,20,00,02,7F
725953600,00000130,false,1,8,35,80,14,7F,00,00,03,A7
725953800,00000140,false,1,8,D4,80,00,5D,20,00,03,EC
725963600,00000130,false,1,8,38,80,1F,7F,00,00,04,DB
725963800,00000140,false,1,8,DF,80,00,5D,20,00,04,8A
725973600,00000130,false,1,8,2A,80,1A,7F,00,00,05,1A
725973800,00000140,false,1,8,ED,80,00,5D,20,00,05,FB
725983600,00000130,false,1,8,1A,80,18,7F,00,00,06,3F
725983800,00000140,false,1,8,ED,80,00,5D,20,00,06,DC
725993600,00000130,false,1,8,0F,80,32,7F,00,00,07,CD
725993800,00000140,false,1,8,E7,80,00,5D,20,00,07,A9
726003500,00000130,false,1,8,09,80,2A,7F,00,00,08,3C
726003800,00000140,false,1,8,ED,80,00,5D,20,00,08,7A
726013500,00000130,false,1,8,1B,80,16,7F,00,00,09,CF
726013800,00000140,false,1,8,E5,80,00,5D,20,00,09,B5
726023300,00000500,false,1,1,0C
726023600,00000130,false,1,8,2C,80,18,7F,00,00,0A,A6
726023800,00000140,false,1,8,DE,80,00,5D,20,00,0A,71
726024000,00000495,false,1,8,00,00,0A,0A,82,2D,EE,E4
726033500,00000130,false,1,8,27,80,0F,7F,00,00,0B,6B
726033700,00000140,false,1,8,DC,80,00,5D,20,00,0B,D6
726043500,00000130,false,1,8,27,80,0E,7F,00,00,0C,52
726043700,00000140,false,1,8,DE,80,00,5D,20,00,0C,3F
726053500,00000130,false,1,8,2C,80,10,7F,00,00,0D,82
726053700,00000140,false,1,8,E4,80,00,5D,20,00,0D,9C
726063500,00000130,false,1,8,26,80,06,7F,00,00,0E,42
726063700,00000140,false,1,8,E6,80,00,5D,20,00,0E,01
726073500,00000130,false,1,8,1E,80,09,7F,00,00,0F,27
726073700,00000140,false,1,8,F4,80,00,5D,20,00,0F,1F
726083400,00000130,false,1,8,1C,80,19,7F,00,00,00,C8
726083700,00000140,false,1,8,F8,80,00,5D,20,00,00,1F
726093400,00000130,false,1,8,19,80,24,7F,00,00,01,66
726093700,00000140,false,1,8,F4,80,00,5D,20,00,01,B9
726103400,00000130,false,1,8,23,80,2D,7F,00,00,02,E2
726103700,00000140,false,1,8,FA,80,00,5D,20,00,02,9F
726123400,000005A0,false,0,8,00,00,00,C0,20,42,97,0D
726113400,00000130,false,1,8,2B,80,32,7F,00,00,03,BF
726113700,00000140,false,1,8,FA,80,00,5D,20,00,03,82
726123300,00000500,false,1,1,0C
726123500,00000130,false,1,8,22,80,19,7F,00,00,04,6B
726123700,00000140,false,1,8,F0,80,00,5D,20,00,04,B9
726124000,00000495,false,1,8,00,00,0A,0A,82,2D,EE,E4
726133400,00000130,false,1,8,1B,80,0A,7F,00,00,05,7F
726133600,00000140,false,1,8,E5,80,00,5D,20,00,05,29
726143400,00000130,false,1,8,17,80,09,7F,00,00,06,5D
726143600,00000140,false,1,8,F4,80,00,5D,20,00,06,EA
726153400,00000130,false,1,8,15,80,11,7F,00,00,07,63
726153600,00000140,false,1,8,0D,81,00,5D,20,00,07,97
726163300,00000130,false,1,8,15,80,13,7F,00,00,08,0C
726163600,00000140,false,1,8,F2,80,00,5D,20,00,08,9F
726173300,00000130,false,1,8,15,80,12,7F,00,00,09,7B
726173600,00000140,false,1,8,E0,80,00,5D,20,00,09,81
726183300,00000130,false,1,8,17,80,1E,7F,00,00,0A,24
726183600,00000140,false,1,8,DE,80,00,5D,20,00,0A,71
726193300,00000130,false,1,8,13,80,2A,7F,00,00,0B,CA
726193500,00000140,false,1,8,EB,80,00,5D,20,00,0B,8E
726203300,00000130,false,1,8,11,80,2E,7F,00,00,0C,96
726203500,00000140,false,1,8,FC,80,00,5D,20,00,0C,EA
726213300,00000130,false,1,8,17,80,2F,7F,00,00,0D,32
726213500,00000140,false,1,8,04,81,00,5D,20,00,0D,CA
726223100,00000500,false,1,1,0C
726223400,00000130,false,1,8,21,80,29,7F,00,00,0E,71
726223600,00000140,false,1,8,F2,80,00,5D,20,00,0E,D1
726223800,00000495,false,1,8,00,00,0A,0A,82,2D,EE,E4
726233300,00000130,false,1,8,1A,80,25,7F,00,00,0F,4D
726233500,00000140,false,1,8,E2,80,00,5D,20,00,0F,75
726243200,00000130,false,1,8,10,80,24,7F,00,00,00,F4
726243500,00000140,false,1,8,E1,80,00,5D,20,00,00,29
726253200,00000130,false,1,8,01,80,29,7F,00,00,01,A5
726253500,00000140,false,1,8,E2,80,00,5D,20,00,01,D3
726263200,00000130,false,1,8,FD,7F,27,7F,00,00,02,8F
726263500,00000140,false,1,8,E9,80,00,5D,20,00,02,C1
726273200,00000130,false,1,8,0E,80,2B,7F,00,00,03,17
726273400,00000140,false,1,8,FD,80,00,5D,20,00,03,0C
726283200,00000130,false,1,8,14,80,29,7F,00,00,04,41
726283400,00000140,false,1,8,05,81,00,5D,20,00,04,62
726293200,00000130,false,1,8,15,80,24,7F,00,00,05,A9
726293400,00000140,false,1,8,EE,80,00,5D,20,00,05,1C
726303200,00000130,false,1,8,15,80,28,7F,00,00,06,4C
726303400,00000140,false,1,8,DA,80,00,5D,20,00,06,84
726313200,00000130,false,1,8,0E,80,31,7F,00,00,07,2E
726313400,00000140,false,1,8,DB,80,00,5D,20,00,07,C4
726323000,00000500,false,1,1,0C
726323300,00000130,false,1,8,13,80,36,7F,00,00,08,C1
726323500,00000140,false,1,8,E9,80,00,5D,20,00,08,13
726323700,00000495,false,1,8,00,00,0A,0A,82,2D,EE,E4
726333100,00000130,false,1,8,1C,80,2D,7F,00,00,09,A7
726333400,00000140,false,1,8,FA,80,00,5D,20,00,09,50
726343100,00000130,false,1,8,16,80,1B,7F,00,00,0A,A6
726343300,00000140,false,1,8,F2,80,00,5D,20,00,0A,A5
726353100,00000130,false,1,8,16,80,10,7F,00,00,0B,72
726353300,00000140,false,1,8,ED,80,00,5D,20,00,0B,5D
726363100,00000130,false,1,8,15,80,12,7F,00,00,0C,12
726363300,00000140,false,1,8,F6,80,00,5D,20,00,0C,82
726373100,00000130,false,1,8,0B,80,26,7F,00,00,0D,2D
726373300,00000140,false,1,8,F8,80,00,5D,20,00,0D,9E
726383100,00000130,false,1,8,04,80,35,7F,00,00,0E,06
726383300,00000140,false,1,8,01,81,00,5D,20,00,0E,D9
726393100,00000130,false,1,8,0F,80,26,7F,00,00,0F,7E
726393300,00000140,false,1,8,FC,80,00,5D,20,00,0F,CD
726403000,00000130,false,1,8,19,80,0F,7F,00,00,00,73
726403300,00000140,false,1,8,E5,80,00,5D,20,00,00,40
726413000,00000130,false,1,8,1D,80,15,7F,00,00,01,4A
726413300,00000140,false,1,8,E0,80,00,5D,20,00,01,69
726422800,00000500,false,1,1,0C
726423100,00000130,false,1,8,1B,80,1D,7F,00,00,02,C9
726423300,00000140,false,1,8,F1,80,00,5D,20,00,02,AA
726423500,00000495,false,1,8,00,00,0A,0A,82,2D,EE,E4
726433000,00000130,false,1,8,1F,80,20,7F,00,00,03,3A
726433300,00000140,false,1,8,FB,80,00,5D,20,00,03,DF
726443000,00000130,false,1,8,14,80,24,7F,00,00,04,E9
726443200,00000140,false,1,8,F0,80,00,5D,20,00,04,B9
726453000,00000130,false,1,8,13,80,2A,7F,00,00,05,6C
726453200,00000140,false,1,8,F5,80,00,5D,20,00,05,90
726463000,00000130,false,1,8,1B,80,29,7F,00,00,06,27
726463200,00000140,false,1,8,F2,80,00,5D,20,00,06,39
726473000,00000130,false,1,8,15,80,1A,7F,00,00,07,AA
726473200,00000140,false,1,8,E1,80,00,5D,20,00,07,7A
726482900,00000130,false,1,8,11,80,1C,7F,00,00,08,19
726483200,00000140,false,1,8,DF,80,00,5D,20,00,08,16
726492900,00000130,false,1,8,1D,80,17,7F,00,00,09,76
726493200,00000140,false,1,8,F8,80,00,5D,20,00,09,EA
726502900,00000130,false,1,8,23,80,1A,7F,00,00,0A,2E
726503200,00000140,false,1,8,02,81,00,5D,20,00,0A,4A
726512900,00000130,false,1,8,22,80,28,7F,00,00,0B,95
726513200,00000140,false,1,8,FB,80,00,5D,20,00,0B,37
726522800,00000500,false,1,1,0C
726523000,00000130,false,1,8,19,80,34,7F,00,00,0C,09
726523200,00000140,false,1,8,F4,80,00,5D,20,00,0C,38
726523500,00000495,false,1,8,00,00,0A,0A,82,2D,EE,E4
726532900,00000130,false,1,8,15,80,27,7F,00,00,0D,FF
726533100,00000140,false,1,8,F4,80,00,5D,20,00,0D,25
726542900,00000130,false,1,8,10,80,1C,7F,00,00,0E,0A
726543100,00000140,false,1,8,F1,80,00,5D,20,00,0E,36
726552900,00000130,false,1,8,0E,80,12,7F,00,00,0F,B9
726553100,00000140,false,1,8,EE,80,00,5D,20,00,0F,CE
726562800,00000130,false,1,8,11,80,07,7F,00,00,00,D6
726563100,00000140,false,1,8,FF,80,00,5D,20,00,00,91
726572800,00000130,false,1,8,21,80,0A,7F,00,00,01,B5
726573100,00000140,false,1,8,04,81,00,5D,20,00,01,56
726582800,00000130,false,1,8,2D,80,0A,7F,00,00,02,29
726583100,00000140,false,1,8,EC,80,00,5D,20,00,02,F5
726592800,00000130,false,1,8,27,80,07,7F,00,00,03,F4
726593000,00000140,false,1,8,DD,80,00,5D,20,00,03,63
726602800,00000130,false,1,8,26,80,10,7F,00,00,04,1F
726603000,00000140,false,1,8,E7,80,00,5D,20,00,04,8E
726612800,00000130,false,1,8,2C,80,0D,7F,00,00,05,2C
726613100,00000140,false,1,8,E1,80,00,5D,20,00,05,40
726622600,00000500,false,1,1,0C
726622800,00000130,false,1,8,1C,80,FF,7E,00,00,06,07
726623100,00000140,false,1,8,DF,80,00,5D,20,00,06,B0
726623300,00000495,false,1,8,00,00,0A,0A,82,2D,EE,E4
726632800,00000130,false,1,8,12,80,14,7F,00,00,07,32
726633000,00000140,false,1,8,E8,80,00,5D,20,00,07,F5
726642700,00000130,false,1,8,0D,80,1D,7F,00,00,08,71
726643000,00000140,false,1,8,EF,80,00,5D,20,00,08,C0
726652700,00000130,false,1,8,12,80,12,7F,00,00,09,F5
726653000,00000140,false,1,8,FA,80,00,5D,20,00,09,50
726662700,00000130,false,1,8,1C,80,10,7F,00,00,0A,07
726663000,00000140,false,1,8,09,81,00,5D,20,00,0A,7F
726672700,00000130,false,1,8,1A,80,13,7F,00,00,0B,77
726672900,00000140,false,1,8,08,81,00,5D,20,00,0B,3F
726682700,00000130,false,1,8,1A,80,1A,7F,00,00,0C,39
726682900,00000140,false,1,8,FA,80,00,5D,20,00,0C,39
726692700,00000130,false,1,8,12,80,FF,7E,00,00,0D,C9
726692900,00000140,false,1,8,E8,80,00,5D,20,00,0D,27
726702700,00000130,false,1,8,0F,80,FD,7E,00,00,0E,65
726702900,00000140,false,1,8,EA,80,00,5D,20,00,0E,BA
726712700,00000130,false,1,8,1E,80,26,7F,00,00,0F,9A
726712900,00000140,false,1,8,EA,80,00,5D,20,00,0F,A7
726722500,00000500,false,1,1,0C
726722700,00000130,false,1,8,20,80,3A,7F,00,00,00,DA
726722900,00000140,false,1,8,D9,80,00,5D,20,00,00,2D
726723200,00000495,false,1,8,00,00,0A,0A,82,2D,EE,E4
726732600,00000130,false,1,8,1C,80,28,7F,00,00,01,90
726732900,00000140,false,1,8,DE,80,00,5D,20,00,01,BE
726742600,00000130,false,1,8,25,80,21,7F,00,00,02,F3
726742900,00000140,false,1,8,EA,80,00,5D,20,00,02,26
726752600,00000130,false,1,8,1E,80,2C,7F,00,00,03,A5
726752800,00000140,false,1,8,E9,80,00,5D,20,00,03,DC
726762600,00000130,false,1,8,16,80,23,7F,00,00,04,58
726762800,00000140,false,1,8,F1,80,00,5D,20,00,04,E4
726772600,00000130,false,1,8,15,80,1D,7F,00,00,05,9B
726772800,00000140,false,1,8,ED,80,00,5D,20,00,05,FB
726782600,00000130,false,1,8,17,80,26,7F,00,00,06,E0
726782800,00000140,false,1,8,F8,80,00,5D,20,00,06,51
726792600,00000130,false,1,8,17,80,28,7F,00,00,07,EB
726792800,00000140,false,1,8,0C,81,00,5D,20,00,07,CA
726802500,00000130,false,1,8,0D,80,2E,7F,00,00,08,E0
726802800,00000140,false,1,8,FD,80,00,5D,20,00,08,C3
726812500,00000130,false,1,8,10,80,30,7F,00,00,09,5A
726812800,00000140,false,1,8,F6,80,00,5D,20,00,09,EB
726822400,00000500,false,1,1,0C
726822600,00000130,false,1,8,18,80,30,7F,00,00,0A,AF
726822900,00000140,false,1,8,F9,80,00,5D,20,00,0A,90
726823100,00000495,false,1,8,00,00,0A,0A,82,2D,EE,E4
726832500,00000130,false,1,8,19,80,2C,7F,00,00,0B,C3
726832800,00000140,false,1,8,F4,80,00,5D,20,00,0B,6B
726842500,00000130,false,1,8,13,80,26,7F,00,00,0C,5B
726842700,00000140,false,1,8,F5,80,00,5D,20,00,0C,65
726852500,00000130,false,1,8,09,80,24,7F,00,00,0D,43
726852700,00000140,false,1,8,F4,80,00,5D,20,00,0D,25
726862500,00000130,false,1,8,0B,80,34,7F,00,00,0E,30
726862700,00000140,false,1,8,F1,80,00,5D,20,00,0E,36
726872500,00000130,false,1,8,1C,80,42,7F,00,00,0F,CB
726872700,00000140,false,1,8,EE,80,00,5D,20,00,0F,CE
726882500,00000130,false,1,8,1B,80,36,7F,00,00,00,FB
726882700,00000140,false,1,8,06,81,00,5D,20,00,00,F1
726892400,00000130,false,1,8,18,80,31,7F,00,00,01,0A
726892700,00000140,false,1,8,0F,81,00,5D,20,00,01,63
726902400,00000130,false,1,8,16,80,30,7F,00,00,02,46
726902700,00000140,false,1,8,EB,80,00,5D,20,00,02,7B
726912400,00000130,false,1,8,17,80,2E,7F,00,00,03,FE
726912700,00000140,false,1,8,E7,80,00,5D,20,00,03,DD
726922200,00000500,false,1,1,0C
726922400,00000130,false,1,8,1C,80,31,7F,00,00,04,0A
726922700,00000140,false,1,8,F9,80,00,5D,20,00,04,36
726922900,00000495,false,1,8,00,00,0A,0A,82,2D,EE,E4
726932400,00000130,false,1,8,17,80,31,7F,00,00,05,22
726932600,00000140,false,1,8,F1,80,00,5D,20,00,05,F9
726942400,00000130,false,1,8,19,80,2B,7F,00,00,06,49
726942600,00000140,false,1,8,E2,80,00,5D,20,00,06,80
726952400,00000130,false,1,8,20,80,18,7F,00,00,07,9C
726952600,00000140,false,1,8,DE,80,00,5D,20,00,07,F0
726962300,00000130,false,1,8,20,80,16,7F,00,00,08,31
726962600,00000140,false,1,8,EE,80,00,5D,20,00,08,9D
726972300,00000130,false,1,8,23,80,25,7F,00,00,09,5A
726972600,00000140,false,1,8,F9,80,00,5D,20,00,09,B7
726982300,00000130,false,1,8,14,80,33,7F,00,00,0A,AA
726982600,00000140,false,1,8,EE,80,00,5D,20,00,0A,A7
726992300,00000130,false,1,8,13,80,33,7F,00,00,0B,39
726992500,00000140,false,1,8,EF,80,00,5D,20,00,0B,E7
727002300,00000130,false,1,8,1A,80,34,7F,00,00,0C,EE
727002500,00000140,false,1,8,F5,80,00,5D,20,00,0C,65
727012300,00000130,false,1,8,19,80,1F,7F,00,00,0D,1C
727012500,00000140,false,1,8,F3,80,00,5D,20,00,0D,AB
727022100,00000500,false,1,1,0D
727022400,00000130,false,1,8,1E,80,16,7F,00,00,0E,A8
727022600,00000140,false,1,8,E7,80,00,5D,20,00,0E,5C
727022900,00000495,false,1,8,00,00,0A,0A,82,2D,EE,E4
727032300,00000130,false,1,8,28,80,1E,7F,00,00,0F,C7
727032500,00000140,false,1,8,DE,80,00,5D,20,00,0F,18
727042200,00000130,false,1,8,1D,80,2A,7F,00,00,00,04
727042500,00000140,false,1,8,DE,80,00,5D,20,00,00,A3
727052200,00000130,false,1,8,17,80,26,7F,00,00,01,B3
727052500,00000140,false,1,8,E9,80,00,5D,20,00,01,E6
727062200,00000130,false,1,8,20,80,2D,7F,00,00,02,05
727062500,00000140,false,1,8,E9,80,00,5D,20,00,02,C1
727072200,00000130,false,1,8,1D,80,28,7F,00,00,03,F7
727072500,00000140,false,1,8,ED,80,00,5D,20,00,03,B5
727082200,00000130,false,1,8,1D,80,2B,7F,00,00,04,1A
727082400,00000140,false,1,8,E6,80,00,5D,20,00,04,D3
727092200,00000130,false,1,8,25,80,29,7F,00,00,05,D7
727092400,00000140,false,1,8,D6,80,00,5D,20,00,05,18
727102200,00000130,false,1,8,27,80,22,7F,00,00,06,83
727102400,00000140,false,1,8,E4,80,00,5D,20,00,06,53
727112200,00000130,false,1,8,27,80,1C,7F,00,00,07,A7
727112400,00000140,false,1,8,FB,80,00,5D,20,00,07,AB
727122200,000005A0,false,0,8,00,00,00,C0,21,34,93,0D
727122000,00000500,false,1,1,0D
727122300,00000130,false,1,8,21,80,1F,7F,00,00,08,71
727122500,00000140,false,1,8,FE,80,00,5D,20,00,08,24
727122700,00000495,false,1,8,00,00,0A,0A,82,2D,EE,E4
727132200,00000130,false,1,8,18,80,12,7F,00,00,09,9D
727132400,00000140,false,1,8,FB,80,00,5D,20,00,09,0D
727142100,00000130,false,1,8,1A,80,11,7F,00,00,0A,BE
727142400,00000140,false,1,8,F5,80,00,5D,20,00,0A,2B
727152100,00000130,false,1,8,21,80,1A,7F,00,00,0B,89
727152300,00000140,false,1,8,F9,80,00,5D,20,00,0B,8D
727162100,00000130,false,1,8,19,80,1B,7F,00,00,0C,B4
727162300,00000140,false,1,8,FB,80,00,5D,20,00,0C,64
727172100,00000130,false,1,8,16,80,03,7F,00,00,0D,6C
727172300,00000140,false,1,8,F3,80,00,5D,20,00,0D,AB
727182100,00000130,false,1,8,24,80,EF,7E,00,00,0E,05
727182300,00000140,false,1,8,F6,80,00,5D,20,00,0E,B8
727192100,00000130,false,1,8,2A,80,01,7F,00,00,0F,EF
727192300,00000140,false,1,8,DB,80,00,5D,20,00,0F,2C
727202000,00000130,false,1,8,20,80,2C,7F,00,00,00,55
727202300,00000140,false,1,8,C8,80,00,5D,20,00,00,C9
727212000,00000130,false,1,8,0F,80,24,7F,00,00,01,0C
727212300,00000140,false,1,8,CF,80,00,5D,20,00,01,5A
727221800,00000500,false,1,1,0D
727222100,00000130,false,1,8,0D,80,21,7F,00,00,02,4E
727222300,00000140,false,1,8,D6,80,00,5D,20,00,02,4B
727222500,00000495,false,1,8,00,00,0A,0A,82,2D,EE,E4
727232000,00000130,false,1,8,15,80,33,7F,00,00,03,02
727232300,00000140,false,1,8,E1,80,00,5D,20,00,03,0E
727242000,00000130,false,1,8,2A,80,33,7F,00,00,04,DB
727242200,00000140,false,1,8,ED,80,00,5D,20,00,04,E6
727252000,00000130,false,1,8,26,80,25,7F,00,00,05,F2
727252200,00000140,false,1,8,F6,80,00,5D,20,00,05,77
727262000,00000130,false,1,8,17,80,11,7F,00,00,06,C4
727262200,00000140,false,1,8,FB,80,00,5D,20,00,06,B6
727272000,00000130,false,1,8,17,80,1C,7F,00,00,07,71
727272200,00000140,false,1,8,E9,80,00,5D,20,00,07,A8
727282000,00000130,false,1,8,1D,80,1D,7F,00,00,08,C8
727282200,00000140,false,1,8,FB,80,00,5D,20,00,08,10
727291900,00000130,false,1,8,1A,80,1D,7F,00,00,09,5B
727292200,00000140,false,1,8,03,81,00,5D,20,00,09,30
727301900,00000130,false,1,8,24,80,27,7F,00,00,0A,27
727302200,00000140,false,1,8,FB,80,00,5D,20,00,0A,2A
727311900,00000130,false,1,8,2A,80,31,7F,00,00,0B,B4
727312100,00000140,false,1,8,02,81,00,5D,20,00,0B,57
727321800,00000500,false,1,1,0D
727322000,00000130,false,1,8,22,80,23,7F,00,00,0C,0F
727322200,00000140,false,1,8,09,81,00,5D,20,00,0C,31
727322500,00000495,false,1,8,00,00,0A,0A,82,2D,EE,E4
727331900,00000130,false,1,8,1D,80,10,7F,00,00,0D,09
727332100,00000140,false,1,8,F3,80,00,5D,20,00,0D,AB
727341900,00000130,false,1,8,1A,80,20,7F,00,00,0E,8F
727342100,00000140,false,1,8,DF,80,00,5D,20,00,0E,58
727351900,00000130,false,1,8,1D,80,2A,7F,00,00,0F,BF
727352100,00000140,false,1,8,E3,80,00,5D,20,00,0F,28
727361900,00000130,false,1,8,2A,80,23,7F,00,00,00,41
727362100,00000140,false,1,8,E6,80,00,5D,20,00,00,A7
727371900,00000130,false,1,8,2D,80,31,7F,00,00,01,E8
727372100,00000140,false,1,8,E2,80,00,5D,20,00,01,D3
727381800,00000130,false,1,8,1D,80,39,7F,00,00,02,6E
727382100,00000140,false,1,8,E0,80,00,5D,20,00,02,4E
727391800,00000130,false,1,8,17,80,28,7F,00,00,03,9F
727392100,00000140,false,1,8,E0,80,00,5D,20,00,03,53
727401800,00000130,false,1,8,20,80,22,7F,00,00,04,37
727402000,00000140,false,1,8,EF,80,00,5D,20,00,04,5C
727411800,00000130,false,1,8,21,80,19,7F,00,00,05,91
727412000,00000140,false,1,8,01,81,00,5D,20,00,05,16
727421700,00000500,false,1,1,0D
727421900,00000130,false,1,8,25,80,1E,7F,00,00,06,D4
727422100,00000140,false,1,8,F4,80,00,5D,20,00,06,EA
727422400,00000495,false,1,8,00,00,0A,0A,82,2D,EE,E4
727431800,00000130,false,1,8,2B,80,2B,7F,00,00,07,38
727432000,00000140,false,1,8,E5,80,00,5D,20,00,07,13
727441800,00000130,false,1,8,28,80,39,7F,00,00,08,5E
727442000,00000140,false,1,8,E9,80,00,5D,20,00,08,13
727451800,00000130,false,1,8,19,80,3A,7F,00,00,09,76
727452000,00000140,false,1,8,F6,80,00,5D,20,00,09,EB
727461700,00000130,false,1,8,18,80,2F,7F,00,00,0A,3D
727462000,00000140,false,1,8,EC,80,00,5D,20,00,0A,1D
727471700,00000130,false,1,8,1D,80,26,7F,00,00,0B,09
727472000,00000140,false,1,8,E5,80,00,5D,20,00,0B,8F
727481700,00000130,false,1,8,23,80,32,7F,00,00,0C,D6
727481900,00000140,false,1,8,E7,80,00,5D,20,00,0C,66
727491800,00000130,false,1,8,28,80,30,7F,00,00,0D,2A
727492000,00000140,false,1,8,F5,80,00,5D,20,00,0D,78
727501800,00000130,false,1,8,2B,80,1C,7F,00,00,0E,E9
727502000,00000140,false,1,8,F5,80,00,5D,20,00,0E,5F
727511800,00000130,false,1,8,2C,80,1B,7F,00,00,0F,71
727512000,00000140,false,1,8,F6,80,00,5D,20,00,0F,A5
727521600,00000500,false,1,1,0D
727521900,00000130,false,1,8,26,80,0F,7F,00,00,00,F9
727522100,00000140,false,1,8,FE,80,00,5D,20,00,00,CC
727522400,00000495,false,1,8,00,00,0A,0A,82,2D,EE,E4
727531800,00000130,false,1,8,1C,80,14,7F,00,00,01,7D
727532000,00000140,false,1,8,F7,80,00,5D,20,00,01,5E
727541800,00000130,false,1,8,23,80,2B,7F,00,00,02,83
727542000,00000140,false,1,8,E5,80,00,5D,20,00,02,7A
727551700,00000130,false,1,8,2B,80,36,7F,00,00,03,0A
727552000,00000140,false,1,8,E8,80,00,5D,20,00,03,81
727561700,00000130,false,1,8,26,80,34,7F,00,00,04,6B
727562000,00000140,false,1,8,E9,80,00,5D,20,00,04,8F
727571700,00000130,false,1,8,20,80,28,7F,00,00,05,89
727571900,00000140,false,1,8,E7,80,00,5D,20,00,05,93
727581700,00000130,false,1,8,1F,80,1E,7F,00,00,06,6A
727581900,00000140,false,1,8,EE,80,00,5D,20,00,06,3B
727591700,00000130,false,1,8,23,80,1E,7F,00,00,07,1A
727591900,00000140,false,1,8,05,81,00,5D,20,00,07,45
727601700,00000130,false,1,8,35,80,15,7F,00,00,08,02
727601900,00000140,false,1,8,02,81,00,5D,20,00,08,70
727611700,00000130,false,1,8,35,80,0A,7F,00,00,09,8D
727611900,00000140,false,1,8,F9,80,00,5D,20,00,09,B7
727621500,00000500,false,1,1,0D
727621800,00000130,false,1,8,24,80,06,7F,00,00,0A,8C
727622000,00000140,false,1,8,F7,80,00,5D,20,00,0A,91
727622200,00000495,false,1,8,00,00,0A,0A,82,2D,EE,E4
727631600,00000130,false,1,8,18,80,0C,7F,00,00,0B,5F
727631900,00000140,false,1,8,FA,80,00,5D,20,00,0B,6A
727641600,00000130,false,1,8,13,80,11,7F,00,00,0C,7F
727641900,00000140,false,1,8,07,81,00,5D,20,00,0C,30
727651600,00000130,false,1,8,1B,80,20,7F,00,00,0D,F5
727651900,00000140,false,1,8,F6,80,00,5D,20,00,0D,9F
727661600,00000130,false,1,8,20,80,24,7F,00,00,0E,84
727661800,00000140,false,1,8,F4,80,00,5D,20,00,0E,02
727671600,00000130,false,1,8,23,80,23,7F,00,00,0F,75
727671800,00000140,false,1,8,FC,80,00,5D,20,00,0F,CD
727681600,00000130,false,1,8,21,80,27,7F,00,00,00,C1
727681800,00000140,false,1,8,FD,80,00,5D,20,00,00,2B
727691600,00000130,false,1,8,15,80,22,7F,00,00,01,BC
727691800,00000140,false,1,8,EE,80,00,5D,20,00,01,68
727701600,00000130,false,1,8,10,80,28,7F,00,00,02,0C
727701800,00000140,false,1,8,E9,80,00,5D,20,00,02,C1
727711500,00000130,false,1,8,11,80,28,7F,00,00,03,4C
727711800,00000140,false,1,8,F6,80,00,5D,20,00,03,39
727721400,00000500,false,1,1,0D
727721600,00000130,false,1,8,12,80,29,7F,00,00,04,92
727721900,00000140,false,1,8,F7,80,00,5D,20,00,04,37
727722100,00000495,false,1,8,00,00,0A,0A,82,2D,EE,E4
727731500,00000130,false,1,8,12,80,3C,7F,00,00,05,BE
727731800,00000140,false,1,8,ED,80,00,5D,20,00,05,FB
727741500,00000130,false,1,8,17,80,3F,7F,00,00,06,13
727741700,00000140,false,1,8,DD,80,00,5D,20,00,06,0A
727751500,00000130,false,1,8,13,80,2F,7F,00,00,07,89
727751700,00000140,false,1,8,EF,80,00,5D,20,00,07,7B
727761500,00000130,false,1,8,1A,80,23,7F,00,00,08,7F
727761700,00000140,false,1,8,FF,80,00,5D,20,00,08,79
727771500,00000130,false,1,8,27,80,12,7F,00,00,09,17
727771700,00000140,false,1,8,FA,80,00,5D,20,00,09,50
727781500,00000130,false,1,8,26,80,1B,7F,00,00,0A,70
727781700,00000140,false,1,8,F2,80,00,5D,20,00,0A,A5
727791400,00000130,false,1,8,22,80,2D,7F,00,00,0B,4A
727791700,00000140,false,1,8,F2,80,00,5D,20,00,0B,B8
727801500,00000130,false,1,8,20,80,1F,7F,00,00,0C,58
727801700,00000140,false,1,8,F6,80,00,5D,20,00,0C,82
727811600,00000130,false,1,8,1A,80,13,7F,00,00,0D,39
727811800,00000140,false,1,8,FA,80,00,5D,20,00,0D,24
727821300,00000500,false,1,1,0D
727821500,00000130,false,1,8,1B,80,21,7F,00,00,0E,B8
727821700,00000140,false,1,8,FA,80,00,5D,20,00,0E,03
727822000,00000495,false,1,8,00,00,0A,0A,82,2D,EE,E4
727831400,00000130,false,1,8,22,80,17,7F,00,00,0F,B2
727831600,00000140,false,1,8,FF,80,00,5D,20,00,0F,2A
727841400,00000130,false,1,8,25,80,16,7F,00,00,00,ED
727841600,00000140,false,1,8,F9,80,00,5D,20,00,00,42
727851400,00000130,false,1,8,26,80,36,7F,00,00,01,D6
727851600,00000140,false,1,8,EB,80,00,5D,20,00,01,5C
727861400,00000130,false,1,8,20,80,55,7F,00,00,02,C2
727861600,00000140,false,1,8,EB,80,00,5D,20,00,02,7B
727871300,00000130,false,1,8,14,80,3F,7F,00,00,03,9D
727871600,00000140,false,1,8,FC,80,00,5D,20,00,03,51
727881300,00000130,false,1,8,10,80,1A,7F,00,00,04,B9
727881600,00000140,false,1,8,01,81,00,5D,20,00,04,0B
727891300,00000130,false,1,8,0E,80,1B,7F,00,00,05,76
727891600,00000140,false,1,8,FA,80,00,5D,20,00,05,CC
727901300,00000130,false,1,8,15,80,35,7F,00,00,06,0A
727901500,00000140,false,1,8,0B,81,00,5D,20,00,06,59
727911300,00000130,false,1,8,11,80,36,7F,00,00,07,C0
727911500,00000140,false,1,8,0B,81,00,5D,20,00,07,44
727921200,00000500,false,1,1,0D
727921400,00000130,false,1,8,15,80,23,7F,00,00,08,23
727921600,00000140,false,1,8,FB,80,00,5D,20,00,08,10
727921900,00000495,false,1,8,00,00,0A,0A,82,2D,EE,E4
727931300,00000130,false,1,8,13,80,1D,7F,00,00,09,D4
727931500,00000140,false,1,8,F8,80,00,5D,20,00,09,EA
727941300,00000130,false,1,8,0E,80,17,7F,00,00,0A,0F
727941500,00000140,false,1,8,FA,80,00,5D,20,00,0A,77
727951200,00000130,false,1,8,0F,80,2B,7F,00,00,0B,A2
727951500,00000140,false,1,8,FA,80,00,5D,20,00,0B,6A
727961200,00000130,false,1,8,0F,80,2A,7F,00,00,0C,9B
727961500,00000140,false,1,8,F2,80,00,5D,20,00,0C,EB
727971200,00000130,false,1,8,09,80,1F,7F,00,00,0D,A5
727971500,00000140,false,1,8,E5,80,00,5D,20,00,0D,C1
727981200,00000130,false,1,8,0C,80,27,7F,00,00,0E,EE
727981400,00000140,false,1,8,ED,80,00,5D,20,00,0E,34
727991200,00000130,false,1,8,10,80,1F,7F,00,00,0F,A9
727991400,00000140,false,1,8,F4,80,00,5D,20,00,0F,1F
728001200,00000130,false,1,8,15,80,1D,7F,00,00,00,F2
728001500,00000140,false,1,8,F1,80,00,5D,20,00,00,90
728011300,00000130,false,1,8,13,80,1B,7F,00,00,01,5D
728011600,00000140,false,1,8,EC,80,00,5D,20,00,01,D2
728021000,00000500,false,1,1,0C
728021300,00000130,false,1,8,18,80,16,7F,00,00,02,E7
728021500,00000140,false,1,8,06,81,00,5D,20,00,02,CB
728021700,00000495,false,1,8,00,00,0A,0A,82,2D,EE,E4
728031200,00000130,false,1,8,18,80,07,7F,00,00,03,7E
728031400,00000140,false,1,8,0B,81,00,5D,20,00,03,30
728041100,00000130,false,1,8,12,80,08,7F,00,00,04,39
728041400,00000140,false,1,8,F4,80,00,5D,20,00,04,D0
728051100,00000130,false,1,8,11,80,0D,7F,00,00,05,1C
728051400,00000140,false,1,8,E6,80,00,5D,20,00,05,CE
728061100,00000130,false,1,8,17,80,FC,7E,00,00,06,8C
728061300,00000140,false,1,8,E5,80,00,5D,20,00,06,0E
728071100,00000130,false,1,8,20,80,06,7F,00,00,07,64
728071300,00000140,false,1,8,E9,80,00,5D,20,00,07,A8
728081100,00000130,false,1,8,23,80,16,7F,00,00,08,D6
728081300,00000140,false,1,8,E4,80,00,5D,20,00,08,F5
728091100,00000130,false,1,8,21,80,26,7F,00,00,09,5E
728091300,00000140,false,1,8,F4,80,00,5D,20,00,09,51
728101100,00000130,false,1,8,12,80,3C,7F,00,00,0A,05
728101300,00000140,false,1,8,F6,80,00,5D,20,00,0A,CC
728121200,000005A0,false,0,8,00,00,00,C0,20,10,94,0D
728111100,00000130,false,1,8,0E,80,3B,7F,00,00,0B,11
728111300,00000140,false,1,8,EE,80,00,5D,20,00,0B,BA
728120900,00000500,false,1,1,0C
728121100,00000130,false,1,8,11,80,3B,7F,00,00,0C,A7
728121400,00000140,false,1,8,E2,80,00,5D,20,00,0C,52
728121600,00000495,false,1,8,00,00,0A,0A,82,2D,EE,E4
728131000,00000130,false,1,8,0E,80,3C,7F,00,00,0D,54
728131300,00000140,false,1,8,DA,80,00,5D,20,00,0D,4B
728141000,00000130,false,1,8,16,80,37,7F,00,00,0E,D1
728141200,00000140,false,1,8,E3,80,00,5D,20,00,0E,35
728151000,00000130,false,1,8,1C,80,37,7F,00,00,0F,A4
728151200,00000140,false,1,8,FC,80,00,5D,20,00,0F,CD
728161000,00000130,false,1,8,1A,80,35,7F,00,00,00,18
728161200,00000140,false,1,8,FC,80,00,5D,20,00,00,76
728171000,00000130,false,1,8,14,80,36,7F,00,00,01,BA
728171200,00000140,false,1,8,06,81,00,5D,20,00,01,EC
728181000,00000130,false,1,8,0F,80,24,7F,00,00,02,2B
728181200,00000140,false,1,8,09,81,00,5D,20,00,02,97
728190900,00000130,false,1,8,0F,80,13,7F,00,00,03,12
728191200,00000140,false,1,8,FE,80,00,5D,20,00,03,EB
728201000,00000130,false,1,8,11,80,0F,7F,00,00,04,D5
728201200,00000140,false,1,8,00,81,00,5D,20,00,04,56
728211100,00000130,false,1,8,17,80,15,7F,00,00,05,56
728211300,00000140,false,1,8,F2,80,00,5D,20,00,05,1E
728220800,00000500,false,1,1,0C
728221000,00000130,false,1,8,1B,80,23,7F,00,00,06,84
728221200,00000140,false,1,8,F1,80,00,5D,20,00,06,DE
728221500,00000495,false,1,8,00,00,0A,0A,82,2D,EE,E4
728230900,00000130,false,1,8,18,80,25,7F,00,00,07,1F
728231100,00000140,false,1,8,FA,80,00,5D,20,00,07,F6
728240900,00000130,false,1,8,16,80,28,7F,00,00,08,0D
728241100,00000140,false,1,8,0A,81,00,5D,20,00,08,A2
728250900,00000130,false,1,8,10,80,2A,7F,00,00,09,17
728251100,00000140,false,1,8,0F,81,00,5D,20,00,09,8B
728260900,00000130,false,1,8,0D,80,32,7F,00,00,0A,F6
728261100,00000140,false,1,8,F8,80,00,5D,20,00,0A,CD
728270800,00000130,false,1,8,04,80,38,7F,00,00,0B,C7
728271100,00000140,false,1,8,F1,80,00,5D,20,00,0B,5F
728280800,00000130,false,1,8,0F,80,2D,7F,00,00,0C,90
728281100,00000140,false,1,8,F4,80,00,5D,20,00,0C,38
728290800,00000130,false,1,8,14,80,18,7F,00,00,0D,F1
728291100,00000140,false,1,8,E7,80,00,5D,20,00,0D,7B
728300800,00000130,false,1,8,12,80,FB,7E,00,00,0E,5B
728301100,00000140,false,1,8,DC,80,00,5D,20,00,0E,BF
728310800,00000130,false,1,8,08,80,FB,7E,00,00,0F,97
728311000,00000140,false,1,8,E1,80,00,5D,20,00,0F,92
728320700,00000500,false,1,1,0C
728320900,00000130,false,1,8,0C,80,06,7F,00,00,00,E3
728321100,00000140,false,1,8,E0,80,00,5D,20,00,00,74
728321400,00000495,false,1,8,00,00,0A,0A,82,2D,EE,E4
728330800,00000130,false,1,8,20,80,18,7F,00,00,01,D2
728331000,00000140,false,1,8,E1,80,00,5D,20,00,01,34
728340800,00000130,false,1,8,24,80,2A,7F,00,00,02,67
728341000,00000140,false,1,8,DD,80,00,5D,20,00,02,7E
728350700,00000130,false,1,8,1C,80,2D,7F,00,00,03,75
728351000,00000140,false,1,8,E9,80,00,5D,20,00,03,DC
728360700,00000130,false,1,8,16,80,28,7F,00,00,04,91
728361000,00000140,false,1,8,EF,80,00,5D,20,00,04,5C
728370700,00000130,false,1,8,19,80,2B,7F,00,00,05,6E
728371000,00000140,false,1,8,E7,80,00,5D,20,00,05,93
728380700,00000130,false,1,8,16,80,28,7F,00,00,06,AB
728380900,00000140,false,1,8,FA,80,00,5D,20,00,06,EB
728390700,00000130,false,1,8,11,80,2B,7F,00,00,07,86
728390900,00000140,false,1,8,04,81,00,5D,20,00,07,18
728400800,00000130,false,1,8,16,80,1F,7F,00,00,08,29
728401100,00000140,false,1,8,01,81,00,5D,20,00,08,97
728410800,00000130,false,1,8,1E,80,15,7F,00,00,09,45
728411100,00000140,false,1,8,EC,80,00,5D,20,00,09,3A
728420500,00000500,false,1,1,0C
728420800,00000130,false,1,8,1A,80,0D,7F,00,00,0A,92
728421000,00000140,false,1,8,E7,80,00,5D,20,00,0A,28
728421200,00000495,false,1,8,00,00,0A,0A,82,2D,EE,E4
728430700,00000130,false,1,8,1F,80,1B,7F,00,00,0B,34
728430900,00000140,false,1,8,F3,80,00,5D,20,00,0B,E5
728440600,00000130,false,1,8,27,80,25,7F,00,00,0C,5A
728440900,00000140,false,1,8,FF,80,00,5D,20,00,0C,0D
728450600,00000130,false,1,8,19,80,30,7F,00,00,0D,A1
728450900,00000140,false,1,8,F3,80,00,5D,20,00,0D,AB
728460600,00000130,false,1,8,1C,80,38,7F,00,00,0E,C5
728460800,00000140,false,1,8,E4,80,00,5D,20,00,0E,BB
728470600,00000130,false,1,8,24,80,3E,7F,00,00,0F,BD
728470800,00000140,false,1,8,EB,80,00,5D,20,00,0F,FA
728480600,00000130,false,1,8,29,80,2B,7F,00,00,00,D1
728480800,00000140,false,1,8,F9,80,00,5D,20,00,00,42
728490600,00000130,false,1,8,20,80,1E,7F,00,00,01,B3
728490800,00000140,false,1,8,F6,80,00,5D,20,00,01,03
728500600,00000130,false,1,8,19,80,0B,7F,00,00,02,FC
728500800,00000140,false,1,8,F0,80,00,5D,20,00,02,F7
728510500,00000130,false,1,8,16,80,07,7F,00,00,03,7F
728510800,00000140,false,1,8,F6,80,00,5D,20,00,03,39
728520400,00000500,false,1,1,0C
728520700,00000130,false,1,8,1C,80,1B,7F,00,00,04,68
728520900,00000140,false,1,8,ED,80,00,5D,20,00,04,E6
728521100,00000495,false,1,8,00,00,0A,0A,82,2D,EE,E4
728530500,00000130,false,1,8,25,80,33,7F,00,00,05,9A
728530800,00000140,false,1,8,E1,80,00,5D,20,00,05,40
728540500,00000130,false,1,8,1B,80,30,7F,00,00,06,D4
728540700,00000140,false,1,8,EC,80,00,5D,20,00,06,81
728550500,00000130,false,1,8,12,80,27,7F,00,00,07,A3
728550700,00000140,false,1,8,F3,80,00,5D,20,00,07,79
728560500,00000130,false,1,8,14,80,1D,7F,00,00,08,47
728560700,00000140,false,1,8,F0,80,00,5D,20,00,08,25
728570500,00000130,false,1,8,0D,80,14,7F,00,00,09,71
728570700,00000140,false,1,8,E8,80,00,5D,20,00,09,53
728580500,00000130,false,1,8,0B,80,1C,7F,00,00,0A,F2
728580700,00000140,false,1,8,E6,80,00,5D,20,00,0A,75
728590500,00000130,false,1,8,11,80,30,7F,00,00,0B,3D
728590700,00000140,false,1,8,DC,80,00,5D,20,00,0B,D6
728600600,00000130,false,1,8,0F,80,2A,7F,00,00,0C,9B
728600800,00000140,false,1,8,CA,80,00,5D,20,00,0C,EF
728610600,00000130,false,1,8,0E,80,31,7F,00,00,0D,FC
728610800,00000140,false,1,8,D2,80,00,5D,20,00,0D,99
728620300,00000500,false,1,1,0C
728620500,00000130,false,1,8,1C,80,3D,7F,00,00,0E,1A
728620800,00000140,false,1,8,E2,80,00,5D,20,00,0E,68
728621000,00000495,false,1,8,00,00,0A,0A,82,2D,EE,E4
728630400,00000130,false,1,8,1E,80,32,7F,00,00,0F,C1
728630600,00000140,false,1,8,F0,80,00,5D,20,00,0F,76
728640400,00000130,false,1,8,1A,80,26,7F,00,00,00,48
728640600,00000140,false,1,8,F6,80,00,5D,20,00,00,1E
728650400,00000130,false,1,8,1B,80,1B,7F,00,00,01,8F
728650600,00000140,false,1,8,FB,80,00,5D,20,00,01,E5
728660400,00000130,false,1,8,19,80,25,7F,00,00,02,2B
728660600,00000140,false,1,8,E9,80,00,5D,20,00,02,C1
728670400,00000130,false,1,8,21,80,24,7F,00,00,03,58
728670600,00000140,false,1,8,E5,80,00,5D,20,00,03,67
728680300,00000130,false,1,8,24,80,0E,7F,00,00,04,5D
728680600,00000140,false,1,8,F7,80,00,5D,20,00,04,37
728690300,00000130,false,1,8,14,80,16,7F,00,00,05,0F
728690600,00000140,false,1,8,F9,80,00,5D,20,00,05,2B
728700300,00000130,false,1,8,07,80,28,7F,00,00,06,4F
728700600,00000140,false,1,8,EC,80,00,5D,20,00,06,81
728710300,00000130,false,1,8,0B,80,24,7F,00,00,07,2B
728710500,00000140,false,1,8,E3,80,00,5D,20,00,07,C0
728720200,00000500,false,1,1,0C
728720400,00000130,false,1,8,17,80,15,7F,00,00,08,D7
728720600,00000140,false,1,8,E5,80,00,5D,20,00,08,A8
728720900,00000495,false,1,8,00,00,0A,0A,82,2D,EE,E4
728730300,00000130,false,1,8,17,80,1F,7F,00,00,09,69
728730500,00000140,false,1,8,07,81,00,5D,20,00,09,59
728740300,00000130,false,1,8,20,80,21,7F,00,00,0A,2F
728740500,00000140,false,1,8,0D,81,00,5D,20,00,0A,16
728750300,00000130,false,1,8,26,80,1A,7F,00,00,0B,07
728750500,00000140,false,1,8,FD,80,00,5D,20,00,0B,E4
728760200,00000130,false,1,8,2C,80,1F,7F,00,00,0C,E3
728760500,00000140,false,1,8,F7,80,00,5D,20,00,0C,DF
728770200,00000130,false,1,8,29,80,31,7F,00,00,0D,1D
728770500,00000140,false,1,8,F2,80,00,5D,20,00,0D,F6
728780200,00000130,false,1,8,26,80,3B,7F,00,00,0E,C5
728780400,00000140,false,1,8,F5,80,00,5D,20,00,0E,5F
728790200,00000130,false,1,8,26,80,35,7F,00,00,0F,CE
728790400,00000140,false,1,8,FF,80,00,5D,20,00,0F,2A
728800200,00000130,false,1,8,20,80,2F,7F,00,00,00,EB
728800500,00000140,false,1,8,FE,80,00,5D,20,00,00,CC
728810300,00000130,false,1,8,16,80,2A,7F,00,00,01,2C
728810600,00000140,false,1,8,06,81,00,5D,20,00,01,EC
728820000,00000500,false,1,1,0C
728820300,00000130,false,1,8,0D,80,26,7F,00,00,02,45
728820500,00000140,false,1,8,FE,80,00,5D,20,00,02,F6
728820700,00000495,false,1,8,00,00,0A,0A,82,2D,EE,E4
728830200,00000130,false,1,8,14,80,39,7F,00,00,03,FC
728830400,00000140,false,1,8,E4,80,00,5D,20,00,03,3A
728840100,00000130,false,1,8,15,80,35,7F,00,00,04,30
728840400,00000140,false,1,8,E2,80,00,5D,20,00,04,BA
728850100,00000130,false,1,8,1E,80,2E,7F,00,00,05,3F
728850400,00000140,false,1,8,EE,80,00,5D,20,00,05,1C
728860100,00000130,false,1,8,29,80,33,7F,00,00,06,06
728860400,00000140,false,1,8,F5,80,00,5D,20,00,06,B7
728870100,00000130,false,1,8,1E,80,37,7F,00,00,07,F6
728870300,00000140,false,1,8,F8,80,00,5D,20,00,07,4C
728880100,00000130,false,1,8,1A,80,26,7F,00,00,08,A0
728880300,00000140,false,1,8,F2,80,00,5D,20,00,08,9F
728890100,00000130,false,1,8,25,80,17,7F,00,00,09,72
728890300,00000140,false,1,8,DE,80,00,5D,20,00,09,56
728900100,00000130,false,1,8,20,80,29,7F,00,00,0A,58
728900300,00000140,false,1,8,E4,80,00,5D,20,00,0A,CF
728910100,00000130,false,1,8,26,80,32,7F,00,00,0B,B1
728910300,00000140,false,1,8,EA,80,00,5D,20,00,0B,D3
728919900,00000500,false,1,1,0C
728920200,00000130,false,1,8,1F,80,40,7F,00,00,0C,DF
728920400,00000140,false,1,8,E6,80,00,5D,20,00,0C,3B
728920600,00000495,false,1,8,00,00,0A,0A,82,2D,EE,E4
728930000,00000130,false,1,8,11,80,43,7F,00,00,0D,7D
728930300,00000140,false,1,8,F5,80,00,5D,20,00,0D,78
728940000,00000130,false,1,8,0E,80,30,7F,00,00,0E,B1
728940300,00000140,false,1,8,00,81,00,5D,20,00,0E,84
728950000,00000130,false,1,8,16,80,2F,7F,00,00,0F,55
728950200,00000140,false,1,8,F6,80,00,5D,20,00,0F,A5
728960000,00000130,false,1,8,18,80,20,7F,00,00,00,93
728960200,00000140,false,1,8,F3,80,00,5D,20,00,00,2A
728970000,00000130,false,1,8,0E,80,12,7F,00,00,01,1F
728970200,00000140,false,1,8,E4,80,00,5D,20,00,01,00
728980000,00000130,false,1,8,09,80,1C,7F,00,00,02,A0
728980200,00000140,false,1,8,E9,80,00,5D,20,00,02,C1
728989900,00000130,false,1,8,02,80,42,7F,00,00,03,EF
728990200,00000140,false,1,8,EE,80,00,5D,20,00,03,52
729000000,00000130,false,1,8,00,80,4A,7F,00,00,04,71
729000200,00000140,false,1,8,F5,80,00,5D,20,00,04,8D
729010100,00000130,false,1,8,14,80,22,7F,00,00,05,95
729010300,00000140,false,1,8,FE,80,00,5D,20,00,05,A5
729019800,00000500,false,1,1,0C
729020000,00000130,false,1,8,1D,80,06,7F,00,00,06,49
729020300,00000140,false,1,8,F5,80,00,5D,20,00,06,B7
729020500,00000495,false,1,8,00,00,0A,0A,82,2D,EE,E4
729029900,00000130,false,1,8,14,80,0D,7F,00,00,07,12
729030200,00000140,false,1,8,EB,80,00,5D,20,00,07,12
729039900,00000130,false,1,8,0D,80,1C,7F,00,00,08,1B
729040100,00000140,false,1,8,E5,80,00,5D,20,00,08,A8
729049900,00000130,false,1,8,09,80,18,7F,00,00,09,DA
729050100,00000140,false,1,8,E2,80,00,5D,20,00,09,3B
729059900,00000130,false,1,8,09,80,1C,7F,00,00,0A,48
729060100,00000140,false,1,8,E2,80,00,5D,20,00,0A,1C
729069900,00000130,false,1,8,12,80,18,7F,00,00,0B,6C
729070100,00000140,false,1,8,E9,80,00,5D,20,00,0B,34
729079800,00000130,false,1,8,21,80,0D,7F,00,00,0C,3F
729080100,00000140,false,1,8,DB,80,00,5D,20,00,0C,0B
729089800,00000130,false,1,8,31,80,14,7F,00,00,0D,68
729090100,00000140,false,1,8,DD,80,00,5D,20,00,0D,C5
729099800,00000130,false,1,8,2B,80,17,7F,00,00,0E,20
729100100,00000140,false,1,8,F1,80,00,5D,20,00,0E,36
729109800,00000130,false,1,8,1A,80,22,7F,00,00,0F,46
729110100,00000140,false,1,8,EB,80,00,5D,20,00,0F,FA
729119900,000005A0,false,0,8,00,00,00,C0,20,48,97,0D
729119700,00000500,false,1,1,0C
729119900,00000130,false,1,8,17,80,2E,7F,00,00,00,D9
729120100,00000140,false,1,8,EA,80,00,5D,20,00,00,1C
729120400,00000495,false,1,8,00,00,0A,0A,82,2D,EE,E4
729129800,00000130,false,1,8,1B,80,3C,7F,00,00,01,45
729130000,00000140,false,1,8,F3,80,00,5D,20,00,01,37
729139800,00000130,false,1,8,19,80,3A,7F,00,00,02,B9
729140000,00000140,false,1,8,E9,80,00,5D,20,00,02,C1
729149800,00000130,false,1,8,11,80,36,7F,00,00,03,B4
729150000,00000140,false,1,8,E7,80,00,5D,20,00,03,DD
729159700,00000130,false,1,8,18,80,2E,7F,00,00,04,F1
729160000,00000140,false,1,8,EA,80,00,5D,20,00,04,68
729169700,00000130,false,1,8,21,80,25,7F,00,00,05,7C
729170000,00000140,false,1,8,EB,80,00,5D,20,00,05,28
729179700,00000130,false,1,8,26,80,16,7F,00,00,06,44
729180000,00000140,false,1,8,EC,80,00,5D,20,00,06,81
729189700,00000130,false,1,8,1A,80,1F,7F,00,00,07,29
729189900,00000140,false,1,8,E7,80,00,5D,20,00,07,A9
729199800,00000130,false,1,8,14,80,35,7F,00,00,08,F1
729200100,00000140,false,1,8,E8,80,00,5D,20,00,08,4E
729209900,00000130,false,1,8,18,80,3B,7F,00,00,09,41
729210100,00000140,false,1,8,E6,80,00,5D,20,00,09,52
729219500,00000500,false,1,1,0C
729219800,00000130,false,1,8,14,80,2B,7F,00,00,0A,33
729220000,00000140,false,1,8,F7,80,00,5D,20,00,0A,91
729220200,00000495,false,1,8,00,00,0A,0A,82,2D,EE,E4
729229700,00000130,false,1,8,0B,80,1B,7F,00,00,0B,E4
729229900,00000140,false,1,8,0F,81,00,5D,20,00,0B,B1
729239600,00000130,false,1,8,08,80,14,7F,00,00,0C,2C
729239900,00000140,false,1,8,07,81,00,5D,20,00,0C,30
729249600,00000130,false,1,8,0E,80,16,7F,00,00,0D,36
729249900,00000140,false,1,8,ED,80,00,5D,20,00,0D,13
729259600,00000130,false,1,8,18,80,16,7F,00,00,0E,7B
729259900,00000140,false,1,8,D4,80,00,5D,20,00,0E,6D
729269600,00000130,false,1,8,1E,80,12,7F,00,00,0F,00
729269900,00000140,false,1,8,E4,80,00,5D,20,00,0F,A6
729279600,00000130,false,1,8,17,80,20,7F,00,00,00,CF
729279800,00000140,false,1,8,F3,80,00,5D,20,00,00,2A
729289600,00000130,false,1,8,0F,80,35,7F,00,00,01,88
729289800,00000140,false,1,8,E4,80,00,5D,20,00,01,00
729299600,00000130,false,1,8,0F,80,31,7F,00,00,02,1A
729299800,00000140,false,1,8,D7,80,00,5D,20,00,02,16
729309600,00000130,false,1,8,11,80,2B,7F,00,00,03,F2
729309800,00000140,false,1,8,D8,80,00,5D,20,00,03,57
729319400,00000500,false,1,1,0C
729319700,00000130,false,1,8,14,80,25,7F,00,00,04,83
729319900,00000140,false,1,8,F3,80,00,5D,20,00,04,5E
729320100,00000495,false,1,8,00,00,0A,0A,82,2D,EE,E4
729329500,00000130,false,1,8,13,80,19,7F,00,00,05,FD
729329800,00000140,false,1,8,03,81,00,5D,20,00,05,AC
729339500,00000130,false,1,8,17,80,1B,7F,00,00,06,67
729339800,00000140,false,1,8,FF,80,00,5D,20,00,06,DF
729349500,00000130,false,1,8,1B,80,2B,7F,00,00,07,EE
729349700,00000140,false,1,8,F7,80,00,5D,20,00,07,10
729359500,00000130,false,1,8,27,80,2C,7F,00,00,08,33
729359700,00000140,false,1,8,E8,80,00,5D,20,00,08,4E
729369500,00000130,false,1,8,2D,80,13,7F,00,00,09,15
729369700,00000140,false,1,8,EA,80,00,5D,20,00,09,E9
729379500,00000130,false,1,8,29,80,17,7F,00,00,0A,EE
729379700,00000140,false,1,8,ED,80,00,5D,20,00,0A,40
729389500,00000130,false,1,8,23,80,25,7F,00,00,0B,60
729389700,00000140,false,1,8,EE,80,00,5D,20,00,0B,BA
729399600,00000130,false,1,8,14,80,21,7F,00,00,0C,DE
729399800,00000140,false,1,8,EB,80,00,5D,20,00,0C,DD
729409600,00000130,false,1,8,18,80,26,7F,00,00,0D,73
729409800,00000140,false,1,8,F1,80,00,5D,20,00,0D,11
729419300,00000500,false,1,1,0C
729419500,00000130,false,1,8,21,80,24,7F,00,00,0E,D9
729419800,00000140,false,1,8,E1,80,00,5D,20,00,0E,8F
729420000,00000495,false,1,8,00,00,0A,0A,82,2D,EE,E4
729429400,00000130,false,1,8,20,80,2A,7F,00,00,0F,8F
729429700,00000140,false,1,8,EC,80,00,5D,20,00,0F,74
729439400,00000130,false,1,8,1D,80,33,7F,00,00,00,F7
729439600,00000140,false,1,8,F0,80,00,5D,20,00,00,CD
729449400,00000130,false,1,8,19,80,2F,7F,00,00,01,AF
729449600,00000140,false,1,8,F2,80,00,5D,20,00,01,6A
729459400,00000130,false,1,8,22,80,2F,7F,00,00,02,6B
729459600,00000140,false,1,8,E7,80,00,5D,20,00,02,C0
729469400,00000130,false,1,8,21,80,28,7F,00,00,03,9A
729469600,00000140,false,1,8,EE,80,00,5D,20,00,03,52
729479400,00000130,false,1,8,20,80,24,7F,00,00,04,56
729479600,00000140,false,1,8,E9,80,00,5D,20,00,04,8F
729489300,00000130,false,1,8,1D,80,22,7F,00,00,05,1A
729489600,00000140,false,1,8,D1,80,00,5D,20,00,05,96
729499300,00000130,false,1,8,25,80,1A,7F,00,00,06,61
729499600,00000140,false,1,8,D5,80,00,5D,20,00,06,D8
